!Agilent Technologies,N5224A,MY51441484,A.10.20.03
!Agilent N5224A: A.10.20.03
!Date: Friday, January 19, 2018 16:04:23
!Correction: Sdd11(Full 4 Port(1,2,3,4)) 
!Sdc11(Full 4 Port(1,2,3,4)) 
!Sdd12(Full 4 Port(1,2,3,4)) 
!Sdc12(Full 4 Port(1,2,3,4)) 
!Scd11(Full 4 Port(1,2,3,4)) 
!Scc11(Full 4 Port(1,2,3,4)) 
!Scd12(Full 4 Port(1,2,3,4)) 
!Scc12(Full 4 Port(1,2,3,4)) 
!Sdd21(Full 4 Port(1,2,3,4)) 
!Sdc21(Full 4 Port(1,2,3,4)) 
!Sdd22(Full 4 Port(1,2,3,4)) 
!Sdc22(Full 4 Port(1,2,3,4)) 
!Scd21(Full 4 Port(1,2,3,4)) 
!Scc21(Full 4 Port(1,2,3,4)) 
!Scd22(Full 4 Port(1,2,3,4)) 
!Scc22(Full 4 Port(1,2,3,4)) 
!Balanced Topology: BBAL
!S4P File: Measurements: <Sdd11,Sdc11,Sdd12,Sdc12>,
!<Scd11,Scc11,Scd12,Scc12>,
!<Sdd21,Sdc21,Sdd22,Sdc22>,
!<Scd21,Scc21,Scd22,Scc22>:
# Hz S  dB   R 50
10000000 -45.613255 41.633907 -53.068745 21.990543 0.083848208 -1.797227 -40.595898 -19.464069
-52.627205 22.911173 -45.383621 41.980686 -40.591015 -19.669771 0.083927527 -1.8020321
0.11444531 -1.2811182 -36.939564 -19.921495 -53.773357 43.27232 -53.103798 72.888969
-37.059494 -19.474186 0.11472467 -1.2884277 -52.54863 75.320244 -53.195004 44.810207
20000000 -52.685001 3.358542 -63.728348 -99.485764 0.091370881 -3.1757257 -40.70546 -18.399136
-64.263611 -97.887207 -52.338966 16.22356 -40.724987 -18.170471 0.091475792 -3.1878097
0.12738211 -2.7569654 -36.71384 -16.763081 -56.677956 50.253021 -62.702045 72.376999
-36.696781 -16.582815 0.12814903 -2.7692196 -63.891151 65.449028 -54.304066 59.685322
30000000 -52.366135 48.942616 -60.232433 179.67395 0.08666493 -4.5607953 -40.464931 -18.340584
-60.030159 179.68312 -50.452908 58.975903 -40.497974 -17.992973 0.08694353 -4.5823369
0.12552623 -4.1381879 -36.720955 -16.728815 -51.280521 53.446434 -72.879868 -158.01666
-36.748669 -16.738758 0.12565552 -4.1617565 -72.153221 -169.73499 -49.426914 60.888977
40000000 -49.410938 56.086414 -62.720623 123.76031 0.06546542 -5.8907275 -40.413967 -20.851402
-63.015396 128.01045 -47.388371 63.02124 -40.435741 -20.841433 0.065918081 -5.9187417
0.10930855 -5.4637003 -36.747005 -16.904501 -50.115623 45.848843 -66.205284 166.6068
-36.752483 -16.998795 0.10917693 -5.4936438 -66.80143 167.87671 -47.991344 55.994186
50000000 -46.805874 33.930786 -63.547039 56.512733 0.04310618 -7.1021399 -40.416931 -21.112034
-63.451122 55.603828 -45.255234 44.421455 -40.430126 -21.280783 0.043677162 -7.1361079
0.090062045 -6.6833653 -36.711143 -17.767851 -47.588055 28.426056 -68.93428 113.91616
-36.682751 -17.691034 0.090134405 -6.7215981 -69.236374 118.40235 -45.990108 41.729782
60000000 -45.767246 31.225992 -62.835415 31.829792 0.031675369 -7.7937198 -40.952797 -7.5991149
-63.1395 35.200428 -44.206814 42.422386 -40.94371 -7.4187074 0.031711478 -7.8359203
0.13725749 -7.8694282 -33.963345 -12.055889 -46.389904 30.489738 -73.103867 4.5203261
-33.984123 -11.984538 0.13854502 -7.9138575 -72.102325 -8.3500023 -44.589272 43.010872
70000000 -44.674042 25.650263 -71.777542 20.563648 0.026694663 -9.0800905 -40.985924 -8.0160208
-70.383408 14.669121 -43.063381 38.482597 -40.990242 -7.758728 0.027469449 -9.1324329
0.13384166 -9.1709023 -33.941322 -13.796204 -44.791229 24.313738 -63.18367 33.118599
-33.943958 -13.774686 0.13467412 -9.2232046 -63.607288 27.648613 -43.182465 37.304634
80000000 -43.865482 25.19496 -66.433464 63.573395 0.022828136 -10.331023 -40.956085 -8.8391685
-66.246742 59.240627 -42.211533 38.169369 -40.924007 -8.7565536 0.023426892 -10.389124
0.13081996 -10.442718 -33.960602 -14.929267 -43.869629 23.483089 -62.782738 23.330391
-33.979931 -14.810463 0.13145719 -10.501346 -62.960201 19.885077 -42.206268 36.729397
90000000 -42.549984 21.12167 -62.805965 52.524506 0.020538744 -11.629021 -40.964371 -9.646615
-63.089455 50.542713 -41.016968 34.164509 -40.955627 -9.6726818 0.020873005 -11.694567
0.1279017 -11.758318 -33.944756 -15.986035 -42.55109 19.851313 -62.972607 10.173713
-33.944023 -15.923852 0.12823074 -11.825574 -63.500355 5.320641 -41.029125 33.327133
100000000 -42.39994 11.373032 -64.514633 29.248913 0.018124793 -12.93243 -41.070797 -11.858274
-64.499306 25.654579 -40.991199 26.762079 -41.076103 -11.749818 0.01854362 -13.004941
0.12439796 -13.060799 -33.875214 -16.789614 -42.209682 13.220831 -65.183952 30.842604
-33.871346 -16.706059 0.12469392 -13.134407 -65.39946 24.605625 -40.716331 28.58209
110000000 -42.854717 6.2870808 -74.800323 41.42728 0.014916237 -14.226509 -41.332649 -12.912188
-74.41993 43.91774 -41.324089 24.689726 -41.343517 -12.902155 0.015387124 -14.30905
0.1201875 -14.347905 -33.780506 -18.273609 -42.066868 9.6535234 -63.107731 62.251377
-33.77739 -18.186119 0.12095704 -14.429646 -63.665295 60.649265 -40.555016 26.3869
120000000 -43.002357 7.5746551 -65.135338 129.98111 0.010429078 -15.512728 -41.502014 -12.645018
-65.667152 131.26022 -41.168194 27.006281 -41.517143 -12.591157 0.011058248 -15.602198
0.11739671 -15.622615 -33.771568 -20.210953 -41.723225 8.0336599 -61.217709 72.44072
-33.768196 -20.150299 0.11810865 -15.712652 -61.593418 71.594368 -40.119507 25.467148
130000000 -41.946655 9.1684752 -59.739723 101.85718 0.0051649744 -16.778111 -41.441116 -12.959374
-59.965832 102.57028 -40.081749 27.27195 -41.450184 -12.769684 0.0057643349 -16.876822
0.11435209 -16.890841 -33.887157 -21.904343 -41.25843 6.2265663 -60.980747 73.509277
-33.891224 -21.847551 0.11477081 -16.988596 -61.528706 73.384361 -39.621971 24.037491
140000000 -40.753265 4.5664949 -58.621822 75.253059 0.0015874755 -18.033627 -41.260521 -13.891677
-58.762035 74.817307 -39.119194 22.522331 -41.266197 -13.816091 0.0022165142 -18.139036
0.11028036 -18.159187 -33.976604 -22.946589 -40.729462 2.1274309 -62.703835 70.117348
-33.985783 -22.832373 0.11084165 -18.262766 -63.478828 70.576393 -39.19006 20.835821
150000000 -40.211815 -3.8069737 -61.631149 37.180901 -0.0016139321 -19.292212 -41.186653 -15.30595
-61.769215 36.923981 -38.864346 15.632579 -41.199947 -15.184468 -0.0007475451 -19.402987
0.1073347 -19.423622 -34.018127 -23.784454 -40.464455 -3.3429198 -64.843697 69.940613
-34.021797 -23.654087 0.10816759 -19.535076 -65.528412 71.573677 -39.024685 16.703609
160000000 -40.465958 -11.240894 -67.708099 4.1213889 -0.004327503 -20.561563 -41.094215 -17.196415
-67.979042 1.3270932 -39.239483 11.047235 -41.110165 -17.182285 -0.0038578799 -20.680365
0.10391818 -20.689651 -34.025013 -24.753052 -40.486309 -8.6020279 -67.33754 79.640388
-34.027885 -24.666138 0.10466184 -20.809303 -68.881981 79.009476 -39.118038 13.550612
170000000 -41.034538 -13.94244 -81.275124 109.87771 -0.0065645203 -21.833031 -41.094849 -18.930643
-83.001579 102.95399 -39.656868 11.233633 -41.09341 -18.824036 -0.0057218908 -21.960337
0.10027222 -21.958118 -34.033924 -25.609644 -40.514202 -12.282107 -66.481003 69.885521
-34.033566 -25.497381 0.10110168 -22.085085 -67.840042 66.406273 -39.138416 11.609096
180000000 -40.869858 -12.291195 -65.671959 91.864021 -0.0087660225 -23.107531 -41.118366 -20.786417
-66.203514 88.059517 -39.288742 12.983532 -41.122017 -20.394756 -0.0081174243 -23.243361
0.098066837 -23.231243 -34.031006 -26.617714 -40.447166 -14.587112 -64.980583 39.653259
-34.020611 -26.489128 0.098811105 -23.365765 -65.982071 39.73856 -39.021049 10.318966
190000000 -40.013351 -14.498309 -62.558849 41.533176 -0.012224344 -24.382854 -41.139278 -22.451416
-62.790134 40.534214 -38.550579 9.9286394 -41.155903 -22.273376 -0.011345567 -24.522974
0.094380565 -24.502125 -34.008533 -27.577803 -39.671707 -18.544968 -62.180382 14.938471
-34.014961 -27.508677 0.095535658 -24.644264 -63.326946 11.789249 -38.457024 6.4999318
200000000 -39.182125 -21.814877 -61.430004 8.0303669 -0.01565413 -25.651064 -41.210495 -23.338192
-61.346157 6.3006306 -38.126465 3.084918 -41.227379 -23.4716 -0.015098855 -25.799192
0.090464376 -25.771036 -34.011623 -28.989567 -38.97411 -23.851143 -61.653748 0.46388426
-33.996399 -28.837751 0.091596335 -25.919146 -62.198139 -8.565074 -38.069977 1.3303535
210000000 -39.062004 -30.839701 -63.485634 -31.833672 -0.019291094 -26.923803 -41.226692 -25.391228
-63.133244 -32.391811 -38.436249 -3.6589046 -41.243038 -25.343006 -0.018377326 -27.079983
0.086632296 -27.040562 -34.014965 -30.16865 -38.762024 -29.378775 -63.168961 -10.295512
-34.013725 -29.985012 0.087614544 -27.197012 -63.300251 -14.713788 -38.069157 -3.0407317
220000000 -39.852173 -35.849705 -74.598534 -117.46452 -0.023943607 -28.189947 -41.272511 -26.610872
-72.066452 -105.79772 -39.254066 -4.4803596 -41.259605 -26.660549 -0.022895139 -28.355236
0.082506865 -28.308857 -33.985767 -31.465494 -38.896416 -32.335468 -63.822594 11.600512
-33.982693 -31.357016 0.083560281 -28.473404 -64.265434 1.8725636 -38.22234 -4.1156273
230000000 -39.922565 -32.01009 -65.221741 117.71232 -0.027547831 -29.456762 -41.332493 -27.833933
-65.554108 121.79823 -38.841801 -0.33141112 -41.314625 -27.703558 -0.026381392 -29.630436
0.078042701 -29.569572 -33.985409 -32.647533 -38.392914 -30.960108 -61.87756 17.273321
-33.985893 -32.566208 0.079181992 -29.74431 -62.353077 12.755275 -37.547382 -3.5226738
240000000 -39.670761 -39.42276 -66.664841 118.14017 -0.031803735 -30.723295 -41.357819 -28.89208
-67.589073 119.92555 -39.005253 -5.785563 -41.350906 -28.921169 -0.030552769 -30.903872
0.074689575 -30.837185 -33.993454 -34.08284 -38.810429 -44.028873 -62.260307 110.90642
-33.998451 -33.940384 0.075668164 -31.015446 -63.127178 116.40062 -38.678101 -12.077179
250000000 -39.428799 -32.387085 -55.578869 53.933445 -0.035298735 -31.98386 -41.282902 -30.792753
-55.78112 53.353821 -38.151527 -0.63877046 -41.30072 -30.765436 -0.03404659 -32.171677
0.070132539 -32.093346 -34.01482 -35.039345 -38.389214 -31.392492 -57.512726 49.479862
-34.011524 -34.922447 0.070894748 -32.281601 -58.448433 47.737347 -37.2589 -2.4542098
260000000 -38.675873 -36.344681 -61.222374 46.438053 -0.038224667 -33.23753 -41.19342 -32.481392
-61.69659 46.241528 -37.699253 -5.2540793 -41.18388 -32.018482 -0.036731392 -33.434254
0.070121497 -33.362762 -34.048519 -36.485241 -37.875954 -37.406551 -62.542614 53.882362
-34.053913 -36.355076 0.071079485 -33.557537 -63.503918 48.591328 -37.118511 -8.1513844
270000000 -38.261078 -41.659805 -60.342747 39.542469 -0.040082764 -34.494087 -41.190891 -33.495274
-61.057587 38.142586 -37.582222 -10.029437 -41.168247 -33.555393 -0.03860452 -34.700241
0.068190813 -34.622986 -34.016304 -37.532337 -37.867626 -42.758698 -62.597691 61.392822
-34.024067 -37.478432 0.069849379 -34.824608 -65.069572 65.154449 -37.32806 -11.699749
280000000 -38.336739 -46.990143 -62.803646 25.169895 -0.041534182 -35.750141 -41.137714 -34.931767
-63.29306 23.685415 -37.869606 -12.900051 -41.138908 -34.549671 -0.040018402 -35.960754
0.065825567 -35.881153 -33.974686 -38.9888 -38.006664 -47.655113 -65.864868 57.560177
-33.982319 -38.818363 0.067044929 -36.09166 -67.737053 57.507618 -37.684196 -14.274826
290000000 -38.300148 -50.629555 -68.795563 15.782786 -0.04588237 -37.008518 -41.148327 -35.752171
-69.458687 11.584537 -38.006771 -15.229199 -41.169731 -35.935051 -0.044030555 -37.226692
0.063217662 -37.13916 -33.975677 -40.272766 -38.153282 -51.272453 -73.032478 55.911125
-33.978096 -40.145443 0.06468749 -37.35741 -79.715439 46.150459 -37.916039 -15.75523
300000000 -38.113804 -53.209316 -71.954865 97.061172 -0.047993965 -38.270065 -41.136185 -37.71114
-75.564369 104.52301 -37.895584 -17.156698 -41.136295 -37.594685 -0.046369702 -38.493599
0.060474332 -38.398464 -34.0327 -41.378826 -37.96521 -53.630592 -86.00444 21.848438
-34.02961 -41.254101 0.062080558 -38.624374 -78.308441 -92.010826 -37.807632 -17.280659
310000000 -37.794334 -56.219074 -67.142891 79.237724 -0.052175578 -39.531612 -41.227001 -39.094425
-68.848801 75.488571 -37.745529 -19.82028 -41.232117 -38.901531 -0.050597943 -39.763844
0.057287045 -39.654701 -34.03746 -42.889477 -37.519402 -56.274006 -90.754082 108.58358
-34.038944 -42.705956 0.058982745 -39.887894 -76.391663 -134.46326 -37.496918 -20.445871
320000000 -37.520786 -60.410824 -69.266449 51.832546 -0.054958608 -40.798115 -41.23703 -40.887779
-69.665649 45.689053 -37.738491 -23.29701 -41.230541 -40.734821 -0.053368401 -41.039894
0.053037368 -40.915596 -34.087193 -43.904202 -37.185829 -60.82547 -70.398994 24.60984
-34.098602 -43.705288 0.05486856 -41.154083 -72.949753 1.8766195 -37.480335 -24.574108
330000000 -37.840652 -63.694492 -70.976212 70.229179 -0.058879409 -42.060097 -41.242989 -42.15453
-72.858917 69.30529 -38.151745 -23.778252 -41.317989 -42.025963 -0.057318062 -42.308506
0.049584221 -42.175983 -34.023117 -44.890057 -37.169621 -64.119553 -61.379738 -14.568601
-34.02652 -44.666637 0.051192556 -42.425274 -61.858749 -22.096693 -37.627991 -26.48753
340000000 -37.400505 -58.765003 -61.887932 59.621147 -0.062514506 -43.318024 -41.28091 -43.7561
-62.632732 61.551926 -37.143631 -21.021797 -41.29792 -43.750549 -0.061115164 -43.576618
0.046282716 -43.432972 -34.002102 -46.183208 -37.057285 -61.60643 -59.571281 -40.573139
-34.007271 -45.970997 0.047928799 -43.688633 -59.605175 -48.926296 -37.147408 -24.171793
350000000 -36.229263 -67.06353 -62.633404 -9.4889259 -0.067246713 -44.579166 -41.386894 -44.814537
-62.550137 -15.139401 -36.790318 -31.789618 -41.359028 -44.897968 -0.06521789 -44.843422
0.041592233 -44.695755 -34.031124 -47.68124 -36.17984 -66.675583 -71.902222 -22.80406
-34.037029 -47.467106 0.043501176 -44.958565 -72.190948 -59.971424 -36.732208 -31.135277
360000000 -37.323612 -70.290054 -88.346642 155.64731 -0.071087532 -45.837597 -41.417023 -46.273167
-87.324638 -128.92369 -37.854755 -28.770164 -41.432705 -46.2981 -0.069042802 -46.110256
0.037564233 -45.951797 -34.067387 -49.022034 -36.711742 -68.696571 -60.644703 6.5960197
-34.068745 -48.81731 0.039859742 -46.224518 -61.771145 -3.4373577 -37.197029 -29.695816
370000000 -37.230625 -66.66375 -60.90303 79.025589 -0.073865965 -47.095348 -41.354748 -47.383667
-61.617222 79.462524 -37.223427 -25.697363 -41.375473 -47.020752 -0.072046451 -47.373829
0.03519835 -47.209354 -34.057796 -49.941654 -36.452042 -66.358635 -64.191826 -10.819739
-34.053524 -49.746387 0.037130568 -47.488949 -65.338203 -25.425352 -36.598011 -28.028198
380000000 -36.638855 -67.368629 -58.360428 42.402229 -0.077726595 -48.351257 -41.407524 -48.857479
-58.644688 41.049427 -36.670578 -28.075682 -41.431412 -48.589554 -0.075585298 -48.637798
0.031375326 -48.461876 -34.031021 -51.28508 -35.973206 -68.45694 -66.243202 38.554344
-34.0373 -51.127342 0.033347134 -48.746597 -69.124565 35.381111 -36.238567 -31.240301
390000000 -36.185669 -71.623413 -59.821274 11.15037 -0.081030898 -49.604328 -41.457569 -50.21764
-60.143337 8.6173134 -36.571678 -32.764526 -41.462738 -49.95739 -0.078727707 -49.897507
0.029711615 -49.716877 -34.032349 -52.604992 -35.844967 -72.665573 -62.728184 42.731522
-34.051281 -52.368336 0.031972881 -50.010105 -64.272408 38.964355 -36.372238 -34.606171
400000000 -36.021442 -77.403427 -68.21965 12.4739 -0.083696865 -50.858143 -41.418446 -51.580994
-69.178078 6.9293504 -36.873219 -37.503136 -41.437771 -51.353996 -0.081158109 -51.159668
0.026108306 -50.972874 -34.010998 -53.782101 -35.889339 -76.579979 -63.498428 36.415272
-34.016438 -53.532894 0.028561756 -51.273033 -66.12159 37.272156 -36.653774 -36.656002
410000000 -36.212326 -81.825127 -66.318909 87.130043 -0.086411878 -52.117447 -41.370865 -52.943451
-67.507919 86.594963 -37.350578 -39.424286 -41.378078 -52.769077 -0.083597414 -52.425934
0.022649214 -52.225224 -34.029659 -55.072552 -35.979614 -79.376152 -65.528648 44.385826
-34.024059 -54.816032 0.025019776 -52.534603 -68.814308 41.014145 -36.845417 -37.99044
420000000 -36.383041 -84.070457 -60.103569 68.907761 -0.089861415 -53.370461 -41.411098 -54.566456
-60.790123 69.064018 -37.574844 -39.404221 -41.427475 -54.270302 -0.087163515 -53.685726
0.019335121 -53.481773 -34.017445 -56.316395 -35.704037 -81.606201 -66.03389 54.445324
-34.019825 -56.10701 0.0219345 -53.797569 -69.890236 58.57515 -36.709358 -40.28651
430000000 -36.007969 -84.942688 -59.506752 42.07383 -0.092103481 -54.622444 -41.415634 -55.586063
-60.323696 40.075939 -37.184917 -41.314285 -41.45726 -55.404423 -0.089325361 -54.947186
0.015824815 -54.737114 -34.01123 -57.683716 -35.240948 -84.664917 -66.842819 19.486444
-34.012589 -57.470844 0.018575916 -55.061184 -70.595474 11.564855 -36.492977 -44.506821
440000000 -35.35368 -87.70092 -61.397911 0.56383306 -0.095177285 -55.87674 -41.396729 -56.58004
-61.660625 -3.2333944 -36.776447 -46.29163 -41.434441 -56.487675 -0.092137247 -56.207996
0.012681189 -55.990646 -34.062431 -58.97147 -34.815384 -89.025314 -63.488022 -24.639656
-34.057949 -58.694786 0.015544716 -56.322666 -64.296265 -43.50304 -36.445992 -49.792828
450000000 -34.882492 -92.365822 -65.386154 -58.260941 -0.098755077 -57.130672 -41.444355 -58.276875
-65.259628 -66.776428 -36.745575 -52.185509 -41.482117 -58.267792 -0.095538437 -57.470169
0.0099706557 -57.247101 -34.064674 -60.258469 -34.595745 -93.070259 -62.27459 -53.385113
-34.068802 -60.018028 0.012992272 -57.587273 -62.137154 -66.858421 -36.560093 -53.661694
460000000 -34.782089 -96.65966 -70.593117 -125.79384 -0.10222305 -58.38353 -41.426979 -59.63253
-68.695099 -128.14313 -37.034779 -55.78244 -41.471256 -59.514725 -0.098936498 -58.731178
0.0062374533 -58.500065 -34.093536 -61.506523 -34.628815 -95.028801 -63.704369 -57.650383
-34.103302 -61.297752 0.0095889159 -58.847427 -63.144894 -74.290924 -36.668491 -54.376583
470000000 -34.79277 -99.025978 -68.152473 136.00742 -0.10510851 -59.634422 -41.480488 -60.950478
-68.207214 140.99236 -37.173687 -56.964985 -41.499722 -60.586906 -0.10182391 -59.989498
0.0031082744 -59.752304 -34.033211 -62.734665 -34.30603 -94.823669 -64.38311 -50.63063
-34.03537 -62.458618 0.0064641843 -60.107449 -63.640911 -70.418861 -36.175091 -55.0784
480000000 -34.757469 -101.15738 -70.227303 91.73468 -0.10889774 -60.886902 -41.540581 -62.294754
-71.979141 102.52113 -37.248245 -58.190929 -41.568535 -61.987213 -0.10544425 -61.249386
0.00015876174 -61.003548 -34.046749 -63.901508 -34.007336 -98.288094 -65.429817 -3.4006143
-34.060596 -63.679569 0.0037224826 -61.366074 -67.980965 -21.282112 -36.143398 -59.103909
490000000 -34.994122 -101.2159 -63.552368 62.444939 -0.11144486 -62.139648 -41.527016 -63.51186
-64.567139 63.635693 -37.284405 -55.95142 -41.548683 -63.261105 -0.10787449 -62.512016
-0.0033159798 -62.257252 -34.072113 -65.109001 -34.390667 -99.696297 -59.612267 3.3611605
-34.070965 -64.830513 0.00010243966 -62.629387 -61.234932 -4.4133325 -36.526169 -57.359028
500000000 -34.61911 -100.81355 -59.926468 11.283959 -0.11573591 -63.395885 -41.521416 -65.43605
-60.48085 8.5174637 -36.699471 -56.812893 -41.530426 -65.226021 -0.11221161 -63.773335
-0.0058696517 -63.504421 -34.00668 -66.422211 -34.185089 -97.716942 -60.484818 1.9223869
-34.012699 -66.136002 -0.0023493499 -63.881939 -62.385635 -5.7007442 -35.914234 -55.937939
510000000 -34.277126 -104.30973 -61.817501 -30.668619 -0.11625389 -64.64315 -41.460411 -66.365562
-61.996147 -34.322021 -36.699745 -61.224812 -41.494759 -66.170761 -0.11241281 -65.029045
-0.0085758362 -64.751259 -34.042397 -67.712288 -33.746975 -101.33116 -62.140099 16.384203
-34.048176 -67.352882 -0.0045992131 -65.136971 -64.31424 12.191441 -35.798214 -60.797604
520000000 -34.320267 -108.88911 -67.016647 -15.270008 -0.1196432 -65.896362 -41.295719 -67.535889
-67.87291 -29.482378 -37.19088 -64.542747 -41.340969 -67.253838 -0.11564811 -66.290634
-0.011918094 -66.006767 -34.060829 -68.933197 -33.782261 -106.12983 -63.686096 43.789017
-34.051754 -68.678253 -0.0078897793 -66.400627 -66.798332 52.063381 -36.302876 -64.423775
530000000 -34.465816 -112.37589 -67.175171 3.6665041 -0.12234676 -67.148262 -41.381844 -68.987473
-67.973251 -5.5976014 -37.684803 -65.821747 -41.41473 -68.803131 -0.11821923 -67.550484
-0.014069738 -67.257652 -34.01606 -70.306091 -33.940987 -109.11352 -63.425144 57.612217
-34.022079 -69.956612 -0.010004186 -67.660446 -66.957817 70.289345 -36.70504 -65.354233
540000000 -34.413399 -114.2694 -64.842499 -9.0379295 -0.12419342 -68.397789 -41.351135 -69.844757
