!Agilent Technologies,N5224A,MY51441484,A.10.20.03
!Agilent N5224A: A.10.20.03
!Date: Friday, January 19, 2018 16:04:45
!Correction: S11(Full 4 Port(1,2,3,4)) 
!S12(Full 4 Port(1,2,3,4)) 
!S13(Full 4 Port(1,2,3,4)) 
!S14(Full 4 Port(1,2,3,4)) 
!S21(Full 4 Port(1,2,3,4)) 
!S22(Full 4 Port(1,2,3,4)) 
!S23(Full 4 Port(1,2,3,4)) 
!S24(Full 4 Port(1,2,3,4)) 
!S31(Full 4 Port(1,2,3,4)) 
!S32(Full 4 Port(1,2,3,4)) 
!S33(Full 4 Port(1,2,3,4)) 
!S34(Full 4 Port(1,2,3,4)) 
!S41(Full 4 Port(1,2,3,4)) 
!S42(Full 4 Port(1,2,3,4)) 
!S43(Full 4 Port(1,2,3,4)) 
!S44(Full 4 Port(1,2,3,4)) 
!S4P File: Measurements: <S11,S12,S13,S14>,
!<S21,S22,S23,S24>,
!<S31,S32,S33,S34>,
!<S41,S42,S43,S44>:
# Hz S  dB   R 50
10000000 -42.642326 36.393692 0.15793064 -1.9352517 -76.388847 84.959496 -98.808304 -142.75424
0.22519268 -1.5354366 -47.724606 59.122219 -93.265297 172.45195 -91.981628 -23.103884
-76.127724 86.43264 -91.751862 141.47572 -49.931847 56.231037 0.0070137195 -1.6372494
-87.181183 -55.145039 -85.277077 110.24816 0.0013232935 -1.04451 -58.358589 -36.772583
20000000 -53.041191 -4.6400223 0.16127867 -3.2977023 -70.446533 89.640343 -78.044144 -86.565033
0.24504752 -2.9445884 -52.524246 59.169601 -75.50106 -93.799126 -69.740768 91.424919
-71.612366 85.524826 -80.34726 -35.545975 -52.015591 22.584089 0.014605695 -3.0444927
-80.221458 -77.807686 -71.721313 72.366081 0.0070359036 -2.5634654 -59.693447 45.96719
30000000 -52.581417 73.92836 0.16008766 -4.6770096 -68.511101 91.970314 -73.025726 -87.617386
0.24139096 -4.3138528 -50.624943 60.722775 -73.527382 -90.534027 -68.856773 85.873413
-68.509201 88.229179 -75.296577 -96.271049 -49.394653 41.284355 0.007405085 -4.4443245
-75.49675 -81.402565 -69.140785 86.358459 0.0035503758 -3.9643106 -49.832855 54.714493
40000000 -47.645317 68.541985 0.13941202 -6.0182123 -65.533241 89.024071 -71.914619 -87.035645
0.2258983 -5.6269507 -49.251072 58.153946 -70.866074 -93.100464 -65.306183 88.641533
-65.841888 89.092461 -72.134422 -99.073654 -48.781742 49.457703 -0.013976705 -5.7639303
-71.911057 -95.731499 -65.806671 88.664902 -0.012912455 -5.312995 -48.48148 45.113632
50000000 -44.987713 41.653584 0.11749046 -7.2263317 -63.777534 86.881073 -70.752319 -88.54174
0.2076088 -6.8446646 -46.597214 39.570641 -69.538956 -93.932236 -63.211903 86.19857
-63.550446 85.241203 -70.366577 -94.361725 -47.144455 36.831753 -0.03680139 -6.9857349
-70.272339 -96.926765 -63.875961 85.174171 -0.033901542 -6.5423808 -46.894749 31.309454
60000000 -43.894661 36.700157 0.10497396 -7.8170772 -62.212322 81.861855 -68.340324 -98.273834
0.29891396 -7.9666672 -45.222958 35.705753 -68.319534 -93.820526 -61.673401 84.696037
-62.544098 82.424423 -68.362267 -98.881569 -46.072376 37.261509 -0.046233151 -7.8174925
-67.849838 -91.548615 -61.784191 85.945961 -0.033473585 -7.8063421 -45.783726 39.074921
70000000 -43.619923 31.97912 0.099088296 -9.0984144 -60.748116 81.861427 -66.354744 -93.392883
0.29444635 -9.284029 -43.166332 31.479042 -66.098366 -97.925362 -60.356628 82.250099
-60.861176 83.701485 -67.076996 -93.409508 -44.386913 32.990757 -0.050534744 -9.1172676
-66.578476 -98.94194 -60.906296 82.907845 -0.038840216 -9.1141214 -44.993977 31.517576
80000000 -42.563419 34.020809 0.09599866 -10.348558 -59.568264 80.449127 -65.744873 -98.366135
0.29045168 -10.546256 -42.20739 29.69488 -65.851021 -96.005562 -59.335247 80.912422
-59.554176 80.430046 -66.179245 -100.77557 -43.649487 30.165131 -0.054938264 -10.374149
-65.631683 -94.286209 -59.81197 81.353897 -0.04154649 -10.384722 -43.977142 31.774658
90000000 -41.13987 30.215776 0.093763091 -11.654369 -58.538868 80.492378 -64.857597 -100.17778
0.28892982 -11.863434 -41.198753 25.641478 -64.574997 -99.265617 -58.229099 79.592957
-58.639194 79.554741 -64.983803 -99.553146 -42.567196 26.076693 -0.057176482 -11.679832
-64.439445 -100.97153 -58.696049 80.348816 -0.045527618 -11.709802 -42.536617 28.928467
100000000 -41.14962 20.501741 0.090580046 -12.965559 -57.625721 77.318268 -63.842041 -100.57903
0.28578186 -13.158683 -40.964882 21.956875 -63.199318 -98.958885 -57.25869 79.001678
-57.7332 78.396408 -63.982151 -102.46722 -42.382584 19.59207 -0.05859863 -12.979075
-63.670734 -99.612663 -57.883186 78.011734 -0.050099451 -13.022155 -42.085167 21.139112
110000000 -41.936699 17.000275 0.084735595 -14.262313 -56.726517 77.739731 -62.82019 -101.71816
0.28404617 -14.456902 -40.904587 21.699459 -62.634754 -102.24792 -56.583611 77.594109
-56.922077 76.72789 -62.880955 -101.56516 -42.329399 15.943444 -0.059478648 -14.279497
-62.725483 -102.44915 -56.846478 77.368355 -0.056026891 -14.309337 -41.877472 15.481623
120000000 -42.349941 21.77622 0.078763679 -15.538776 -55.999302 76.095398 -62.086147 -102.36675
0.28146371 -15.74834 -40.5247 21.533943 -62.08136 -103.59042 -55.83403 75.944901
-56.121258 75.899086 -62.073757 -103.30988 -41.869312 14.675662 -0.062378835 -15.58235
-62.19244 -103.92129 -56.030437 75.642456 -0.058862343 -15.575438 -41.450218 12.865015
130000000 -40.8755 25.141207 0.074193411 -16.803484 -55.372395 74.763092 -61.145782 -104.21405
0.27619979 -17.028444 -40.059433 20.003979 -61.063622 -103.74847 -55.136463 74.21949
-55.50391 73.606583 -61.622456 -104.08369 -41.140839 12.333185 -0.068170346 -16.861246
-61.473862 -104.55431 -55.500099 74.115829 -0.059509143 -16.842422 -40.917332 11.324391
140000000 -39.519665 19.46055 0.072252057 -18.057846 -54.764416 72.86364 -60.666229 -105.63724
0.27148739 -18.289835 -39.732555 15.555012 -60.518169 -104.46581 -54.46312 73.138107
-54.761787 72.621994 -60.95702 -106.27811 -40.465652 8.3233738 -0.073304109 -18.123213
-60.951389 -106.34081 -54.810059 73.216194 -0.061926164 -18.115391 -40.354988 8.7634792
150000000 -39.090397 8.7140455 0.069758393 -19.321287 -54.08366 72.134819 -60.200115 -106.00073
0.26763812 -19.549477 -39.646507 10.183158 -59.964413 -106.54532 -53.947781 71.376404
-54.246464 71.929352 -60.39547 -106.37267 -40.256569 4.2899718 -0.077039838 -19.383661
-60.285725 -107.95223 -54.197403 71.726181 -0.06469094 -19.395906 -40.051338 4.678844
160000000 -39.6702 1.0471735 0.067334764 -20.595612 -53.476357 70.187263 -59.68145 -108.68244
0.26407769 -20.817604 -39.847813 5.4905887 -59.618114 -107.80735 -53.314877 70.796234
-53.652775 70.181747 -59.744839 -108.11359 -40.366207 0.74083656 -0.08084204 -20.651453
-59.708748 -108.12811 -53.620758 70.779922 -0.068339825 -20.671196 -40.014439 1.1571677
170000000 -40.521729 0.18610853 0.065622427 -21.876595 -52.969032 69.485512 -59.020603 -109.42749
0.26010749 -22.081532 -39.830177 2.9926252 -58.871426 -109.63033 -52.781284 69.497505
-53.151344 69.08847 -59.068508 -109.28635 -40.488167 -0.67505533 -0.083011262 -21.923555
-59.1017 -109.7491 -53.110455 69.154655 -0.071981773 -21.948883 -40.126472 -1.7410946
180000000 -40.26189 4.3721533 0.063104287 -23.159798 -52.455181 68.35305 -58.307331 -111.27476
0.25685543 -23.352989 -39.571232 0.59469396 -58.400051 -110.89491 -52.37299 67.172722
-52.670456 67.879913 -58.770153 -111.75878 -40.217175 -1.4751294 -0.085133702 -23.198399
-58.648846 -112.19268 -52.548023 68.085724 -0.07417655 -23.229458 -40.258358 -3.1586199
190000000 -39.012512 1.2127923 0.058106348 -24.44087 -52.134525 66.635849 -58.161209 -111.68545
0.25450334 -24.621092 -38.747089 -4.2371211 -57.787739 -112.54178 -51.759644 65.929443
-52.204609 66.61087 -58.198689 -113.14338 -39.909184 -4.3333473 -0.088282548 -24.471384
-58.231674 -112.56013 -52.103355 66.098572 -0.078642905 -24.511242 -39.818264 -6.451262
200000000 -38.290218 -7.4056368 0.05545187 -25.713808 -51.609673 65.879158 -57.849808 -113.94353
0.25128385 -25.894005 -38.189625 -10.155282 -57.352554 -113.7652 -51.293655 65.591995
-51.746418 65.345596 -57.710407 -114.77033 -39.516422 -9.7931089 -0.091273569 -25.745543
-57.709106 -114.22594 -51.672703 66.1586 -0.082515456 -25.780226 -39.338444 -11.092473
210000000 -38.526188 -17.491484 0.051492114 -26.994633 -51.254967 64.473778 -57.29734 -114.44556
0.24766091 -27.168278 -38.196434 -15.456112 -56.956272 -114.25441 -51.048241 64.136177
-51.287132 64.041405 -57.328346 -115.15652 -39.531994 -15.774798 -0.09465605 -27.016241
-57.521458 -113.8582 -51.240627 64.263039 -0.085290618 -27.058241 -39.165379 -15.872685
220000000 -39.902676 -20.547112 0.04726702 -28.265779 -50.742313 62.788208 -56.854977 -116.11948
0.24299023 -28.439257 -38.421318 -16.246943 -56.672478 -116.01933 -50.553581 63.315712
-50.887146 62.758106 -56.819271 -115.99831 -39.890457 -18.194916 -0.099003732 -28.286865
-56.893429 -116.05089 -50.893871 62.918858 -0.090491876 -28.32976 -39.258663 -19.032759
230000000 -39.987713 -13.116112 0.042520046 -29.533451 -50.406189 61.559799 -56.352745 -117.34689
0.23851311 -29.705706 -37.758747 -14.636561 -56.261486 -117.44616 -50.185558 61.592651
-50.535793 61.330017 -56.539776 -116.85041 -39.374401 -17.023705 -0.10207311 -29.55904
-56.504116 -117.72668 -50.49498 61.710979 -0.09551765 -29.595043 -38.689201 -18.585911
240000000 -39.986942 -20.323648 0.039532024 -30.802938 -50.018742 60.279133 -56.085056 -118.32294
0.23658343 -30.978689 -39.536278 -25.24437 -55.884659 -117.75568 -49.810993 60.572693
-50.118332 60.361004 -56.162361 -117.69943 -39.387653 -23.367413 -0.10605802 -30.830109
-56.169086 -118.12953 -50.075047 60.402874 -0.099207953 -30.85943 -38.641624 -30.173407
250000000 -38.578674 -8.3224545 0.036155809 -32.073227 -49.674164 59.072372 -55.722752 -119.25357
0.2300465 -32.234093 -37.681351 -11.059826 -55.46706 -119.43802 -49.40163 59.057579
-49.713154 58.530994 -55.777149 -120.14189 -39.449356 -23.849308 -0.11014458 -32.089081
-55.813141 -119.86804 -49.801224 58.562084 -0.10344116 -32.131702 -38.430515 -21.434214
260000000 -38.228283 -16.421267 0.035252869 -33.332027 -49.346348 58.032608 -55.156662 -120.6656
0.23066935 -33.507736 -37.646282 -19.053509 -55.082474 -121.68733 -49.215981 58.207508
-49.4995 57.841129 -55.483471 -121.89392 -38.729424 -23.560608 -0.11388905 -33.345482
-55.446793 -122.56969 -49.470718 57.823624 -0.10279907 -33.399227 -37.89875 -25.174322
270000000 -37.994003 -21.452038 0.032318205 -34.59557 -49.003098 56.473793 -54.953537 -122.24636
0.22870189 -34.770195 -37.952545 -24.07453 -54.984844 -121.61589 -48.759357 56.234779
-49.180061 56.146053 -55.199146 -122.54384 -38.533184 -29.135525 -0.11585234 -34.606636
-55.10878 -122.98042 -49.069584 56.487129 -0.10559361 -34.665062 -37.906925 -29.649916
280000000 -38.198723 -26.978182 0.030952934 -35.850708 -48.748436 55.576168 -54.610901 -123.14304
0.22731677 -36.035629 -38.197464 -28.258842 -54.400356 -122.76125 -48.548771 55.53331
-48.766636 54.86853 -54.704544 -123.1783 -38.782894 -32.02319 -0.11765645 -35.865414
-54.871922 -122.57354 -48.811432 54.982105 -0.10746016 -35.924786 -38.221455 -32.794868
290000000 -38.39418 -31.277212 0.027377287 -37.110813 -48.457047 54.313717 -54.501572 -123.55729
0.22584328 -37.295528 -38.449566 -32.468243 -54.174877 -123.85481 -48.203449 54.214317
-48.480515 54.410133 -54.550354 -124.40272 -38.706306 -33.831947 -0.1217083 -37.128948
-54.507309 -125.22894 -48.521767 53.923782 -0.10910106 -37.18478 -38.467247 -34.05061
300000000 -38.549236 -34.310318 0.024393689 -38.380699 -48.107864 52.696213 -54.195629 -125.65423
0.22139314 -38.558788 -38.293701 -35.460239 -53.949848 -125.95582 -47.8479 53.273067
-48.174839 52.675838 -54.138039 -125.70294 -38.311104 -35.75108 -0.12415879 -38.388268
-54.261471 -126.27238 -48.179375 52.566917 -0.11224124 -38.447536 -38.365307 -35.163925
310000000 -38.328968 -36.067009 0.019863551 -39.65086 -47.791924 51.480679 -53.848343 -127.03438
0.21885513 -39.821678 -37.968781 -38.825874 -53.643726 -126.80062 -47.573399 51.474106
-47.911964 51.479527 -53.893982 -127.71687 -38.104122 -39.631073 -0.12757334 -39.653492
-53.871815 -126.72791 -47.91325 51.540554 -0.11595292 -39.709534 -37.926071 -38.052052
320000000 -38.094524 -40.447403 0.017857699 -40.920521 -47.554916 50.025524 -53.516495 -128.51419
0.21495692 -41.08387 -37.696903 -42.060375 -53.413574 -127.84431 -47.337112 50.514454
-47.630863 50.340084 -53.689529 -128.28375 -38.083626 -43.894066 -0.13033351 -40.920029
-53.645535 -127.85339 -47.56282 50.48304 -0.1195753 -40.981079 -37.867233 -44.020229
330000000 -38.597637 -43.100914 0.012367461 -42.190193 -47.241779 48.891693 -53.285275 -128.81841
0.21254754 -42.341892 -37.418331 -44.275272 -53.113159 -129.69809 -47.080811 49.118645
-47.37743 48.610363 -53.344345 -130.44882 -38.445896 -45.29882 -0.13390473 -42.185158
-53.380669 -129.07468 -47.396049 49.180431 -0.12330296 -42.246784 -38.382717 -47.636505
340000000 -37.859821 -36.217617 0.0086687235 -43.454853 -47.023411 47.931915 -52.984806 -131.1933
0.2088607 -43.60487 -36.944008 -43.173256 -52.924786 -130.7198 -46.827396 47.912716
-47.13665 47.302074 -53.142979 -130.19814 -37.68166 -43.009808 -0.13758042 -43.444626
-53.119896 -131.90631 -47.115261 47.736362 -0.12693769 -43.506237 -38.289097 -42.836815
350000000 -36.57476 -48.146439 0.0054404866 -44.716118 -46.741867 46.50901 -52.823933 -132.14307
0.20426521 -44.874405 -36.777466 -49.371334 -52.652817 -131.23204 -46.568722 46.740227
-46.87574 46.090176 -52.873661 -132.58162 -37.313702 -51.629879 -0.1413044 -44.710033
-52.89399 -132.15903 -46.826244 46.395664 -0.13145913 -44.771091 -37.019154 -49.628918
360000000 -38.170238 -50.35598 0.00060050929 -45.980427 -46.528419 45.424278 -52.536007 -132.9548
0.19912791 -46.13147 -37.118328 -46.924053 -52.297405 -132.87944 -46.285133 45.503666
-46.629314 44.811428 -52.535797 -133.03419 -38.138981 -50.112778 -0.14472315 -45.971279
-52.585117 -132.67253 -46.583527 45.132893 -0.1350348 -46.026894 -37.808006 -52.788246
370000000 -38.12566 -43.048389 -0.0016986968 -47.239143 -46.275848 43.944592 -52.253159 -134.55206
0.19591889 -47.388077 -36.723419 -46.267765 -52.206028 -134.57401 -46.052731 44.19371
-46.365978 43.966763 -52.409035 -134.75993 -37.414734 -49.226559 -0.14816689 -47.23494
-52.389687 -134.27017 -46.391453 43.807491 -0.13773793 -47.292744 -37.328892 -48.558731
380000000 -37.143742 -43.042915 -0.0067014955 -48.499084 -46.083874 42.660656 -52.034035 -135.43152
0.19337472 -48.649681 -36.566467 -48.621609 -51.851379 -135.41505 -45.896198 42.80843
-46.1903 42.595852 -52.286793 -136.05933 -37.138012 -52.674652 -0.15142567 -48.492565
-52.140743 -135.68021 -46.13348 42.749935 -0.14110944 -48.550266 -36.579006 -51.76144
390000000 -36.612862 -49.283318 -0.0096697798 -49.757725 -45.846046 41.273827 -51.842789 -136.76944
0.19102648 -49.905144 -36.634506 -51.646896 -51.695263 -136.7076 -45.70541 41.629761
-45.968651 41.38813 -51.926754 -136.8065 -37.170624 -56.191551 -0.15432149 -49.748112
-51.927788 -136.56711 -45.945305 41.283813 -0.14283532 -49.80518 -36.547932 -56.818352
400000000 -36.896763 -57.06879 -0.010874578 -51.017616 -45.644619 40.461212 -51.606411 -137.6485
0.18813834 -51.163292 -36.829636 -55.137966 -51.462791 -138.09796 -45.393795 40.184147
-45.715141 40.14312 -51.702724 -138.36238 -37.077763 -59.820129 -0.15716991 -51.005024
-51.726791 -137.62965 -45.731281 40.303894 -0.14781024 -51.069866 -36.766724 -59.835812
410000000 -37.619404 -61.022713 -0.015460391 -52.280479 -45.437653 38.822506 -51.427315 -138.76805
0.185974 -52.423241 -37.027687 -58.056499 -51.214016 -139.23926 -45.230412 39.022564
-45.525505 38.727551 -51.472279 -139.01633 -37.105747 -62.98888 -0.1602314 -52.266594
-51.508224 -138.84669 -45.47242 38.969334 -0.15067144 -52.325626 -36.915871 -61.512009
420000000 -38.047638 -60.130543 -0.018673176 -53.537884 -45.199978 37.811546 -51.213188 -140.16101
0.18224913 -53.683407 -36.87793 -60.842369 -51.07692 -140.69981 -45.000893 37.922062
-45.278683 37.528587 -51.285564 -140.50722 -37.16774 -66.276787 -0.16337107 -53.52039
-51.250217 -140.26814 -45.31739 37.72131 -0.15429193 -53.585423 -36.650299 -63.602695
430000000 -37.367641 -60.708012 -0.020736367 -54.793118 -44.986786 36.438084 -50.983646 -141.15691
0.17808983 -54.942139 -36.357517 -64.773613 -50.868656 -141.59805 -44.837608 36.506199
-45.085777 36.397427 -51.115963 -141.76933 -37.010849 -68.650215 -0.16545381 -54.778702
-51.125053 -141.64522 -45.084064 36.520786 -0.15745972 -54.848461 -36.411629 -67.500793
440000000 -36.421043 -65.957062 -0.023350352 -56.051189 -44.85146 35.267578 -50.832577 -142.21608
0.17616929 -56.202564 -35.847019 -69.863922 -50.577728 -142.57611 -44.621387 35.395927
-44.914898 34.829182 -50.963181 -142.65279 -36.794464 -71.888298 -0.16860983 -56.038147
-50.929726 -142.69502 -44.910866 35.287136 -0.16098312 -56.100159 -36.386162 -72.780182
450000000 -36.0397 -74.093277 -0.027214136 -57.308765 -44.629215 34.100021 -50.639736 -143.37039
0.17180558 -57.462875 -35.639957 -74.885796 -50.420471 -144.11356 -44.423267 34.082024
-44.745899 33.858898 -50.678352 -144.28371 -36.611553 -75.118309 -0.17171197 -57.292095
-50.686939 -143.88063 -44.701309 34.190434 -0.16330698 -57.360352 -36.458057 -76.462463
460000000 -36.28867 -79.735771 -0.03054986 -58.567745 -44.439949 32.808754 -50.413399 -144.59354
0.16780199 -58.718494 -35.802681 -76.724579 -50.208065 -145.39566 -44.219097 32.870213
-44.554314 32.652779 -50.486683 -145.19334 -36.526947 -77.978371 -0.17529722 -58.548599
-50.482189 -145.03862 -44.510731 32.774078 -0.16614437 -58.61544 -36.51268 -77.665581
470000000 -36.649925 -81.768166 -0.033489607 -59.821194 -44.246544 31.657606 -50.187561 -146.18573
0.16653222 -59.971733 -35.42749 -76.542915 -50.014828 -146.29558 -44.044128 31.770203
-44.341049 31.389637 -50.29512 -146.5631 -36.330517 -79.981018 -0.17785573 -59.803745
-50.239643 -146.27107 -44.329437 31.438913 -0.16965273 -59.87413 -36.039082 -77.797371
480000000 -36.687027 -82.908867 -0.037455283 -61.080429 -44.082935 30.418692 -50.023239 -147.26752
0.16404623 -61.228752 -35.448524 -79.660286 -49.877678 -147.79626 -43.879887 30.342085
-44.13599 30.181137 -50.072372 -147.69044 -36.343422 -82.812561 -0.18104276 -61.059071
-50.092785 -147.37827 -44.158249 30.296448 -0.17232539 -61.129177 -35.597858 -82.683952
490000000 -37.047527 -80.339943 -0.041583095 -62.338215 -43.877567 28.965456 -49.803032 -148.54584
0.16137964 -62.485542 -35.89286 -77.915321 -49.678059 -148.8186 -43.681778 29.112875
-43.98024 28.832087 -49.916325 -149.0321 -36.428558 -83.139259 -0.18370414 -62.316776
-49.89439 -148.66077 -43.981949 28.797836 -0.17571113 -62.389748 -36.054668 -84.669693
500000000 -36.250622 -78.099648 -0.04545635 -63.602715 -43.73193 27.683012 -49.702808 -150.0071
0.15764588 -63.732754 -35.490307 -76.357658 -49.518814 -149.88799 -43.537033 27.779003
-43.834206 27.471008 -49.771584 -150.23125 -36.214729 -85.308029 -0.18812056 -63.569645
-49.739101 -150.36948 -43.818546 27.614084 -0.17835662 -63.638451 -35.677818 -81.894028
510000000 -35.776928 -83.692703 -0.044597015 -64.850914 -43.571121 26.695095 -49.507431 -150.81474
0.15354668 -64.985016 -35.321751 -81.295441 -49.264072 -150.92647 -43.385197 26.645214
-43.657425 26.462448 -49.617298 -150.92464 -36.279949 -88.29052 -0.1889213 -64.823799
-49.691345 -151.47849 -43.665413 26.5343 -0.18030918 -64.890053 -35.203995 -85.815239
520000000 -36.215553 -89.06675 -0.04709724 -66.108704 -43.394135 25.431328 -49.305603 -151.92926
0.15176789 -66.245918 -35.725483 -87.112854 -49.132435 -152.41853 -43.207951 25.444059
-43.493324 25.075838 -49.413345 -152.17497 -36.383118 -91.968765 -0.19365843 -66.082092
-49.396805 -152.04791 -43.475662 25.205378 -0.1828085 -66.145996 -35.321766 -89.701904
530000000 -36.639446 -91.83268 -0.049500778 -67.365852 -43.234303 24.186785 -49.156155 -153.23621
0.15022077 -67.500877 -36.113354 -90.003922 -48.945881 -153.57085 -43.0079 24.40803
-43.288258 23.875376 -49.21413 -153.68924 -36.618557 -95.069992 -0.19560343 -67.335938
-49.296749 -153.3898 -43.342602 24.015059 -0.1863665 -67.401207 -35.57901 -91.712639
540000000 -36.57465 -93.351608 -0.053251475 -68.619537 -43.079773 22.74638 -48.952393 -154.41118
0.14619389 -68.756226 -36.083664 -91.498306 -48.805237 -154.96346 -42.857265 22.840036
-43.148182 22.613756 -49.118248 -154.99637 -36.654572 -97.415581 -0.19766103 -68.593765
-49.084408 -155.06909 -43.146618 22.842443 -0.18863992 -68.655983 -35.474007 -92.661507
