!Keysight Technologies PLTS 2017U1, Build 20170714.1
!FILE: G:\CAP1P_CBP1N_CAP1N_CBP1P.s4p
!$DUT_CFG_DESC: Default 4-Port Configuration
!$NUMBER_PORTS: 4
!$DIFF_PORT_MAP: 1|2P|2|2P|0|UC|0|UC|
!$PORT_MAP: 1|1|<<<<<<|2|2|>>>>>>|3|3|<<<<<<|4|4|>>>>>>|
!Date: Tuesday, August 29, 2017, 01:43:54
!S4P File: Measurements: <S11,S12,S13,S14>,
!<S21,S22,S23,S24>,
!<S31,S32,S33,S34>,
!<S41,S42,S43,S44>:
!
!Created with skrf (http://scikit-rf.org).
# MHz S RI R 100.0 
!freq
! ReS14 ImS14
!
! ReS24 ImS24
!
! ReS34 ImS34
!
! ReS44 ImS44
!
10.0 0.007619265 -0.052684384 0.852295655 0.1852935156 0.017382885 -0.050759728 0.025973695 -0.0639287456
 0.853922035 0.180893256 0.005987675 -0.0503213087 0.017837435 -0.052069946 0.028212245 -0.0652936793
 0.020379785 -0.057648207 0.001617865 -0.0584442756 0.654230925 -0.121542621 -0.104308115 -0.3120097144
 0.020867735 -0.057266666 0.000816735 -0.0638013743 -0.180535885 -0.343348284 0.726739405 -0.0887562377
20.0 0.667926645 0.2543843835 0.012754555 -0.2464096625 0.118487445 -0.1470922465 0.116489535 -0.1411484825
 -0.01179538 -0.210445947 0.6866976 0.21838736 0.12087891 -0.148423377 0.11601308 -0.14286429
 0.116647325 -0.1466479865 0.116881915 -0.1429299525 -0.003230895 -0.1446659365 0.697299955 0.3342167075
 0.12016789 -0.143855247 0.11579207 -0.14337855 0.69811698 0.334243743 -0.00431311 -0.1474406
30.0 0.02024125 -0.23521509 0.514229005 0.42527004 0.15345479 -0.16218506 0.158357215 -0.15472541
 0.51142846 0.428469415 0.02292352 -0.24175646 0.15374011 -0.161196735 0.15741341 -0.1533247
 0.15204631 -0.15844343 0.155175415 -0.15184078 0.52410807 0.26206776 0.052101625 -0.37619207
 0.15598187 -0.159519005 0.15793745 -0.15306828 0.05992894 -0.383765135 0.5092759 0.27048186
40.0 0.3563863296 0.29105874 0.12401931815 -0.441261735 0.1982787904 -0.16211491 0.20422296185 -0.157553885
 0.1491389705 -0.455697575 0.324711361 0.303706095 0.2014189785 -0.162389255 0.207925769 -0.153783815
 0.2018278104 -0.16635092 0.20573951285 -0.156574515 0.0627119296 -0.32632411 0.30106330715 0.438693975
 0.1995371185 -0.167998295 0.204368829 -0.152965985 0.2974075725 0.442694145 0.066658361 -0.335810855
50.0 0.115187648 -0.3123059245 0.127989364 0.4737461295 0.138465524 -0.1518649455 0.157625823 -0.1043195595
 0.079068143 0.471497398 0.1640988388 -0.314398818 0.136301176 -0.149171708 0.1562150523 -0.107209252
 0.138295926 -0.1524299355 0.145814686 -0.1041145795 0.183156382 0.1787684855 0.218977687 -0.5485925505
 0.143485972 -0.145427458 0.1517764523 -0.105550042 0.246942769 -0.576132552 0.1485574366 0.203769512
60.0 0.0315877325 0.164445018 0.3725661925 -0.502078099 0.1891242205 -0.086227248 0.1986432875 -0.101616731
 0.345532642 -0.51163821505 0.0527952725 0.1703301003 0.192856818 -0.08121012495 0.2002509905 -0.0968246303
 0.1839978075 -0.085369328 0.2038385275 -0.097754321 0.2294169595 -0.356659162 -0.0682740675 0.332012411
 0.181036868 -0.08602746495 0.1996665745 -0.0967569503 -0.063566448 0.35120556495 0.2292704025 -0.3764276197
70.0 0.2758799301 -0.286977685 -0.22217355835 0.249956584 0.1311772199 -0.083491775 0.13630579835 -0.074769754
 -0.2322557973 0.2579622025 0.290722970175 -0.296878478 0.1273624473 -0.0879221725 0.129450799825 -0.077103132
 0.1304236999 -0.082301985 0.13053508835 -0.084175994 -0.0282926099 0.018121265 0.49278293165 -0.498737336
 0.1341686673 -0.0788156525 0.130933319825 -0.078098472 0.4901978227 -0.5023414175 -0.029498549825 0.019376682
80.0 -0.0805808805 -0.03948997 0.593192791 -0.3514157 0.1685984605 0.01422763 0.169790649 -0.01944566
 0.575922601 -0.35231843 -0.0640056115 -0.04431897 0.170410039 0.01744119 0.1677151315 -0.01306523
 0.1588914005 0.01644865 0.176670099 -0.00983142 0.5015552395 -0.30285425 -0.195606319 -0.0168718
 0.155116979 0.01066085 0.1693999715 -0.01217338 -0.148706199 0.02310391 0.4629961885 -0.33654756
90.0 0.46952627 -0.2397529535 -0.23785419 -0.161786459 0.11181339 -0.0382128045 0.10902826 -0.034631474
 -0.2367118 -0.165581591 0.47357463 -0.229157255 0.10872012 -0.045945352 0.10774107 -0.041420471
 0.11282106 -0.0386701655 0.10774199 -0.046378266 -0.04471888 -0.1590570565 0.67002516 -0.225765341
 0.11071059 -0.033593588 0.10799022 -0.041606799 0.66739145 -0.226546609 -0.04655094 -0.161621135
100.0 -0.009912765 -0.2281109955 0.67611073 -0.058726463 0.078770175 -0.0479651545 0.07877516 -0.05631813
 0.674748865 -0.059065762 -0.013736465 -0.231166109 0.080478075 -0.042567159 0.079278085 -0.051882801
 0.077809105 -0.0482326545 0.0782855 -0.044432941 0.511406145 -0.0161366755 -0.16361119 -0.209126826
 0.079448465 -0.055874432 0.079131015 -0.052177051 -0.160217505 -0.200253847 0.505856265 -0.013875999
110.0 0.457671555 0.013999017 -0.094730995 -0.398852645 0.062227465 -0.095750707 0.059819415 -0.092056155
 -0.096977325 -0.3828108215 0.45625374 0.0110050105 0.069518355 -0.1028738985 0.06344692 -0.1012832705
 0.063695825 -0.093437587 0.067764745 -0.104417535 0.038576435 -0.298080163 0.614663615 0.093558875
 0.062425705 -0.0886140985 0.06325959 -0.1018435405 0.613955465 0.0945781985 0.03839827 -0.3019228395
120.0 0.07921907 -0.34007715845 0.476406465 0.217474025125 0.04884866 -0.15320909155 0.051993515 -0.157327125125
 0.47724365 0.21715104105 0.074996745 -0.34502940215 0.0463311 -0.15037831105 0.047492735 -0.15450377785
 0.04650961 -0.15285142155 0.038674215 -0.149121055125 0.37242444 0.04066761155 -0.013257455 -0.525647484875
 0.05738952 -0.15915152105 0.047315845 -0.15538593785 -0.00015695 -0.51514268895 0.349494955 0.04324849785
130.0 0.231311042 0.0588029015 0.07700861 -0.583405611 0.03824289 -0.1745633115 0.02984475 -0.170536339
 0.080756775 -0.582332593 0.2165495065 0.06699622 0.049544725 -0.179317197 0.0416975595 -0.16972736
 0.03843351 -0.1751712715 0.04761823 -0.174402599 0.125299558 -0.3500151785 0.30324551 0.299834669
 0.032379175 -0.175706317 0.0426401805 -0.16909508 0.300212925 0.299484067 0.1254249535 -0.35680936
140.0 0.1654021105 -0.3461268705 0.1041425605 0.3113231055 0.0413546705 -0.1858089995 0.0542261405 -0.1796302755
 0.1024315465 0.3124957515 0.1660260215 -0.354925286 0.0351529895 -0.1852418315 0.0480899245 -0.178412624
 0.0413670235 -0.1849148195 0.0337684205 -0.1828866255 0.0906747755 0.0509285295 0.1738141785 -0.5933112845
 0.0555922685 -0.1826344515 0.0474872505 -0.180005744 0.1730783355 -0.5927643685 0.0773351035 0.056370054
150.0 -0.031718203 -0.0139534755 0.2697405235 -0.583063679 0.037222723 -0.1723307645 0.0272830265 -0.173304301
 0.2675560105 -0.5814882465 -0.040797938 -0.01303068755 0.0494160195 -0.1665331135 0.037968268 -0.16691372245
 0.037037363 -0.1730665645 0.0472194065 -0.163523291 0.210208157 -0.2970878955 -0.0744893165 0.282524031
 0.0283666095 -0.1754472635 0.037814918 -0.16526306245 -0.0767683395 0.2845111235 0.213800032 -0.30795964755
160.0 0.2270852335 -0.2286944799 -0.2379683505 0.2009975836 0.0299721615 -0.1534514731 0.0407490785 -0.1400415536
 -0.2405470845 0.2023412684 0.233623453 -0.238888586 0.0237890475 -0.1595417684 0.030535208 -0.143309411
 0.0302955315 -0.1525876751 0.0223070185 -0.1576641736 -0.1108667165 -0.0919863919 0.3625712495 -0.5181541764
 0.0430153875 -0.1429399084 0.030784298 -0.145480257 0.3606198555 -0.5168644116 -0.118695377 -0.094134206
170.0 -0.1544544885 -0.1816709105 0.430009766 -0.4140229235 0.0086658785 -0.1068578555 0.007242668 -0.1170124365
 0.4278292355 -0.4131066945 -0.1611690615 -0.1820013535 0.0234470895 -0.0942442355 0.0127432795 -0.0991354655
 0.0088742885 -0.1078919215 0.021129688 -0.0922976965 0.2262199615 -0.1205836925 -0.353377514 0.1098561565
 0.0083965295 -0.1186984055 0.0116299195 -0.0970338225 -0.3562044445 0.1115689155 0.2322194185 -0.1246417985
180.0 0.193938314 -0.0525094195 -0.413462613 -0.0479903235 0.011173844 -0.0835470805 0.009435002 -0.0692508165
 -0.4161061305 -0.046844077 0.21067681 -0.0579273445 0.0015904425 -0.099613531 0.008743663 -0.0834231755
 0.010991624 -0.0829305505 0.000483002 -0.0981916595 -0.145780106 -0.2578008495 0.478807207 -0.2749507605
 0.0107956925 -0.070850973 0.009814893 -0.0852357855 0.4769852195 -0.274079359 -0.14576082 -0.2620897145
190.0 -0.1004320175 -0.319144629 0.480551278 -0.12238375606 -0.0045551325 -0.041431501 -0.005796841 -0.06115157306
 0.478581601 -0.12082775325 -0.106784395 -0.3208967775 -0.00349356 -0.03030372675 -0.005159754 -0.0513217525
 -0.0041048925 -0.042295751 -0.005205111 -0.03004314994 0.1891488225 0.063785161 -0.376389852 -0.15503878094
 -0.00521875 -0.06175389525 -0.007525594 -0.0497130725 -0.378406649 -0.14943534475 0.194156605 0.0570923225
200.0 0.11427151 0.135690733 -0.337012725 -0.25707445 -0.016321037 -0.032769703 -0.022622996 -0.01670456
 -0.334621718 -0.256607349 0.114701078 0.138465828 -0.011108689 -0.049102791 -0.020558766 -0.034096098
 -0.017239023 -0.033116993 -0.012959956 -0.04773343 -0.024231594 -0.369697917 0.443302075 0.01606974
 -0.019261979 -0.017942601 -0.017671815 -0.034321728 0.442508852 0.017217421 -0.028756901 -0.370206862
210.0 0.0667908918 -0.3842118045 0.36224621095 0.1354596735 -0.0390901912 -0.0339149455 -0.02780840905 -0.0482010135
 0.3613307882 0.1370308445 0.0600053653 -0.384855007 -0.0462968588 -0.0222326845 -0.0364612317 -0.036001613
 -0.0378532012 -0.0338292355 -0.04755575905 -0.0206973535 -0.0003058402 0.1323835655 -0.27571663905 -0.3863965865
 -0.0272101088 -0.0497081745 -0.0385260667 -0.035849833 -0.2770219418 -0.3845816655 0.0015503263 0.135887613
220.0 -0.1004629676 0.154479212 -0.1701565315 -0.4199466675 -0.0404068596 -0.016593702 -0.0524025715 -0.0061003725
 -0.1715752679 -0.4175138195 -0.0963318838 0.1609890345 -0.0230503589 -0.0303273705 -0.0378910458 -0.0195402245
 -0.0414382796 -0.016609762 -0.0234049115 -0.0287597125 0.1664426524 -0.354542988 0.2603857885 0.2306088525
 -0.0509538589 -0.0080726005 -0.0354942758 -0.0193840045 0.2597396121 0.2321098705 0.1644053862 -0.3512323055
230.0 0.268564457 -0.301968414 0.152213391 0.2677306995 -0.017467114 -0.013949536 0.000698123 -0.0241583295
 0.1522650415 0.269634863 0.26656464 -0.3010757505 -0.0313565725 -0.013081653 -0.016343819 -0.0121923495
 -0.016640394 -0.013483726 -0.033079494 -0.0109001395 -0.177095603 0.118510636 -0.040380012 -0.4398845305
 0.0012119785 -0.026875303 -0.018337659 -0.0128166895 -0.0407117675 -0.437682007 -0.17674422 0.1207744695
240.0 -0.2333690195 0.066276709 0.08131470725 -0.4087221085 -0.0060858275 0.000986542 -0.02374120575 0.0032529885
 0.0798035777 -0.4062581555 -0.2321783525 0.066103591 0.0141719443 -0.0033656205 -0.0035093105 0.000656631
 -0.0068467075 0.000593152 0.01392129975 -0.0008501015 0.3551085005 -0.205382901 0.03946005675 0.2740706415
 -0.0225724513 0.0015309895 -0.0012531305 0.001469191 0.0392031973 0.2760516145 0.3530550075 -0.203639409
250.0 0.368506867 -0.1433920545 -0.085798905 0.190613218 0.007644622 -0.0210985555 0.02862404 -0.018910818
 -0.0857807505 0.193352201 0.3681474325 -0.145445186 -0.0065154545 -0.029148101 0.0080162195 -0.01926377
 0.007861642 -0.0205347335 -0.00693515 -0.027753878 -0.260077513 -0.0528016965 0.200617645 -0.377886702
 0.0277222055 -0.021255401 0.0060914395 -0.02094683 0.1982675895 -0.375652899 -0.2593596275 -0.054979734
260.0 -0.2462755535 -0.1471141315 0.2927614175 -0.2932548455 0.0327127935 0.0007616545 0.0134921325 -0.0066740695
 0.292212876 -0.2917796475 -0.2457584955 -0.152328625 0.046440714 0.0076683705 0.0343777955 0.000447571
 0.0322893335 0.0001167985 0.0458592125 0.0099221805 0.4257852065 0.0044494905 -0.1122614425 0.1482804645
 0.014368034 -0.0091791395 0.0352415855 0.00123553 -0.111501644 0.1498527625 0.4220755545 0.004315272
270.0 0.347400085 0.0786584735 -0.1975562265 0.023179167 0.029679955 -0.0110828505 0.0447851765 0.002129824
 -0.1985075125 0.0256312885 0.3435002275 0.0819010105 0.0194497125 -0.0261971155 0.0306491445 -0.0124012305
 0.030758835 -0.0112330905 0.0200448665 -0.024514646 -0.204183475 -0.2526289865 0.3444349235 -0.198170223
 0.0439514525 9.55785e-05 0.0296681145 -0.0134456305 0.3436577075 -0.1970424375 -0.2057368425 -0.2544980095
280.0 -0.1462155255 -0.3360851955 0.343957071 -0.0930856665 0.0361984855 -0.0053786845 0.028822309 -0.0248314035
 0.343281958 -0.0918782035 -0.146293929 -0.3380431075 0.043569812 0.0061735445 0.036852139 -0.0107482425
 0.0357193555 -0.0064566745 0.044476369 0.0090391015 0.3183636645 0.1462955945 -0.162684049 -0.0982880915
 0.028060132 -0.0264972935 0.037488539 -0.0081004425 -0.162843422 -0.0947736475 0.312993531 0.1467488725
290.0 0.215523741 0.270629384 -0.138230233 -0.1300187035 0.042428299 0.001544933 0.046225363 0.0204224365
 -0.138231078 -0.1281004715 0.2046604455 0.272707387 0.041348088 -0.0183207225 0.0444701645 0.002375755
 0.042139709 0.002518763 0.041862993 -0.0165360865 -0.050529829 -0.400623046 0.321993677 -0.0104608985
 0.045644188 0.0185064585 0.0452268745 0.001176775 0.322570882 -0.0098423265 -0.0513261045 -0.399644593
300.0 0.0778901165 -0.435225977 0.2750539015 0.060907128 0.0531089145 -0.010081933 0.0588644085 -0.026537183
 0.275104759 0.0616573845 0.0818219687 -0.4342845105 0.052035811 0.0075443265 0.0552008651 -0.0085528305
 0.0530839225 -0.010862613 0.0532918785 0.009779047 0.1067591065 0.251428503 -0.0901364885 -0.238491962
 0.058367561 -0.0280532935 0.0556981239 -0.0073256305 -0.089348331 -0.2364046355 0.0977371823 0.2510501695
310.0 0.006968396 0.271159035 0.0045496855 -0.2476018855 0.067768874 -0.012394608 0.0619553245 0.0016667105
 0.004239602 -0.2465393255 -0.001527595 0.2683464135 0.079933124 -0.0328888635 0.071963168 -0.0094020255
 0.067399303 -0.011643498 0.0800416815 -0.0319551495 0.186112547 -0.423031015 0.2005759485 0.1070012745
 0.061839258 -5.46835e-05 0.07294549 -0.0105836955 0.200890476 0.1072087145 0.191617717 -0.4200957565
320.0 0.309563866 -0.400787544 0.1350272605 0.0905565005 0.079828574 -0.025497396 0.0953927155 -0.0430333105
 0.13536235 0.091701806 0.314565063 -0.398088583 0.068179731 -0.019728306 0.082700937 -0.026395027
 0.080480404 -0.025738286 0.0682420215 -0.0183605105 -0.116556264 0.206727406 0.0620992825 -0.2747942195
 0.095412949 -0.044309036 0.081572797 -0.026405637 0.06172113 -0.273866464 -0.125506077 0.200326547
330.0 -0.167938553 0.09390116 0.1689997915 -0.2871965395 0.092000593 -0.03557979 0.0756188285 -0.0292479205
 0.168456889 -0.2852869355 -0.172475355 0.0874511895 0.107434403 -0.0471421845 0.092903645 -0.0354041495
 0.091802203 -0.0355222 0.1076871475 -0.0456685105 0.393502717 -0.32820861 0.0620552525 0.0646422505
 0.075252991 -0.0315815045 0.093772355 -0.0359431795 0.061857737 0.0657463645 0.401389855 -0.3211299205
340.0 0.4231050676 -0.231832382 -0.02023538145 0.0114668305 0.0961710324 -0.042852978 0.11038669145 -0.0443880005
 -0.01940867865 0.0129306785 0.42713326885 -0.225233797 0.07454921865 -0.0424597285 0.09442006115 -0.043229905
 0.0965803324 -0.043150448 0.07439282145 -0.0415296305 -0.2275094924 -0.018336272 0.21947566855 -0.2533172595
 0.10967277865 -0.0451158985 0.09328250115 -0.043129933 0.21891300135 -0.2522949715 -0.23121875115 -0.029765685
350.0 -0.2363427425 -0.149174056475 0.2605878285 -0.2100696075 0.0915953325 -0.059069761905 0.0743046215 -0.0647079755
 0.26012346 -0.2092058115 -0.2396044995 -0.1597350045 0.10737169 -0.0571620365 0.0915003295 -0.0620496095
 0.0911937225 -0.059146033095 0.1078179915 -0.0560298895 0.4491661675 -0.147869008525 -0.0432019415 -0.0815541475
 0.07455693 -0.0656578035 0.0922390095 -0.0613868745 -0.04317038 -0.0802712085 0.4504176805 -0.1379311915
360.0 0.4326915875 -0.0246872185 -0.042652765 -0.14250689475 0.0806722825 -0.0589523415 0.096011725 -0.05202038025
 -0.0429657005 -0.14132207465 0.429941769 -0.0087736715 0.0678730205 -0.07223615765 0.082497741 -0.0627776585
 0.0808869825 -0.0586813615 0.067623875 -0.07079767275 -0.2068481325 -0.2673794185 0.274540265 -0.15234223225
 0.0960334305 -0.05348444635 0.082490911 -0.0635912185 0.2739843895 -0.15155278135 -0.209338161 -0.2721896115
370.0 -0.132584522 -0.367951316 0.269199326 -0.092331849 0.081454152 -0.065565594 0.068929284 -0.082309268
 0.2687052015 -0.0914343625 -0.133311225 -0.36998107 0.0901668085 -0.0576185235 0.084230145 -0.07015293
 0.081252902 -0.065577964 0.090365034 -0.056280683 0.373849828 0.068226154 -0.025102164 -0.20960718
 0.0686895985 -0.0837657625 0.083951595 -0.06941696 -0.0256127685 -0.2081587715 0.365782825 0.08626146
380.0 0.2969899375 0.110022282 0.0158777795 -0.2749525455 0.0764217525 -0.075205092 0.0855639185 -0.0578133045
 0.015761915 -0.2733430635 0.289272753 0.124788638 0.073148135 -0.0907086365 0.077913637 -0.079136558
 0.0765442725 -0.074714852 0.0731328805 -0.0893811145 -0.0466524825 -0.445240878 0.2157178015 -0.0355615955
 0.084922101 -0.0595615165 0.077879297 -0.079927128 0.215171929 -0.0342943035 -0.040590287 -0.448140592
390.0 0.046292423 -0.496570723 0.154282087 -0.0214745865 0.077087364 -0.086458077 0.079148134 -0.1041205335
 0.1542469515 -0.0205389545 0.055855235 -0.499973842 0.0802588375 -0.0731636455 0.080233472 -0.087329738
 0.077145561 -0.086996987 0.081196768 -0.0713781635 0.187662772 0.139549207 0.075409511 -0.3123666365
 0.0784386835 -0.1052063755 0.079973894 -0.086428668 0.0755417075 -0.3106431445 0.177460699 0.147649308
400.0 0.0658948215 0.121109753 0.1271360275 -0.3330606925 0.0744899905 -0.107619043 0.0723037285 -0.0945455275
 0.126847602 -0.3313513985 0.0507339005 0.125130705 0.08144171 -0.1264527015 0.0763680385 -0.109347965
 0.0741438515 -0.107283683 0.0818265955 -0.1253257975 0.1483173165 -0.496669647 0.0855275485 -0.0183839825
 0.071965933 -0.0962251615 0.0767255735 -0.109598595 0.084971415 -0.0177061785 0.1588555675 -0.499149805
410.0 0.2258493015 -0.472795631 0.004435207 -0.053105068 0.0657527285 -0.123379679 0.07776864 -0.136951082
 0.004319718 -0.052080515 0.237430293 -0.4742477625 0.057719512 -0.113381965 0.065753837 -0.1195624075
 0.0660380685 -0.123418959 0.058258348 -0.111749132 -0.0474436185 0.076175249 0.177330005 -0.319627078
 0.077135665 -0.138453065 0.064771517 -0.1194250175 0.176410845 -0.317677455 -0.061828867 0.0744157875
420.0 -0.146560901 -0.0088196365 0.2069378295 -0.2937576425 0.064499401 -0.1258549735 0.0533011305 -0.1197865785
 0.2062211205 -0.2919100115 -0.1592045575 -0.0154880005 0.0791829495 -0.1382830185 0.0635908875 -0.1241507795
 0.064038521 -0.1253819335 0.0799099005 -0.1367474675 0.301070539 -0.4102020365 -0.0469171605 -0.1007475515
 0.0528772595 -0.1215099695 0.0642784275 -0.1240930095 -0.0471439095 -0.0993628805 0.3130274225 -0.4084787905
430.0 0.32792799185 -0.328719977 -0.0986321593 -0.1684220035 0.06150456815 -0.134699663 0.0743631793 -0.1381134775
 -0.0985946199 -0.1670017855 0.3386961918 -0.324707055 0.0439554899 -0.1328140885 0.0595791982 -0.132404641
 0.06184168815 -0.134590513 0.0443744393 -0.1311178665 -0.20163084815 -0.113344647 0.2301823207 -0.2522867525
 0.0738048299 -0.1394517885 0.0587116782 -0.132301213 0.2295032801 -0.2501487375 -0.2123775682 -0.124836111
440.0 -0.2234741246 -0.22506069345 0.22711608775 -0.2016445965 0.0517228446 -0.13698765955 0.03832360225 -0.1404685105
 0.2264734439 -0.1999246385 -0.231624543 -0.236048890515 0.0670000261 -0.1385251065 0.052840153 -0.138663483285
 0.0513130646 -0.13714990345 0.06755633225 -0.1372702575 0.3409315554 -0.24370658355 -0.10807708225 -0.2499330555
 0.0378741661 -0.1418605335 0.053188663 -0.137991478715 -0.1077118761 -0.2479479815 0.347757287 -0.233495807485
450.0 0.30734857275 -0.1599565345 -0.10233114475 -0.3185748435 0.04091987425 -0.1391724445 0.05605751475 -0.1369351725
 -0.10210095075 -0.316357663 0.3113410015 -0.142779685 0.02974264875 -0.150534888 0.0421963195 -0.143098855
 0.04086950425 -0.1389955155 0.03032941475 -0.1490096875 -0.20604143725 -0.3394678055 0.20343661525 -0.1502090965
 0.05522047875 -0.138322813 0.0418119295 -0.143473595 0.20292637925 -0.148548556 -0.2110307685 -0.346938705
460.0 -0.16631556815 -0.42178493 0.15191998925 -0.1004035495 0.03188463415 -0.14332362 0.02247628375 -0.1591927505
 0.15153822885 -0.0988886445 -0.1657475257 -0.43131347 0.04101287615 -0.1411509955 0.0326146987 -0.14766221
