!Keysight Technologies PLTS 2017U1, Build 20170714.1
!FILE: G:\CAP1P_CBP1N_CAP1N_CBP1P.s4p
!$DUT_CFG_DESC: Default 4-Port Configuration
!$NUMBER_PORTS: 4
!$DIFF_PORT_MAP: 1|2P|2|2P|0|UC|0|UC|
!$PORT_MAP: 1|1|<<<<<<|2|2|>>>>>>|3|3|<<<<<<|4|4|>>>>>>|
!Date: Tuesday, August 29, 2017, 01:43:54
!S4P File: Measurements: <S11,S12,S13,S14>,
!<S21,S22,S23,S24>,
!<S31,S32,S33,S34>,
!<S41,S42,S43,S44>:
!
!Created with skrf (http://scikit-rf.org).
# MHz S RI R 100.0 
!freq
! ReS14 ImS14
!
! ReS24 ImS24
!
! ReS34 ImS34
!
! ReS44 ImS44
!
10.0 -0.006575375 -0.00748167 0.84037454 0.229983882 0.000336145 0.00206002 0.00017695 -0.001446351
 0.838838 0.22714192 -0.006822835 -0.0045849923 0.00168009 -0.000296148 0.001526105 -0.0017653347
 -0.031407745 -0.00929119 -0.05244319 -0.009574911 0.737259835 -0.2679221 -0.14449354 -0.280932378
 -0.02355392 -0.019105898 -0.041331395 -0.0261529539 -0.16735561 -0.28348659 0.670715645 -0.0333157891
20.0 -0.01419355 -0.008641412 -0.68872088 -0.47183442 0.00042461 0.000870933 -0.00124952 0.00202635
 -0.689592125 -0.47326275 -0.010454385 -0.006828405 -0.001507375 -0.00066919 0.002597475 0.000519535
 -0.00760417 0.014766214 0.01198566 -0.01911679 0.92120363 -0.191017521 0.00866732 0.08943028
 0.010624405 -0.01546273 -0.013106655 0.022615005 0.007477435 0.09078861 0.450524545 0.387152545
30.0 -0.015885485 -0.00948593 0.475947625 0.655945535 0.000271005 0.00060375 0.003560665 -0.002218785
 0.475975425 0.65566338 -0.01468416 -0.00961616 -0.000117375 0.00012727 0.00329056 0.00064673
 0.000879065 -0.00865787 0.006162815 -0.007001555 0.864585835 -0.27623577 0.019604195 -0.153183975
 0.007908335 -0.0058624 0.00770927 0.00553466 0.018691955 -0.14890377 0.24253255 0.35091593
40.0 -0.01491964 -0.010624655 -0.219349345 -0.75911468 0.00077075 0.000454545 -0.004337596 0.00054088
 -0.2191706505 -0.758508935 -0.01566095355 -0.015274815 0.0009145895 0.001308165 0.00236155975 0.003182985
 0.00699952 -0.012892865 -0.017026084 0.01305309 0.82635423 -0.340668225 -0.056510395 0.13237387
 -0.0151723095 0.007231965 0.01759670745 0.006094725 -0.0566970095 0.128349945 0.01469434475 0.299197565
50.0 -0.01511309 -0.01967651 -0.05161344005 0.770516595 -0.0002332 0.00037751 0.00533769105 0.000990205
 -0.05160436855 0.76908909 -0.0158757388 -0.012666075 -0.00202577445 -0.00189153 0.0035551468 0.00306279
 -0.02253795 -0.05759937 0.03428287605 -0.013425065 0.61298972 -0.36093395 0.08013120495 -0.266442335
 0.04591534355 -0.01276753 0.0049037578 0.031250937 0.07551393545 -0.26392061 0.0289994142 0.14910979
60.0 -0.011630965 -0.01659571 0.3058324565 -0.69166918 0.000764385 -0.00147453 -0.0057150665 -0.00314243
 0.306289397 -0.690728915 -0.009963011 -0.01731095265 0.00052153 0.001592565 -0.000131911 0.00359969875
 -0.024692645 0.01940872 0.0186631135 0.01557408 0.669685945 -0.3651492 -0.1158248635 0.15727543
 0.00788452 0.011629325 0.002999188 -0.00765051335 -0.121992633 0.157260765 -0.105021602 0.00074419925
70.0 -0.006531655 -0.01212751 -0.515374415 0.53246437 0.001389205 0.00036094 0.005841205 0.00419528
 -0.51552767 0.532711455 -0.003338174075 -0.0144716145 -0.00156528 -0.003968535 -0.001874081125 0.0017609795
 -0.007599355 -0.00133433 0.003301305 -0.01086595 0.521930045 -0.42154928 0.202812885 -0.22188454
 0.00847175 -0.000517005 -0.005552869025 0.0078577865 0.20369514 -0.221937175 -0.003248475375 -0.0982098115
80.0 -0.003055185 -0.004774005 0.65554361 -0.31645952 0.000915585 -0.000503725 -0.00495415 -0.00743447
 0.655739305 -0.316320035 0.000636216 -0.00808036 0.000436155 0.001427405 -0.004738659 0.00022839
 0.005263685 0.047722325 0.03821726 0.02120204 0.745340135 -0.354112535 -0.09696354 0.03710665
 0.021435055 0.013669335 0.020543171 -0.00892468 -0.105181455 0.040080035 0.07704377 -0.35624385
90.0 -0.00171369 -0.00231749 -0.711726485 0.0686061445 0.00137943 0.00030457 0.003043685 0.0086288755
 -0.711450175 0.067981814 -0.00379608 -0.00263671 0.001784575 -0.003555919 -0.00174192 -0.00203218
 0.001964 -0.00124823 -0.000482735 -0.0019134705 0.6478121 -0.47243183 0.193912715 0.0058317085
 0.001534895 0.010000291 -0.00381781 -0.00505578 0.194893225 0.00581235 0.20952875 -0.31220237
100.0 -0.008854135 0.00920453 0.6787972 0.179998136 0.000661515 -0.00054667 -0.00068883 -0.00993682
 0.679002765 0.180428303 -0.007854725 0.0097370295 -0.000825855 0.002672786 0.003009365 -0.0033229515
 0.003110365 0.00487491 0.00195892 0.00726555 0.663154915 -0.35397825 -0.15778731 0.034914954
 0.001281945 -0.005317306 0.002592335 -0.0002108515 -0.159101015 0.033923037 0.347167125 -0.1542530885
110.0 -0.013227295 0.0035435 -0.564426585 -0.3986655 -0.000148165 -0.00031791 -0.004867875 0.00990474
 -0.56421241 -0.398738285 -0.009778085 0.005720209 0.00347896 -0.001969155 0.002423395 -0.004794322
 0.000554545 0.01070551 0.003420205 -0.0109171 0.634992195 -0.48720054 0.145310775 0.08528556
 -0.00327094 0.003830185 -0.001233795 0.001243405 0.14637763 0.087111195 0.378913185 -0.097062144
120.0 -0.0170805 0.00125061 0.38375579 0.561098815 0.00017773 -0.0002249 0.00824593 -0.009145005
 0.38362826 0.56112014 -0.01496975 0.001236718225 -0.00502401 -3.545e-05 0.00642933 -0.003680327225
 0.01367302 0.00332518 0.00218873 0.004758525 0.55023153 -0.60982095 -0.09864603 -0.176325235
 0.01329651 -0.0031112 0.00687173 0.002951404625 -0.10103444 -0.17687105 0.35795393 0.006143170575
130.0 -0.015252875 -0.00080013 -0.1608385995 -0.649490075 0.000449575 -0.00073728 -0.0105733025 0.006282125
 -0.160575944 -0.649350225 -0.016066505 -0.0065028445 0.006520212 0.001923435 0.006510705 -0.0003234965
 0.003037825 -0.00541836 0.0035058375 0.001831745 0.445052475 -0.63399109 0.0617039605 0.233166085
 -0.014339678 0.004950195 0.004638035 0.0050799995 0.062574546 0.233050555 0.284851965 0.0602686475
140.0 -0.01361739 -0.007561445 -0.075791195 0.654573805 -0.00011089 -0.001327185 0.013317596 -0.002559445
 -0.076077135 0.65454882 -0.013396915 -0.0081869435 -0.00682339 -0.00424766 0.007692199 0.0021458495
 4.103e-05 -0.003147095 -0.006643318 -0.005804175 0.35248583 -0.653886435 -0.005622771 -0.250048965
 0.014112695 -0.00162866 0.005093422 0.0056853215 -0.005927152 -0.25072292 0.173966486 0.0758812505
150.0 -0.009197155 -0.00832027 0.29607605 -0.577424615 0.001287025 -0.00042033 -0.01338272 -0.001231455
 0.29646321 -0.577400615 -0.00807626 -0.00893719755 0.00709417 0.006922895 0.003688673 0.00361354955
 0.000695355 -0.00121546 0.00706292 0.008321955 0.259964815 -0.64648264 -0.04764453 0.287935495
 -0.01344598 -0.002218855 -0.000183193 0.00797120455 -0.0483704 0.288826355 0.108800648 0.03170840145
160.0 -0.0054506025 -0.004166335 -0.472941375 0.430026549 0.0002551045 -0.000691265 0.012833415 0.005799366
 -0.473047285 0.429883405 -0.001313936 -0.0068456289 -0.005963645 -0.009795552 0.00265518 0.0055455003
 -0.0001357905 -0.001762515 -0.005687115 -0.011339834 0.1818174985 -0.620099905 0.127519755 -0.288641791
 0.013184225 0.007289728 -0.001484053 0.0092501999 0.128198125 -0.289805695 0.056093633 -0.0225917949
170.0 -0.0059359555 0.002035125 0.585306325 -0.232728731 -0.0011454295 -0.003297105 -0.010581745 -0.010775517
 0.58543562 -0.2323252275 0.003215349 -0.0036317295 0.00454793 0.0122410835 0.004006718 0.0041768855
 -0.0019135285 -0.003798865 0.003563845 0.014207203 0.0983005535 -0.511943535 -0.197822385 0.291418329
 -0.01024406 -0.0119451065 -0.000232644 0.0073076335 -0.19885663 0.2920824025 0.047235883 -0.0953576155
180.0 0.0013176 0.004076895 -0.620538245 0.0114399285 -0.002788374 0.003223125 0.008827095 0.0136050115
 -0.620220365 0.010931031 -0.0078923425 0.002691701 -0.000878255 -0.014032119 -0.0033577645 0.000621446
 -0.003787061 0.002720935 0.000159235 -0.0153841115 0.075581511 -0.486808855 0.272015715 -0.2155687885
 0.008611135 0.014682159 -0.0068245825 0.003141284 0.272586845 -0.216255971 0.0440674295 -0.150287069
190.0 -0.0074696185 0.006752995 0.57630834 0.20527383275 0.0017666875 0.004864005 -0.00411151 -0.01479810125
 0.57591727 0.20581692044 -0.006654063 0.007507861 -0.00154501 0.01524472956 0.000898847 -0.004221231
 0.0009182715 0.008012275 -0.00297661 0.01850491125 0.0848414395 -0.358715995 -0.28008962 0.17481339725
 -0.00272703 -0.01401084956 -0.002239211 -0.000210062 -0.28161415 0.17501473956 0.105371257 -0.174708784
200.0 -0.011007353 0.00295632 -0.459966417 -0.390081515 0.000489048 0.0003144 -0.001468072 0.016228545
 -0.4597368095 -0.390433635 -0.0080888425 0.00436689 0.0055376245 -0.014926815 0.0007599295 -0.002254866
 0.003894082 -0.00018191 0.005847978 -0.014525695 0.063104079 -0.30298269 0.318001393 -0.116662695
 -0.0049626555 0.016508005 -0.0010473205 -0.000143774 0.3197407505 -0.116883495 0.1319762095 -0.170088738
210.0 -0.01146430755 -0.000266075 0.2877327635 0.52014936 0.00083419775 0.000225705 0.0068201155 -0.01482602
 0.287649141 0.52025402 -0.00993453 -0.0008878745 -0.010946022 0.01263052 0.002740845 -0.0033491735
 0.00065243525 0.000397505 -0.0127918745 0.01278543 -0.00048066625 -0.319929555 -0.3500947265 -0.00159911
 0.008276088 -0.01473718 0.000701882 -0.0001348815 -0.350838949 -0.00146628 0.149920247 -0.1797121285
220.0 -0.0124397935 -0.00360823 -0.083621375 -0.58049187 -0.0025729969 -0.00112343 -0.012019295 0.01230434
 -0.08348578 -0.580219505 -0.0097304135 -0.0041744115 0.01471719 -0.010238855 0.0025585445 -0.0057537555
 -0.0027038207 -0.00092644 0.016817565 -0.01061863 0.0018511567 -0.22760914 0.346760145 0.06980002
 -0.01334711 0.011752285 0.0006244555 -0.0020168795 0.3479899 0.069667815 0.1543722375 -0.1549152655
230.0 -0.0120901 -0.00024624 -0.1258601635 0.56422111 6.6433e-05 -0.00119723 0.0153894535 -0.00745288
 -0.1258391905 0.564409575 -0.0089585895 -0.011532802 -0.0163733505 0.006618115 0.0008978365 -0.002434362
 0.001044769 -0.00159313 -0.0179753335 0.00622222 0.068340244 -0.20785444 -0.3180407365 -0.14297721
 0.0166080305 -0.006758625 -0.0003606045 0.002068225 -0.3192288295 -0.143324205 0.1339977195 -0.144125577
240.0 0.0008400085 -0.0021616855 0.3138971802 -0.476532695 -0.0017396695 -0.0005809775 -0.0173499878 0.002193005
 0.31418577525 -0.47671987 0.00057729 -0.0037303155 0.01834493275 -0.00290982 0.003055077 -0.0024266725
 -0.0019139645 -0.0004772735 0.0204805978 -0.002548335 0.1116205715 -0.1343065615 0.2722106098 0.205621805
 -0.01823138275 0.00134854 0.001461383 0.0019145495 0.27341731475 0.20622815 0.129578266 -0.1364434475
250.0 -0.0058425345 -0.002955045 -0.456542525 0.329682427 0.0009635485 0.000393625 0.017236485 0.003779741
 -0.45673564 0.329597988 0.0007983245 -0.0105671995 -0.01659104 -0.003464698 2.31765e-05 -0.0007644335
 -0.0004434715 0.001010615 -0.018846045 -0.004840729 0.1292580755 -0.236276235 -0.170649315 -0.238594903
 0.01712328 0.004650592 -0.0009017045 0.0035913625 -0.17216396 -0.239629702 0.0930032935 -0.1468201915
260.0 0.00226923 -0.000738129 0.537121565 -0.143838641 -0.00077333 0.001563862 -0.015058535 -0.00929708
 0.53719453 -0.1436414595 -0.0049614775 -0.001150235 0.01651772 0.0067083925 0.0022639985 -0.000413254
 6.1e-05 0.00070817 0.017815515 0.00747335 0.24295488 -0.143320091 0.132605675 0.297870849
 -0.01504799 -0.0099649375 0.0016409255 0.003489934 0.13297304 0.2978167705 0.1155640795 -0.145469539
270.0 -0.004631014 3.95625e-05 -0.546328355 -0.055705125 0.002183034 0.0005735535 0.011165395 0.014619725
 -0.546160145 -0.056126557 -0.0008934345 -0.000122216 -0.012425675 -0.011401777 0.0014078295 -0.003050264
 0.000604344 0.0005051495 -0.013368595 -0.012511025 0.205499036 -0.1974047195 -0.004130885 -0.277540795
 0.012282385 0.014404637 0.0012580175 0.000598047 -0.004201245 -0.278314003 0.0810054075 -0.149080139
280.0 -0.00538348 0.000593445 0.484155065 0.243725124 0.00138223 0.002081875 -0.006318055 -0.016883431
 0.48416151 0.2439101955 -0.0060484285 -0.0021225585 0.00870605 0.0145243455 0.0017592815 -0.0036905115
 0.00013062 0.002177105 0.009521685 0.017540731 0.24793661 -0.206477385 -0.022300375 0.239076356
 -0.00661795 -0.0175928355 0.0021764055 0.0009361655 -0.02214955 0.2404610945 0.1023430395 -0.1730773375
290.0 -0.012647645 0.006258918 -0.360900095 -0.395331638 0.001762565 -0.00034537 -0.000235325 0.018503026
 -0.3606329 -0.395378542 -0.0122398525 0.004486848 -0.00508721 -0.017303421 0.0037790405 -0.00245126
 0.001502705 -0.000927275 -0.004275535 -0.019039656 0.258944295 -0.130916239 0.099645975 -0.276357992
 -0.00046895 0.018939601 0.0046152605 0.000667449 0.0998469 -0.276536238 0.0842714555 -0.136760395
300.0 -0.002983325 -0.0035639085 0.1936786592 0.49243059 0.000324455 -0.0011789925 0.0061607518 -0.01748081
 0.1935351826 0.492294545 -0.0002494085 -0.0037859565 -5.25136e-05 0.017472175 0.0018010735 -0.0005213655
 -0.000132495 -0.0016356165 0.0005772618 0.01914465 0.293633425 -0.1983635025 -0.1715226908 0.19334073
 0.0062682764 -0.017816215 0.0030970385 0.0027728415 -0.1709069474 0.193923295 0.0738076825 -0.1613184475
310.0 -0.0076943 -0.0011204855 -0.0052519835 -0.522835135 -0.00163237 -0.0006974785 -0.0123635255 0.014907625
 -0.0049418535 -0.522656575 -0.0058480235 -0.010724565 0.0050506395 -0.017354005 0.0031255585 1.16e-06
 -0.00174246 -0.0013900325 0.0060388915 -0.018747955 0.33931825 -0.1727020895 0.1910903395 -0.168265695
 -0.0127271665 0.015446455 0.0032400925 0.001963714 0.1913929605 -0.168874815 0.0573951385 -0.119074183
320.0 -0.003697035 -0.001006245 -0.1797658095 0.48429816 1.7245e-05 0.001459335 0.0168170485 -0.00992647
 -0.1800452265 0.484126375 -0.0023746825 -0.0117036535 -0.0094849225 0.014585155 0.0019785945 -0.0006449165
 -2.5315e-05 0.001174105 -0.0107315285 0.01459152 0.357021685 -0.246923015 -0.2530916705 0.11879263
 0.0173504125 -0.010150385 0.0019780915 0.0017133745 -0.2532885635 0.118712915 0.0311166205 -0.1321892605
330.0 -0.000601395 -0.00367513 0.3370166895 -0.38348536 -0.001216135 0.00010254 -0.0189879895 0.00466537
 0.337408396 -0.383296125 -0.002844108 -0.0092705305 0.012603326 -0.011026955 -8.8824e-05 -0.0019237585
 -0.001895635 -0.00029423 0.0133095695 -0.01172801 0.413080125 -0.30154262 0.2303013905 -0.03161936
 -0.019348846 0.004560935 -0.000149742 0.0014867295 0.230580004 -0.032290035 0.044844042 -0.1534979005
340.0 0.001054475 -0.005705855 -0.44678534 0.234843415 0.001255835 0.001089775 0.01967435 0.003338115
 -0.446714315 0.234643566 -0.00467173345 -0.006270852 -0.015110935 0.005896664 -0.00154732405 8.2571e-05
 0.001109095 0.001503845 -0.01657905 0.005874605 0.384927535 -0.333059845 -0.20733382 -0.030262555
 0.019753095 0.002918614 -0.00113654845 0.002154637 -0.208133105 -0.030260204 0.01019981635 -0.160131584
350.0 -0.0020563 -0.002925765 0.49574406 -0.058686336715 0.00042169 0.001444765 -0.01754926 -0.009338188715
 0.49556329 -0.05848426431 -0.0032948805 -0.003878478 0.01504466 -0.00112076531 0.0007998355 -0.002206567
 0.00010829 0.001477145 0.01586277 -0.000541690715 0.3971388 -0.415255005 0.19185295 0.069947535285
 -0.01787144 -0.00949812031 0.0006804285 -9.2212e-05 0.19237079 0.07033192669 0.0318489865 -0.172650013
360.0 -0.004363315 0.004807535 -0.47834952 -0.12138127425 0.000602105 -0.000359975 0.01407747 0.01439089325
 -0.478131865 -0.12163977365 -0.003866248 0.0025394965 -0.014085895 -0.00383133865 0.002452224 -0.0061788375
 0.000303125 -0.000824115 -0.01431813 -0.00457129325 0.390860805 -0.413323785 -0.16116424 -0.13140150575
 0.014066765 0.01473547865 0.001882393 -0.0037404265 -0.161174025 -0.13168558635 0.063815821 -0.1670531665
370.0 -0.000178655 0.006837045 0.39864655 0.2813943715 0.001190415 -0.001782695 -0.00890837 -0.0180108665
 0.39842738 0.2818154985 -0.0065476895 0.0022066505 0.01258676 0.0077028755 0.0037088025 -0.0073930285
 0.000469095 -0.002006915 0.01253987 0.0083525065 0.402491505 -0.433916155 0.10435755 0.1644538285
 -0.00887796 -0.0181095755 0.0034253935 -0.0048229135 0.10409692 0.1647563015 0.0779717455 -0.1585723125
380.0 0.007120605 -0.012984525 -0.268375187 -0.401688115 2.9095e-05 -0.000630985 0.002674693 0.019860595
 -0.268002561 -0.401627935 0.011124643 -0.007224996 -0.009349379 -0.010856465 0.001129268 -0.006740723
 -0.000615055 -0.000730465 -0.009642813 -0.011667965 0.396768835 -0.470792565 -0.068421633 -0.162257915
 0.002538119 0.020329905 0.001111681 -0.003764469 -0.068706079 -0.162618425 0.084005838 -0.167568464
390.0 0.000797185 -0.00941687 0.1052458735 0.4662692 -0.000946215 -0.00104536 0.0038527475 -0.01890905
 0.105030943 0.46610046 0.003098251 -0.012744494 0.005946029 0.01276351 0.001217315 -0.002632693
 -0.001721375 -0.00115146 0.0058708075 0.01387743 0.390058525 -0.51886289 0.0263427235 0.17542126
 0.004095301 -0.01923511 0.002089536 0.000132531 0.026356273 0.17595216 0.073317168 -0.168321796
400.0 -0.001622875 -0.01009421 0.0685161305 -0.467754825 0.000432535 0.00073062 -0.0109316085 0.016988605
 0.0684982835 -0.467436095 0.0012823815 -0.014444161 -0.0017841235 -0.013222305 0.0023010795 -0.002694566
 -0.000351085 0.0005209 -0.0015661405 -0.014031045 0.364387405 -0.58161993 0.0267502525 -0.153317495
 -0.0114172995 0.016765855 0.0022401405 -9.7748e-05 0.0267794955 -0.153551495 0.0597546945 -0.143420693
410.0 -0.00426367 -0.009803265 -0.229233791 0.40744653 0.00156904 -0.001109745 0.016107174 -0.01267853
 -0.2295352115 0.40743016 1.93370000001e-05 -0.0171778555 -0.0027222185 0.01236966 0.000350413 0.0012284535
 0.00046581 -0.001190065 -0.003757884 0.01292053 0.3124253 -0.631315945 -0.056693759 0.14132163
 0.0163391685 -0.01230433 0.000418994 0.0042829495 -0.0570893185 0.14143611 0.045826142 -0.1381552915
420.0 -0.004907345 -0.01009101 0.356789965 -0.2951622655 0.000862415 0.00049466 -0.019214135 0.0063475045
 0.356751755 -0.2948029405 -0.0004753435 -0.018514179 0.006668885 -0.0103118295 -4.72995e-05 0.000361748
 -0.000184725 0.00048134 0.007488075 -0.0107509445 0.287277215 -0.66114357 0.103028415 -0.1022897345
 -0.019543365 0.0063236595 5.63825e-05 0.00360737 0.103293285 -0.1021182495 0.0264379765 -0.153239705
430.0 -0.001175965 -0.01156183 -0.434288495 0.145600827 0.001663175 0.00059263 0.020216235 0.000286889
 -0.434483995 0.1455281605 -0.00374556215 -0.0153124255 -0.009100485 0.0071064055 -0.00135316435 0.0013675245
 0.000853775 0.00085448 -0.010061095 0.007462443 0.248302415 -0.70124008 -0.105762605 0.061916021
 0.020460265 0.0006486485 -0.00118526555 0.0046639075 -0.106097505 0.0622012655 0.00923487945 -0.1634934545
440.0 -0.00147495 -0.007882455 0.453333535 0.019893015065 -9.626e-05 0.000559165 -0.018396075 -0.006790880165
 0.453249465 0.0202164824 -0.00063024925 -0.0115483965 0.010404075 -0.0039411644 0.00089732225 -0.0020229705
 -0.00073785 0.001088245 0.011287145 -0.003391482165 0.2228024 -0.736669795 0.118590855 -0.028194298935
 -0.018271295 -0.0070754464 0.00126147455 0.0011529815 0.118613655 -0.0280080056 0.01289297405 -0.1822113285
450.0 -0.00146649 -0.011347605 -0.411593095 -0.1798774435 0.000120469 -0.000566585 0.015148525 0.0122348275
 -0.41168534 -0.180045129 0.00130972475 -0.0163786805 -0.01028743 0.000367367 0.00051800325 -0.0062252505
 -0.000731453 -8.41449999999e-05 -0.010824655 -0.0001867875 0.185173988 -0.765593965 -0.106070415 -0.0118587965
 0.01494532 0.012232342 0.00108988325 -0.0028299695 -0.10641293 -0.011888922 0.01660014575 -0.1958224795
460.0 -0.0008975345 -0.009262355 0.31639107 0.31270318 -0.0002801045 -0.000181165 -0.00995785 -0.01625395
 0.316358035 0.31296179 -0.00187467245 -0.018878881 0.009446365 0.0026636 -0.00041766255 -0.00539555
 -0.0010243425 0.000264915 0.00984137 0.00325206 0.1430702135 -0.788117555 0.09307595 0.03358679
 -0.009452705 -0.01644698 0.00046320465 -0.00241639 0.093378405 0.03374253 0.01477926575 -0.196943719
470.0 0.001390986 -0.009069975 -0.1808184845 -0.401712065 -0.000997595 -0.000942885 0.0038152715 0.018331265
 -0.1807643965 -0.402013815 -0.0034499552 -0.0231361925 -0.0079495205 -0.005371265 0.0028515342 -0.0026221865
 -0.001421943 -0.000421345 -0.0079202715 -0.006075645 0.094714776 -0.800437275 -0.0726746555 -0.058557815
 0.0036978905 0.018430285 0.0035811042 0.0004087765 -0.0728906735 -0.058664885 0.0183358548 -0.1993331175
480.0 -0.003113677 -0.01297369 0.0237653695 0.435622 0.001055856 -0.00097117 0.0023757705 -0.01916625
