!Agilent Technologies,M9370A,MY54322275,A.02.50.04
!Agilent M9370A: A.02.50.04
!Date: Friday, April 06, 2018 11:10:20
!Correction: S11(Full 8 Port(1,2,3,4,5,6,7,8)) 
!S12(Full 8 Port(1,2,3,4,5,6,7,8)) 
!S13(Full 8 Port(1,2,3,4,5,6,7,8)) 
!S14(Full 8 Port(1,2,3,4,5,6,7,8)) 
!S15(Full 8 Port(1,2,3,4,5,6,7,8)) 
!S16(Full 8 Port(1,2,3,4,5,6,7,8)) 
!S17(Full 8 Port(1,2,3,4,5,6,7,8)) 
!S18(Full 8 Port(1,2,3,4,5,6,7,8)) 
!S21(Full 8 Port(1,2,3,4,5,6,7,8)) 
!S22(Full 8 Port(1,2,3,4,5,6,7,8)) 
!S23(Full 8 Port(1,2,3,4,5,6,7,8)) 
!S24(Full 8 Port(1,2,3,4,5,6,7,8)) 
!S25(Full 8 Port(1,2,3,4,5,6,7,8)) 
!S26(Full 8 Port(1,2,3,4,5,6,7,8)) 
!S27(Full 8 Port(1,2,3,4,5,6,7,8)) 
!S28(Full 8 Port(1,2,3,4,5,6,7,8)) 
!S31(Full 8 Port(1,2,3,4,5,6,7,8)) 
!S32(Full 8 Port(1,2,3,4,5,6,7,8)) 
!S33(Full 8 Port(1,2,3,4,5,6,7,8)) 
!S34(Full 8 Port(1,2,3,4,5,6,7,8)) 
!S35(Full 8 Port(1,2,3,4,5,6,7,8)) 
!S36(Full 8 Port(1,2,3,4,5,6,7,8)) 
!S37(Full 8 Port(1,2,3,4,5,6,7,8)) 
!S38(Full 8 Port(1,2,3,4,5,6,7,8)) 
!S41(Full 8 Port(1,2,3,4,5,6,7,8)) 
!S42(Full 8 Port(1,2,3,4,5,6,7,8)) 
!S43(Full 8 Port(1,2,3,4,5,6,7,8)) 
!S44(Full 8 Port(1,2,3,4,5,6,7,8)) 
!S45(Full 8 Port(1,2,3,4,5,6,7,8)) 
!S46(Full 8 Port(1,2,3,4,5,6,7,8)) 
!S47(Full 8 Port(1,2,3,4,5,6,7,8)) 
!S48(Full 8 Port(1,2,3,4,5,6,7,8)) 
!S51(Full 8 Port(1,2,3,4,5,6,7,8)) 
!S52(Full 8 Port(1,2,3,4,5,6,7,8)) 
!S53(Full 8 Port(1,2,3,4,5,6,7,8)) 
!S54(Full 8 Port(1,2,3,4,5,6,7,8)) 
!S55(Full 8 Port(1,2,3,4,5,6,7,8)) 
!S56(Full 8 Port(1,2,3,4,5,6,7,8)) 
!S57(Full 8 Port(1,2,3,4,5,6,7,8)) 
!S58(Full 8 Port(1,2,3,4,5,6,7,8)) 
!S61(Full 8 Port(1,2,3,4,5,6,7,8)) 
!S62(Full 8 Port(1,2,3,4,5,6,7,8)) 
!S63(Full 8 Port(1,2,3,4,5,6,7,8)) 
!S64(Full 8 Port(1,2,3,4,5,6,7,8)) 
!S65(Full 8 Port(1,2,3,4,5,6,7,8)) 
!S66(Full 8 Port(1,2,3,4,5,6,7,8)) 
!S67(Full 8 Port(1,2,3,4,5,6,7,8)) 
!S68(Full 8 Port(1,2,3,4,5,6,7,8)) 
!S71(Full 8 Port(1,2,3,4,5,6,7,8)) 
!S72(Full 8 Port(1,2,3,4,5,6,7,8)) 
!S73(Full 8 Port(1,2,3,4,5,6,7,8)) 
!S74(Full 8 Port(1,2,3,4,5,6,7,8)) 
!S75(Full 8 Port(1,2,3,4,5,6,7,8)) 
!S76(Full 8 Port(1,2,3,4,5,6,7,8)) 
!S77(Full 8 Port(1,2,3,4,5,6,7,8)) 
!S78(Full 8 Port(1,2,3,4,5,6,7,8)) 
!S81(Full 8 Port(1,2,3,4,5,6,7,8)) 
!S82(Full 8 Port(1,2,3,4,5,6,7,8)) 
!S83(Full 8 Port(1,2,3,4,5,6,7,8)) 
!S84(Full 8 Port(1,2,3,4,5,6,7,8)) 
!S85(Full 8 Port(1,2,3,4,5,6,7,8)) 
!S86(Full 8 Port(1,2,3,4,5,6,7,8)) 
!S87(Full 8 Port(1,2,3,4,5,6,7,8)) 
!S88(Full 8 Port(1,2,3,4,5,6,7,8)) 
!S8P File: Measurements: <S11,S12,S13,S14,S15,S16,S17,S18>,
!<S21,S22,S23,S24,S25,S26,S27,S28>,
!<S31,S32,S33,S34,S35,S36,S37,S38>,
!<S41,S42,S43,S44,S45,S46,S47,S48>,
!<S51,S52,S53,S54,S55,S56,S57,S58>,
!<S61,S62,S63,S64,S65,S66,S67,S68>,
!<S71,S72,S73,S74,S75,S76,S77,S78>,
!<S81,S82,S83,S84,S85,S86,S87,S88>:
# Hz S  RI   R 50
1000000 -0.74560177 0.086383358 0.245957 0.0011155644 0.24558119 -0.00041711002 0.24565673 -0.00050528476
0.2497362 -0.0010864818 0.24744846 -0.00028404809 0.24792761 -0.00038446169 0.25015748 -0.0012992774
0.24634293 0.00095386041 -0.74568552 0.080496378 0.24435242 0.00047239329 0.24500619 0.00042281856
0.24915749 -0.00022339638 0.24615484 0.00070989557 0.24659218 0.00055663736 0.24642047 0.00023179382
0.2453513 -0.00026700422 0.24469268 0.00089757185 -0.73747945 0.088040113 0.2436444 -0.00025573734
0.24812481 -0.0010748687 0.24411255 -3.0970983e-005 0.24591777 -0.00046847339 0.24510537 -0.00066782528
0.24624881 8.8276327e-005 0.24563047 0.0012782477 0.24485758 0.00027176205 -0.74111599 0.087978519
0.24809287 -0.00064179447 0.24492896 0.00039111113 0.2464347 -1.3040507e-007 0.24751025 -0.00062673248
0.24967708 -0.00075484952 0.24903461 0.00038876236 0.24822091 -0.00083785661 0.24837193 -0.00094663864
-0.74980742 0.094086088 0.2479611 -0.0002324238 0.24827877 -0.00048328814 0.24838671 -0.00091096858
0.2462023 0.00030653097 0.24550359 0.0014330676 0.24472287 7.3484225e-005 0.24490115 5.2081268e-006
0.24902375 -0.00031067684 -0.74354488 0.084638268 0.24563119 0.00040881254 0.24562646 9.4681323e-005
0.24654359 6.5407839e-005 0.24575375 0.0011810372 0.24503082 -0.00017520969 0.24519651 -0.00026773027
0.24942464 -0.00087733398 0.24543883 0.00038753974 -0.74234396 0.088048778 0.24520917 2.8756864e-007
0.2456359 -0.00037570286 0.24528372 0.00079351431 0.24454525 -0.00057850796 0.24472202 -0.00066481571
0.24892502 -0.0013060556 0.24497697 -2.4739367e-005 0.24585299 -6.6947759e-006 -0.74308246 0.089428507
1499499.4994995 -0.74062741 0.0098828534 0.24834976 0.00021139529 0.24768712 -0.00045756306 0.24818699 -0.00062759046
0.24944286 0.00096781872 0.24850991 -7.8150675e-005 0.2488286 0.00010697835 0.24875359 0.00014822579
0.24848217 0.00017419402 -0.74226081 0.0093017519 0.24757153 -0.0004480569 0.24830332 -0.0005821751
0.24949819 0.00094390259 0.24852234 -0.00012364345 0.24883522 -5.4924712e-006 0.24880983 6.5927132e-005
0.24770571 -0.00044507219 0.24789068 -0.00033555378 -0.73606545 0.011054833 0.24733329 -0.00038852022
0.24879791 0.00081944268 0.24776627 -0.00038097851 0.24804768 -0.00025262608 0.24793081 -0.00020163349
0.24844407 -0.00061379367 0.24872413 -0.00048692574 0.2478015 -0.0003332411 -0.74022716 0.012024503
0.24932744 0.00065676204 0.24857141 -0.00049632293 0.24883649 -0.00039415032 0.24877788 -0.00034819462
0.24962772 0.00085879373 0.24979648 0.0009252376 0.248923 0.00074724847 0.24944289 0.00058185274
-0.7451933 0.0050830166 0.24948619 0.0013034909 0.24996635 0.0010839299 0.24988925 0.0011113354
0.2485922 -0.00015521354 0.248772 -0.00011090932 0.2478008 -0.00043796466 0.24835823 -0.00055788603
0.24956499 0.0014065356 -0.74252164 0.0086289067 0.24891078 0.00017491724 0.24893925 0.00020948885
0.24892044 5.8642214e-005 0.24901275 8.0986036e-005 0.248091 -0.00024038889 0.24862708 -0.00038981991
0.24985474 0.0012166327 0.24900638 0.00027015808 -0.74198502 0.008474336 0.24873893 0.00072028005
0.24851504 0.00011557422 0.24878699 0.00017531794 0.24784778 -0.00017263711 0.24840075 -0.00031214254
0.24960665 0.0012608423 0.24878864 0.00032857474 0.24902354 0.00082356727 -0.74319607 0.0077635213
1998998.998999 -0.73929834 0.010700091 0.2483958 0.00053958682 0.24752745 -0.00041364142 0.24806075 -0.00066726271
0.24878594 0.00032059674 0.24846701 -9.2571563e-006 0.24875695 0.00017195735 0.2486649 0.00019763682
0.24843478 0.00042742354 -0.7412805 0.0097777843 0.24754198 -0.00034111473 0.24823736 -0.00057255814
0.2488935 0.00034391653 0.24853191 -2.1784468e-005 0.24881622 8.5490479e-005 0.24877715 0.00012866763
0.24760474 -0.00039311693 0.24785967 -0.00013746717 -0.73460084 0.012017384 0.2472886 -0.00029935534
0.24815178 0.00020239304 0.24773821 -0.00033813575 0.24797747 -0.00023036719 0.24785027 -0.0002055959
0.24838522 -0.00059628469 0.24869661 -0.00031736045 0.24765387 -0.00016367731 -0.73893374 0.013154405
0.24875428 3.8959734e-005 0.24854265 -0.00045627161 0.2487652 -0.00038481763 0.24868017 -0.00036815312
0.24932788 0.00029338599 0.24956836 0.00051325932 0.24857606 0.00022323655 0.24912252 -2.3359558e-005
-0.74318558 0.0084573803 0.24931015 0.00090228638 0.24970019 0.00053314888 0.24960366 0.00052938372
0.24858797 9.3536968e-005 0.2488429 0.00027523481 0.24774045 -0.00019149169 0.24833548 -0.00039109675
0.24901722 0.001114192 -0.74155575 0.0091396645 0.24896136 0.00046533719 0.2489498 0.00046925319
0.24885611 0.00015068443 0.24902238 0.00026858898 0.24797024 -0.00021413394 0.24854366 -0.00044029049
0.2492429 0.00059199193 0.24901453 0.0003698731 -0.74091905 0.009280853 0.24880332 0.0009019656
0.2485576 0.00031175173 0.24885613 0.00045342324 0.24778625 -6.0152855e-005 0.24837565 -0.00028104431
0.24904758 0.00072201248 0.24885377 0.00051503105 0.24903841 0.0011125759 -0.74220181 0.0085142879
2498498.4984985 -0.73870814 0.011537754 0.24858402 -0.00071399892 0.24759707 -0.0018251941 0.24809968 -0.0021655913
0.24875985 -0.001403189 0.24868451 -0.0014486867 0.2488406 -0.0011715454 0.2487226 -0.0011435848
0.24855319 -0.000788579 -0.7409423 0.010373758 0.24768668 -0.0016710829 0.24832463 -0.0019994993
0.248908 -0.0013247475 0.24882051 -0.0014221951 0.24893628 -0.0012231979 0.24887772 -0.001176584
0.24766748 -0.0018940619 0.24800408 -0.0015982729 -0.73434293 0.013027283 0.24735931 -0.0017544609
0.2481236 -0.0016140436 0.24791408 -0.0018949088 0.24804857 -0.0017226614 0.24794476 -0.0016874494
0.2482942 -0.0019674057 0.24868539 -0.0016582587 0.24756807 -0.0013856359 -0.73782015 0.014042578
0.24846485 -0.0016243174 0.24856699 -0.0018820947 0.24869144 -0.0017451365 0.24864298 -0.0017219685
0.24848042 -0.001397913 0.24880804 -0.0011688011 0.24773903 -0.0014342382 0.24824943 -0.0017753833
-0.74023318 0.010725494 0.24859881 -0.00072614022 0.24877857 -0.0011358359 0.2487278 -0.0011243087
0.24869801 -0.0012653321 0.24903041 -0.0010866215 0.24784739 -0.0015659417 0.24842024 -0.0018558222
0.24902512 -0.00047979548 -0.74128246 0.010056624 0.24909177 -0.00085087999 0.24905071 -0.00083008857
0.24892913 -0.0013277896 0.24917373 -0.0012275658 0.24804246 -0.0017263755 0.24859031 -0.0020556576
0.24920873 -0.0012495982 0.24920657 -0.0011613721 -0.74051499 0.010163411 0.24893709 -0.00042081758
0.24872464 -0.0010961671 0.24908541 -0.00097481848 0.24793088 -0.0015127178 0.24849461 -0.0018405175
0.2490906 -0.001069549 0.24911292 -0.00095765636 0.2491942 -0.00015484453 -0.74184024 0.0093187168
2997997.997998 -0.73788178 0.011670498 0.24851851 -0.00029279923 0.24747436 -0.0016167072 0.24803071 -0.0020220063
0.24864939 -0.0011237095 0.24861071 -0.0012020014 0.24874204 -0.0009046144 0.24868868 -0.00099100184
0.24849236 -0.00041166498 -0.74033445 0.010538856 0.24763131 -0.0014634882 0.24829587 -0.0018651683
0.24885613 -0.0010635345 0.24879633 -0.001208752 0.24889602 -0.00099591748 0.2488936 -0.0010696473
0.24755983 -0.0016772511 0.24792835 -0.0013254021 -0.73324555 0.01349194 0.24729849 -0.0015191656
0.24802369 -0.0013535905 0.24784188 -0.00170576 0.24795525 -0.0015072739 0.24790806 -0.0016177883
0.24820064 -0.0017920322 0.24862167 -0.0014272172 0.24746595 -0.0011071212 -0.73719817 0.014737749
0.24835433 -0.0013827025 0.24851036 -0.0017178255 0.24861267 -0.0015681239 0.24862869 -0.0016910586
0.24865139 -0.0014755037 0.24901398 -0.0012091643 0.24790275 -0.0015328166 0.24845472 -0.0019138403
-0.74043292 0.012018709 0.24882065 -0.00068674044 0.24894191 -0.0011905122 0.24896744 -0.0013413811
0.24868788 -0.00087993627 0.24905273 -0.00067744544 0.24783377 -0.0012438246 0.24844551 -0.0015784142
0.24902417 5.8055877e-005 -0.74077088 0.010011566 0.2491021 -0.00040288729 0.24911545 -0.00054916856
0.24883412 -0.0010432857 0.24911489 -0.00094050233 0.24793793 -0.0015450049 0.24853265 -0.0019186049
0.2491248 -0.00095847325 0.2491518 -0.00087166275 -0.73982233 0.010195793 0.24896204 -0.00013944787
0.24861866 -0.00071810867 0.24900658 -0.00059703173 0.24780846 -0.0012422978 0.2484179 -0.0016165894
0.24898577 -0.00069751829 0.24903724 -0.00058279466 0.24910066 0.00037126557 -0.7412585 0.0095773349
3497497.4974975 -0.73751724 0.011832355 0.24863373 -0.00030538079 0.24750128 -0.0017569972 0.24798666 -0.0022439063
0.24874191 -0.0013504341 0.24871358 -0.0014375621 0.24881862 -0.00098891975 0.24871901 -0.0011214624
0.24851999 -0.00041251539 -0.73998463 0.010680946 0.24764276 -0.0015866556 0.24821764 -0.002069968
0.24892113 -0.0012866522 0.24889304 -0.0014486106 0.24894218 -0.0011049308 0.24888861 -0.0012212987
0.24758136 -0.0018260552 0.24800192 -0.0014823232 -0.7326678 0.013718107 0.24722967 -0.0016230777
0.24807742 -0.001590781 0.24790837 -0.0019743633 0.247996 -0.0016785464 0.24792314 -0.0018395541
0.24812095 -0.0018738887 0.248587 -0.0015196985 0.24735872 -0.0010577986 -0.73615968 0.014975674
0.24851783 -0.0015369004 0.24847932 -0.0019076073 0.24854438 -0.0016660321 0.24848293 -0.0018338461
0.24837476 -0.00079331215 0.24878368 -0.00050223444 0.24761184 -0.00082925078 0.24808802 -0.0012841171
-0.73899508 0.010475735 0.24862036 5.3424883e-005 0.24879609 -0.00051366369 0.24869198 -0.00070522161
0.24872544 -0.00096676126 0.24914064 -0.00075505051 0.24784338 -0.0013538016 0.24838516 -0.0017625195
0.2491131 1.3386141e-006 -0.7403574 0.010293269 0.24916843 -0.0004622023 0.24912021 -0.00065493118
0.24889584 -0.001251437 0.24923235 -0.0011593387 0.24797653 -0.0017783493 0.24850212 -0.0022392925
0.24923575 -0.0012576762 0.24926767 -0.0011221644 -0.73958868 0.01043934 0.24903232 -0.00024050981
0.24871065 -0.00081041246 0.24913977 -0.00069994997 0.24786341 -0.0013680945 0.24840073 -0.0018293199
0.24911165 -0.00089537102 0.24916714 -0.000723126 0.24919741 0.00044109201 -0.74091309 0.0097626215
3996996.996997 -0.73695219 0.012151886 0.24866806 9.1224676e-005 0.24742199 -0.0015255195 0.24792913 -0.0020664518
0.24874562 -0.0010252569 0.2486932 -0.0011608839 0.24878393 -0.00064125506 0.24874514 -0.00078925001
0.24854779 1.2621841e-006 -0.73965818 0.010963148 0.247601 -0.0013158062 0.24818377 -0.001855529
0.24895437 -0.00094079127 0.24890092 -0.0011634988 0.24894248 -0.00076074468 0.24894406 -0.00089392776
0.24750461 -0.001637189 0.24796304 -0.0012462214 -0.73167425 0.014118741 0.24709749 -0.0013480959
0.24801278 -0.0013085584 0.24782051 -0.001792279 0.24789138 -0.0014365494 0.24787717 -0.0015844777
0.24815507 -0.0017186234 0.24865752 -0.0013164154 0.2473169 -0.00074641808 -0.73557365 0.015774583
0.24857494 -0.0012684176 0.24850161 -0.0017490276 0.24855413 -0.0014536537 0.2485473 -0.001613667
0.24837883 -0.00099887187 0.24882244 -0.00071505661 0.24754854 -0.0010194617 0.24804246 -0.0014874281
-0.7384277 0.012426044 0.24862905 -5.9300313e-005 0.24877147 -0.00066308485 0.24873009 -0.00090384186
0.24882308 -0.00045426365 0.24927169 -0.00025896073 0.24787299 -0.00086632342 0.24843389 -0.0012996899
0.24922769 0.0006900116 -0.73999679 0.01015122 0.24924245 0.00014276858 0.24925007 -9.9094752e-005
0.24889857 -0.00090867182 0.24927737 -0.00082753872 0.24791187 -0.001467966 0.24845001 -0.0019742155
0.24925572 -0.00086807285 0.24926841 -0.0007656588 -0.73902047 0.010341351 0.24909157 0.0002804939
0.24880254 -0.00041335094 0.24926677 -0.00031511261 0.24788201 -0.0010088552 0.24843478 -0.0015166758
0.24921608 -0.00046133567 0.24924558 -0.00032490006 0.24926464 0.0010407068 -0.74073607 0.0096000647
4496496.4964965 -0.73661292 0.013340187 0.24883954 -3.7661543e-005 0.24761803 -0.0017867556 0.24813257 -0.002380766
0.24901056 -0.0012353009 0.24894884 -0.0015245707 0.24903741 -0.00092494744 0.24915843 -0.0010627124
0.24875975 -6.7705383e-005 -0.73939216 0.011961186 0.24782962 -0.0014905843 0.24840891 -0.0020933105
0.24924852 -0.001091279 0.24917798 -0.0014774296 0.24922396 -0.0010150458 0.24937965 -0.0011283228
0.24762969 -0.0019676723 0.24808314 -0.0015466005 -0.73128027 0.01535967 0.24725015 -0.0015691244
0.24822547 -0.001559044 0.24802186 -0.0022261115 0.24809404 -0.0017951198 0.24822919 -0.0019498916
0.24828522 -0.001810681 0.24877311 -0.0013707492 0.24746855 -0.00064729823 -0.73511642 0.016522335
0.24879602 -0.0012582974 0.24870446 -0.0019228011 0.2487562 -0.0015586278 0.24890123 -0.0017284699
0.24910434 -0.00027455299 0.24954732 3.3153869e-005 0.24830037 -0.0002392208 0.24880338 -0.00076912931
-0.73979449 0.011070931 0.24944961 0.00070648338 0.24957445 5.1282135e-005 0.2496928 -0.00014660286
0.2490427 -0.00066981843 0.24948207 -0.00046625012 0.24811397 -0.0010679433 0.24867854 -0.0015616843
0.24953772 0.00066735194 -0.73996007 0.011581553 0.24954118 -4.8231621e-005 0.24970031 -0.00024765229
0.24911393 -0.001317328 0.24948785 -0.0012338136 0.24814722 -0.001870918 0.24869107 -0.0024271884
0.24956504 -0.0012173622 0.24956992 -0.001233088 -0.73907608 0.011845022 0.24956058 3.0163983e-005
0.24897769 -0.00068630668 0.2494372 -0.00058276334 0.24807821 -0.0012821306 0.24863349 -0.0018373582
0.24948607 -0.0006850551 0.2494985 -0.00065753085 0.24952346 0.00092944247 -0.74105579 0.010782056
4995995.995996 -0.73623288 0.013658477 0.24897811 0.00032005543 0.24763481 -0.0015930264 0.24816006 -0.0022821734
0.24922712 -0.0010686475 0.24903882 -0.0013760932 0.249112 -0.00058826362 0.24919212 -0.00077106745
0.24890563 0.00037503964 -0.73918462 0.012408489 0.24788488 -0.0012639181 0.24847309 -0.001948192
0.24949943 -0.00090412056 0.24930339 -0.0013137003 0.24932833 -0.00068256469 0.24944247 -0.00083925301
0.24769242 -0.0017723404 0.24816479 -0.0013436642 -0.73046404 0.015978845 0.2472131 -0.0013683917
0.24837939 -0.0014158593 0.24804796 -0.0021617443 0.24810444 -0.0015389207 0.24819981 -0.0017804363
0.24846144 -0.0015685472 0.24897105 -0.0011163407 0.24754374 -0.00031320882 -0.73458183 0.017455786
0.2490849 -0.0010503759 0.24885425 -0.0017918292 0.24888849 -0.0012486646 0.24898696 -0.0015009907
0.24879707 0.00010603562 0.24926686 0.00045027971 0.24790612 0.00012248787 0.2484206 -0.00043855482
-0.73807573 0.011954776 0.24913345 0.0011287193 0.24922319 0.00047781091 0.24930277 0.00016738431
0.24927539 -0.0001058702 0.24973951 0.00012214614 0.2482506 -0.00057326583 0.24882708 -0.0010950736
0.24987422 0.0013064545 -0.73966545 0.011513457 0.24973379 0.00059386191 0.24984719 0.00027879592
0.24923345 -0.00097214628 0.24963593 -0.000894283 0.24817188 -0.0016171839 0.24872905 -0.0022372601
0.24979103 -0.00095694151 0.24966849 -0.00095029734 -0.73861504 0.011812133 0.24961068 0.0004856211
0.24920601 -0.00018421345 0.24968377 -8.7491375e-005 0.24819936 -0.00087443896 0.24876879 -0.0014884541
0.24981159 -0.00027193219 0.24969955 -0.00022348152 0.24970354 0.0016120353 -0.74070662 0.010606518
5495495.4954955 -0.73603028 0.014060579 0.2492515 0.00068812189 0.24788731 -0.0013278144 0.24836101 -0.0021109344
0.24929711 -0.00074685836 0.24930169 -0.0012367171 0.24943517 -0.00036769116 0.24943317 -0.00052694813
0.2491332 0.0007724677 -0.73914361 0.012853326 0.24815091 -0.00096844014 0.24868129 -0.0017541877
0.2495746 -0.0005680598 0.24957769 -0.0011714594 0.2496651 -0.00047600822 0.24968936 -0.00059859263
0.24793202 -0.0016391043 0.24845232 -0.0012811013 -0.73043871 0.016676366 0.24742953 -0.0012304189
0.24847192 -0.0012564353 0.24833266 -0.002195504 0.24844408 -0.0015483008 0.2484583 -0.0017233033
0.24868636 -0.0010239824 0.24924636 -0.00064063218 0.24781016 0.00034167574 -0.73421484 0.017493451
0.24919146 -0.0004618442 0.24911824 -0.001396247 0.24924645 -0.00084367709 0.24926443 -0.0010253604
0.25010845 0.00062139303 0.25064689 0.00083162135 0.24926384 0.00064524187 0.24972735 -2.4567145e-005
-0.73958546 0.012005974 0.25045618 0.0016452133 0.25036785 0.00090406905 0.25047109 0.00072187168
0.24965519 0.00015957213 0.25015578 0.00024480943 0.24866988 -0.00033908899 0.2491885 -0.00096761592
0.25009272 0.0017261931 -0.73985314 0.012419244 0.25018895 0.000796368 0.25023234 0.00061669503
0.24946426 -0.00089092704 0.24990772 -0.00095577777 0.24843305 -0.0016196318 0.24892679 -0.0023250422
0.24986309 -0.00086741871 0.24993753 -0.00099726149 -0.73870558 0.012891996 0.24986458 0.00067641784
0.24947983 -5.8334676e-006 0.24999517 -4.7341589e-005 0.24850561 -0.000780161 0.24901111 -0.0014803233
0.2499252 -8.8432491e-005 0.25001308 -0.00016525264 0.25005463 0.0018284605 -0.74058962 0.011299022
5994994.994995 -0.73593384 0.014737682 0.24954894 0.0010216116 0.24814221 -0.001115466 0.24859883 -0.0020147455
0.2499456 -0.00048301913 0.24965248 -0.0010154054 0.24976321 -0.00011591386 0.2498533 -0.00028362783
0.24949978 0.0012999637 -0.73903894 0.013161715 0.24844033 -0.00058559829 0.2489626 -0.0014819307
0.25026181 -0.00014781146 0.24997199 -0.00080496661 0.25004449 -9.5101735e-005 0.25015178 -0.00022166737
0.2481042 -0.0014775242 0.248592 -0.0011158464 -0.72972435 0.017225446 0.24750854 -0.0010117266
0.24895948 -0.00099654985 0.24852347 -0.0020757727 0.24861521 -0.0013877425 0.24870299 -0.0015358754
0.24916624 -0.00069237937 0.24968964 -0.00029338515 0.24819911 0.00087033561 -0.73407775 0.018244719
0.25000489 -9.5058103e-006 0.24961942 -0.0010852006 0.24974276 -0.00049648958 0.24984133 -0.00065523828
0.25001481 0.001685809 0.25052172 0.0019203178 0.249092 0.001742582 0.24955416 0.0009844997
-0.73824185 0.010274019 0.25037521 0.0027450579 0.25018853 0.0019623747 0.25040716 0.0018155042
