!Keysight Technologies PLTS 2017U1, Build 20170714.1
!FILE: G:\CAP1P_CBP1N_CAP1N_CBP1P.s4p
!$DUT_CFG_DESC: Default 4-Port Configuration
!$NUMBER_PORTS: 4
!$DIFF_PORT_MAP: 1|2P|2|2P|0|UC|0|UC|
!$PORT_MAP: 1|1|<<<<<<|2|2|>>>>>>|3|3|<<<<<<|4|4|>>>>>>|
!Date: Tuesday, August 29, 2017, 01:43:54
!S4P File: Measurements: <S11,S12,S13,S14>,
!<S21,S22,S23,S24>,
!<S31,S32,S33,S34>,
!<S41,S42,S43,S44>:
# MHz S  RI   R 50
10           0.34980643               -0.14131747              0.32180738               -0.030984879             0.38778955               -0.12454461              -0.46612397              -0.25139385             
             0.32480428               -0.037873358             0.31204376               -0.032909535             -0.4904798               -0.24590938              0.36019799               -0.0021715888           
             0.35604566               -0.13589582              -0.51874411              -0.25952241              0.38087803               -0.1340863               0.37407362               -0.019963617            
             -0.51571381              -0.26471913              0.31734049               -0.026559208             0.34667811               -0.018471312             0.35184905               -0.0049912464           
20           0.44991526               -0.092010893             -0.33465871              -0.19974729              0.47171298               -0.098135695             0.34207651               0.29120392              
             -0.33649883              -0.19930303              0.21478049               0.20172934               0.34246889               0.28942245               0.23834153               0.18594274              
             0.4636842                -0.084240414             0.35531169               0.27006078               0.45709482               -0.10764804              -0.34539485              -0.18265685             
             0.35460067               0.27462891               0.2226374                0.20803821               -0.34561586              -0.18317111              0.22528967               0.1785948               
30           0.42492521               -0.14688791              0.25263765               0.24677061               0.43993163               -0.12874411              -0.22947279              -0.40217337             
             0.25122917               0.25051224               0.11942411               0.17374058               -0.23265459              -0.39928874              0.126399                 0.17782208              
             0.44053969               -0.13800573              -0.22687064              -0.40695614              0.42377514               -0.13883379              0.24291417               0.25599095              
             -0.22462888              -0.40527841              0.13081771               0.18271001               0.24343821               0.25624737               0.10842428               0.16755919              
40           0.40960243               -0.1818656               -0.14861171              -0.30657342              0.41752255               -0.15834808              0.087763719              0.43948817              
             -0.14506269              -0.31080943              0.0094958292             0.14660023               0.08928027               0.44046754               0.0075600753             0.15578032              
             0.42375132               -0.17169549              0.075075231              0.45200038               0.40183216               -0.16942728              -0.12724803              -0.32016739             
             0.073193371              0.44639134               0.022795223              0.15869206               -0.13080497              -0.31934956              -0.010462438             0.13732252              
50           0.28755274               -0.21891616              0.034069166              0.2458197                0.32520378               -0.14164028              0.05139973               -0.51127183             
             0.033899568              0.24525471               0.01079129               0.085378721              0.039588593              -0.51106685              0.021763271              0.066793859             
             0.30289903               -0.19961716              0.080344915              -0.5256871               0.31032389               -0.1616943               -0.0055514011            0.25825456              
             0.087529711              -0.52194285              0.023111882              0.094982006              -0.0099900011            0.25991377               0.0023323854             0.051064994             
60           0.31706336               -0.18190536              0.10147782               -0.26098105              0.35338697               -0.18471837              -0.22301775              0.41511405              
             0.096351407              -0.26012313              -0.056058668             -0.010308784             -0.21782251              0.41897646               -0.049094845             0.014652682             
             0.32792994               -0.16383512              -0.19863957              0.43383056               0.34099162               -0.19983955              0.088529773              -0.2734127              
             -0.21045952              0.42901322               -0.045963746             0.0034024699             0.087945357              -0.27334502              -0.058925945             -0.0062579694           
70           0.25459412               -0.21732509              -0.15170951              0.15195458               0.26872513               -0.20386325              0.3603636                -0.36964384             
             -0.15246303              0.15314437               -0.0070067998            -0.05153133              0.35459289               -0.37905008              0.0018842433             -0.044917502            
             0.25973657               -0.20555852              0.3578237                -0.38470507              0.26080427               -0.2163517               -0.16085202              0.15862525              
             0.36462992               -0.37559855              -0.0017945446            -0.038820695             -0.1593695               0.15762991               0.00042015035            -0.061150096            
80           0.37423211               -0.15583397              0.29592159               -0.13279265              0.37202361               -0.19878229              -0.39783928              0.16246483              
             0.28621453               -0.13057163              0.046742249              -0.18651025              -0.39095983              0.17207907               0.025562862              -0.16950521             
             0.37637171               -0.15055624              -0.35466787              0.19110134               0.36805284               -0.20305257              0.26265848               -0.14656022             
             -0.36996093              0.184321                 0.050844692              -0.17865828              0.26434332               -0.14566837              0.030937737              -0.17781396             
90           0.32472092               -0.23784649              -0.25762641              0.040576629              0.32447061               -0.23428077              0.45458281               -0.026116045            
             -0.25661874              0.040119268              0.10008647               -0.16096352              0.45329654               -0.037862837             0.10770036               -0.15327103             
             0.32505518               -0.23583357              0.45105639               -0.036658391             0.32137749               -0.23690283              -0.26018736              0.033861224             
             0.45304686               -0.024306627             0.10562447               -0.15629463              -0.25993821              0.033674896              0.1056462                -0.15387556             
100          0.32903633               -0.17022274              0.26113999               0.10612091               0.3347801                -0.18430218              -0.41961613              -0.081142776            
             0.26017892               0.10585341               0.17245705               -0.074024931             -0.42010579              -0.069257587             0.17771944               -0.083551109            
             0.33722895               -0.1788806               -0.41696838              -0.063940406             0.32526445               -0.17455098              0.2598699                0.10879218              
             -0.41799799              -0.077247679             0.17730241               -0.080439009             0.25972283               0.10849793               0.16685535               -0.070491128            
110          0.31108564               -0.23663472              -0.21028174              -0.15719615              0.32375839               -0.25088373              0.35072464               0.25238645              
             -0.20881338              -0.15488303              0.18516235               -0.047446426             0.35866997               0.24002507               0.19617423               -0.05441004             
             0.3244611                -0.23986031              0.35901272               0.23156461               0.31067926               -0.24702232              -0.20883407              -0.15618379             
             0.35192007               0.24582441               0.19251704               -0.048372313             -0.2090214               -0.15674406              0.18397275               -0.043895509            
120          0.27350089               -0.30273503              0.14777221               0.19019355               0.27690837               -0.30731082              -0.23817231              -0.37566379             
             0.14543316               0.19055122               0.17814262               0.0033254831             -0.25149161              -0.36745772              0.18624064               -0.00086263975          
             0.29040366               -0.30376074              -0.24422951              -0.36176026              0.25965014               -0.30583531              0.13733755               0.19458003              
             -0.23317109              -0.37053347              0.18668304               0.0057690921             0.13716066               0.19369787               0.16484156               0.0040544057            
130          0.2166435                -0.32047343              -0.053101052             -0.20410506              0.22885855               -0.31425494              0.10423171               0.44355327              
             -0.052910432             -0.20471302              0.1399671                0.029261153              0.12200519               0.43968701               0.15139557               0.030683998             
             0.2314468                -0.31893602              0.11831085               0.43910289               0.2131561                -0.31431779              -0.046033587             -0.21221893             
             0.1011453                0.44271377               0.1495229                0.036087494              -0.045090966             -0.21158665              0.12881836               0.02450465              
140          0.16939929               -0.33296108              -0.037369844             0.19808061               0.18297565               -0.32225254              0.045064669              -0.45068902             
             -0.037357491             0.19897479               0.086677596              0.037762739              0.024606949              -0.45394537              0.094981089              0.040264361             
             0.18312757               -0.32407245              0.025103755              -0.45393375              0.16946915               -0.3284868               -0.044044122             0.20644423              
             0.045543034              -0.45132637              0.092382312              0.043803833              -0.044646796             0.20485111               0.073891975              0.029931568             
150          0.12637502               -0.32821935              0.12105586               -0.14119931              0.13487682               -0.31868362              -0.18208311              0.42790335              
             0.1208705                -0.14193511              0.052114934              0.017177979              -0.16214673              0.43768436               0.060374387              0.018143972             
             0.13428515               -0.31947875              -0.16163747              0.43745676               0.12439264               -0.32658356              0.12737566               -0.14828981             
             -0.18268688              0.42854261               0.056502521              0.022501627              0.12722231               -0.14663915              0.048609454              0.0055932249            
160          0.088243105              -0.31336001              -0.16913766              0.067922145              0.093829498              -0.30743116              0.30949083               -0.35076457             
             -0.16881429              0.068785943              0.027975412              -0.0073208618            0.29104877               -0.36838719              0.030773401              -0.0097254328           
             0.093438603              -0.30850241              0.2909703                -0.36790377              0.088123791              -0.31090623              -0.17628396              0.073462613             
             0.31019664               -0.35130191              0.026634168              -0.0060207332            -0.17603487              0.071291767              0.026804285              -0.022116562            
170          0.04465282               -0.25850219              0.19023302               0.031060642              0.052502304              -0.25673845              -0.39863715              0.24958217              
             0.19044143               0.030026576              0.027112653              -0.043752413             -0.38475013              0.27429691               0.024129948              -0.047428317            
             0.051734205              -0.25724021              -0.38449156              0.27456489               0.047711778              -0.25140622              0.19725092               0.027628956             
             -0.39954212              0.25011072               0.019890586              -0.044297569             0.19613756               0.029730599              0.023338579              -0.055236932            
180          0.035161838              -0.23839395              -0.1697681               -0.10295398              0.037631299              -0.24519178              0.45061091               -0.099009797            
             -0.16995032              -0.10233745              0.01299637               -0.071916319             0.44165891               -0.12795064              0.027713295              -0.077749304            
             0.036632612              -0.24569397              0.44194305               -0.12799892              0.041737273              -0.24433801              -0.17875443              -0.10117488             
             0.4511483                -0.099236362             0.024246477              -0.075229466             -0.1776832               -0.10298749              0.023178717              -0.075679049            
190          0.04002839               -0.16954336              0.1445653                0.19189702               0.046579737              -0.18430863              -0.42876643              -0.031881724            
             0.14501554               0.19103277               0.048688415              -0.085816108             -0.4281747               -0.00077330088           0.057581689              -0.093113907            
             0.045731321              -0.18116036              -0.42763153              0.0014212885             0.037343431              -0.18241964              0.15165342               0.18819021              
             -0.42935672              -0.03002888              0.054443631              -0.089102738             0.14928758               0.18979889               0.050028779              -0.081384815            
200          0.028239928              -0.14994694              -0.068792559             -0.25252068              0.035353199              -0.15272135              0.38532588               0.15208653              
             -0.069710545             -0.25286797              0.061799988              -0.084060244             0.39498892               0.12105766               0.070936151              -0.08828336             
             0.038758233              -0.15321766              0.39264193               0.12133229               0.023856798              -0.15007943              -0.073172465             -0.25422353             
             0.38448864               0.15249248               0.069128901              -0.086172268             -0.070285514             -0.25444916              0.062087379              -0.081661604            
210          -0.0052291704            -0.15978621              -0.034166861             0.25825483               0.0055827019             -0.15991764              -0.30910775              -0.27467996             
             -0.032929871             0.25834054               0.071714222              -0.092042029             -0.3288551               -0.2471763               0.08094687               -0.091019273            
             0.0054009394             -0.15974584              -0.32871974              -0.24706851              -0.0067158034            -0.16040942              -0.028195102             0.26029542              
             -0.30963299              -0.274544                0.078907907              -0.087804981             -0.030259937             0.2604472                0.068271495              -0.088557974            
220          -0.0079327272            -0.11663362              0.13396852               -0.25450307              0.007210887              -0.11209895              0.20077233               0.33660743              
             0.1329371                -0.25451913              0.073912412              -0.083430156             0.22976999               0.31394809               0.08301837               -0.077238865            
             0.0070800632             -0.11190196              0.22960919               0.31368446               -0.0026559096            -0.11458375              0.12917025               -0.25618878             
             0.20170569               0.33593923               0.081084281              -0.073501989             0.13156702               -0.25603256              0.070729412              -0.075659521            
230          0.028680673              -0.10544552              -0.22324339              0.21000662               0.039726004              -0.10360615              -0.079407893             -0.36043671             
             -0.22241667              0.21047243               0.062788181              -0.078012258             -0.11318551              -0.34717852              0.072107375              -0.068547681            
             0.04070434               -0.10400205              -0.11277268              -0.34676161              0.027569471              -0.10265516              -0.22065751              0.21123728              
