!Agilent Technologies,M9370A,MY54322275,A.02.50.04
!Agilent M9370A: A.02.50.04
!Date: Monday, April 02, 2018 17:28:27
!Correction: S11(Full 8 Port(1,2,3,4,5,6,7,8)) 
!S12(Full 8 Port(1,2,3,4,5,6,7,8)) 
!S13(Full 8 Port(1,2,3,4,5,6,7,8)) 
!S14(Full 8 Port(1,2,3,4,5,6,7,8)) 
!S15(Full 8 Port(1,2,3,4,5,6,7,8)) 
!S16(Full 8 Port(1,2,3,4,5,6,7,8)) 
!S17(Full 8 Port(1,2,3,4,5,6,7,8)) 
!S18(Full 8 Port(1,2,3,4,5,6,7,8)) 
!S21(Full 8 Port(1,2,3,4,5,6,7,8)) 
!S22(Full 8 Port(1,2,3,4,5,6,7,8)) 
!S23(Full 8 Port(1,2,3,4,5,6,7,8)) 
!S24(Full 8 Port(1,2,3,4,5,6,7,8)) 
!S25(Full 8 Port(1,2,3,4,5,6,7,8)) 
!S26(Full 8 Port(1,2,3,4,5,6,7,8)) 
!S27(Full 8 Port(1,2,3,4,5,6,7,8)) 
!S28(Full 8 Port(1,2,3,4,5,6,7,8)) 
!S31(Full 8 Port(1,2,3,4,5,6,7,8)) 
!S32(Full 8 Port(1,2,3,4,5,6,7,8)) 
!S33(Full 8 Port(1,2,3,4,5,6,7,8)) 
!S34(Full 8 Port(1,2,3,4,5,6,7,8)) 
!S35(Full 8 Port(1,2,3,4,5,6,7,8)) 
!S36(Full 8 Port(1,2,3,4,5,6,7,8)) 
!S37(Full 8 Port(1,2,3,4,5,6,7,8)) 
!S38(Full 8 Port(1,2,3,4,5,6,7,8)) 
!S41(Full 8 Port(1,2,3,4,5,6,7,8)) 
!S42(Full 8 Port(1,2,3,4,5,6,7,8)) 
!S43(Full 8 Port(1,2,3,4,5,6,7,8)) 
!S44(Full 8 Port(1,2,3,4,5,6,7,8)) 
!S45(Full 8 Port(1,2,3,4,5,6,7,8)) 
!S46(Full 8 Port(1,2,3,4,5,6,7,8)) 
!S47(Full 8 Port(1,2,3,4,5,6,7,8)) 
!S48(Full 8 Port(1,2,3,4,5,6,7,8)) 
!S51(Full 8 Port(1,2,3,4,5,6,7,8)) 
!S52(Full 8 Port(1,2,3,4,5,6,7,8)) 
!S53(Full 8 Port(1,2,3,4,5,6,7,8)) 
!S54(Full 8 Port(1,2,3,4,5,6,7,8)) 
!S55(Full 8 Port(1,2,3,4,5,6,7,8)) 
!S56(Full 8 Port(1,2,3,4,5,6,7,8)) 
!S57(Full 8 Port(1,2,3,4,5,6,7,8)) 
!S58(Full 8 Port(1,2,3,4,5,6,7,8)) 
!S61(Full 8 Port(1,2,3,4,5,6,7,8)) 
!S62(Full 8 Port(1,2,3,4,5,6,7,8)) 
!S63(Full 8 Port(1,2,3,4,5,6,7,8)) 
!S64(Full 8 Port(1,2,3,4,5,6,7,8)) 
!S65(Full 8 Port(1,2,3,4,5,6,7,8)) 
!S66(Full 8 Port(1,2,3,4,5,6,7,8)) 
!S67(Full 8 Port(1,2,3,4,5,6,7,8)) 
!S68(Full 8 Port(1,2,3,4,5,6,7,8)) 
!S71(Full 8 Port(1,2,3,4,5,6,7,8)) 
!S72(Full 8 Port(1,2,3,4,5,6,7,8)) 
!S73(Full 8 Port(1,2,3,4,5,6,7,8)) 
!S74(Full 8 Port(1,2,3,4,5,6,7,8)) 
!S75(Full 8 Port(1,2,3,4,5,6,7,8)) 
!S76(Full 8 Port(1,2,3,4,5,6,7,8)) 
!S77(Full 8 Port(1,2,3,4,5,6,7,8)) 
!S78(Full 8 Port(1,2,3,4,5,6,7,8)) 
!S81(Full 8 Port(1,2,3,4,5,6,7,8)) 
!S82(Full 8 Port(1,2,3,4,5,6,7,8)) 
!S83(Full 8 Port(1,2,3,4,5,6,7,8)) 
!S84(Full 8 Port(1,2,3,4,5,6,7,8)) 
!S85(Full 8 Port(1,2,3,4,5,6,7,8)) 
!S86(Full 8 Port(1,2,3,4,5,6,7,8)) 
!S87(Full 8 Port(1,2,3,4,5,6,7,8)) 
!S88(Full 8 Port(1,2,3,4,5,6,7,8)) 
!S8P File: Measurements: <S11,S12,S13,S14,S15,S16,S17,S18>,
!<S21,S22,S23,S24,S25,S26,S27,S28>,
!<S31,S32,S33,S34,S35,S36,S37,S38>,
!<S41,S42,S43,S44,S45,S46,S47,S48>,
!<S51,S52,S53,S54,S55,S56,S57,S58>,
!<S61,S62,S63,S64,S65,S66,S67,S68>,
!<S71,S72,S73,S74,S75,S76,S77,S78>,
!<S81,S82,S83,S84,S85,S86,S87,S88>:
!
!Created with skrf (http://scikit-rf.org).
# Hz S RI R 100.0 
!freq
! ReS14 ImS14
! ReS18 ImS18
!
! ReS24 ImS24
! ReS28 ImS28
!
! ReS34 ImS34
! ReS38 ImS38
!
! ReS44 ImS44
! ReS48 ImS48
!
! ReS54 ImS54
! ReS58 ImS58
!
! ReS64 ImS64
! ReS68 ImS68
!
! ReS74 ImS74
! ReS78 ImS78
!
! ReS84 ImS84
! ReS88 ImS88
!
300000.0 0.9996858271750002 -0.015516603149999997 2.236323999999999e-06 -6.713579999999945e-06 8.492854999999996e-07 -8.501324000000001e-05 -2.1568950000000257e-07 1.6878000000000247e-06
 -0.00010007983500002304 0.00010348614999999831 -2.5333650000000003e-06 -3.042564000000007e-05 1.0120025000000004e-06 5.6358599999999994e-06 -3.5746764999999993e-06 -4.50189999999995e-06
 -3.4673375000000007e-06 -3.5649550000000593e-06 0.9996828564150001 -0.014860132699999997 -2.2601559999999988e-06 -3.953017999999997e-05 -1.432300350000001e-06 -2.5694049999999867e-06
 1.3797815000000003e-06 -2.4107784999999982e-05 -2.6871045000036853e-05 8.892820000000072e-05 -6.047650000000005e-07 -4.293881999999994e-05 3.575858749999999e-06 -1.0053215000000008e-05
 -2.8916435e-06 -8.300350500000002e-05 -1.4585259999999978e-06 -3.906737499999998e-05 0.9996302227700002 -0.015173928049999997 -9.498000000001529e-09 -3.727888499999992e-05
 2.0106865000000002e-06 -9.660755000000016e-06 2.4974879999999986e-06 5.7506985000000084e-05 -4.7019419999969894e-05 0.00019192244999999974 -2.0182569999999993e-06 -0.00010138855499999992
 -2.3558750000000293e-07 4.702650000000061e-06 -1.1959040000000002e-06 -9.651450000000867e-07 -3.3705395000000033e-06 -3.618926000000003e-05 0.9996096670600001 -0.01481344665
 3.2328364999999996e-06 -7.947950000000024e-06 -1.3873239999999994e-06 -3.7763384999999957e-05 1.5336285000000024e-06 4.709039999999994e-06 -0.00010538382999989454 6.895874999999916e-05
 -0.0001025201650000207 0.00010376084999999748 -5.281898e-06 -1.454262999999975e-05 -1.614348500000001e-06 -7.5164399999999746e-06 -1.3561050000000164e-07 2.0147000000001567e-06
 0.9999588728250002 -0.006213107849999998 3.7588524999999996e-05 0.0018485536299999998 4.8782868499999994e-05 0.0019789120599999995 3.46976785e-05 0.0020437893999999996
 -1.0588995000000024e-06 -2.853191499999971e-05 -6.0268954999979514e-05 0.00013509479999999823 -2.8333499999999716e-07 6.763152999999963e-05 -3.306166500000026e-07 -3.2149775000000136e-05
 4.1243121499999994e-05 0.0018430181349999998 0.9999301835850002 -0.005667120299999998 4.4006675999999994e-05 0.00201737047 2.083300225e-05 0.001437361355
 2.4511385000000034e-06 3.900645000000369e-06 -3.843623999999999e-06 -3.714442499999996e-05 -6.646057999999483e-05 0.00022816354999999943 -8.676969999999979e-07 1.6378315000000057e-05
 4.7456894500000005e-05 0.0019787750949999995 4.1081801999999996e-05 0.0020253450149999995 0.9998631372300001 -0.00634258395 3.4150003999999994e-05 0.002006975645
 1.6012450000000008e-07 -6.139549999999856e-06 -4.220117999999988e-06 -2.7178349999998987e-06 -4.882548500000003e-06 -8.998936999999947e-05 -0.00012242616999993334 0.00010148324999999886
 4.8851680499999995e-05 0.0020233868499999995 3.175102999999999e-05 0.001425132445 4.50303695e-05 0.0019871507299999997 0.99984018294 -0.0058253353499999995
1300700.7007007 0.9974003513600002 -0.070938293 -5.051839499999994e-06 -2.9467750000000128e-05 -2.343131099999998e-05 -0.0003784592000000003 1.8845570000000057e-06 1.91186499999998e-05
 -9.38030399999997e-05 0.00013563399999999735 -7.359503500000004e-06 -0.00010279214999999962 4.575333000000009e-06 5.8241200000000035e-05 -4.700740000000013e-07 1.5041349999999596e-05
 1.0277300000000223e-07 -2.5777850000000104e-05 0.997595940905 -0.067457387 -1.309416199999999e-05 -0.00018598279999999988 -1.0924250000000065e-06 -3.564299999999875e-06
 -5.425885999999998e-06 -7.565015000000009e-05 -1.8722915000108672e-05 0.0003961339999999982 -7.765257999999995e-06 -0.0001712982 -4.4864999999995565e-08 -2.407179999999957e-05
 -2.2990783499999988e-05 -0.0003796546000000001 -8.780813999999997e-06 -0.00018332715000000022 0.9972968474500001 -0.06971337400000001 -9.7989845e-06 -0.0001686219999999996
 9.665628499999994e-06 3.0950599999999636e-05 2.6923627999999987e-05 0.0003421865499999997 -0.00014282725000003822 0.00010346699999999426 -9.989651500000003e-06 -0.00037878750000000023
 3.2959579999999957e-06 1.9263200000000426e-05 -2.7693549999999574e-07 -3.580700000000204e-06 -1.1642987000000003e-05 -0.0001641383500000004 0.9974981853550001 -0.0673766955
 5.628099999999873e-07 -1.273699999999972e-05 -8.442895499999993e-06 -0.00016383290000000008 -5.005059999999944e-07 4.3878050000000074e-05 -7.825414499994909e-05 0.0002988504999999989
 -9.538695999997662e-05 0.00011461599999999585 -5.905781500000014e-06 -7.566645000000094e-05 7.064613000000062e-06 3.4975299999999265e-05 -8.071759999999377e-07 6.919749999998887e-06
 0.99940173864 -0.028481352999999994 0.00015923254649999997 0.008416742349999999 0.00020611686899999992 0.0090624243 0.00018806755899999992 0.00927247485
 -5.877686000000004e-06 -0.00010389994999999995 -2.9737085000111316e-05 0.0003793849999999947 2.4544419999999962e-05 0.00035071469999999885 -1.1144003999999995e-05 -0.0001539444999999995
 0.00015226122899999995 0.00841167595 0.9994610790950001 -0.025889547999999995 0.00019908185999999997 0.0092342845 8.628047599999998e-05 0.006505054999999999
 3.0990785000000703e-06 5.750219999999918e-05 -9.72618599999995e-06 -0.00016602735000000027 -0.00015477275000001363 0.00011690999999999697 -8.517144999999315e-07 6.347710000000004e-05
 0.00020363588649999992 0.0090550962 0.00019662363199999993 0.00922787515 0.9992267125500001 -0.029220676999999997 0.00019069075849999993 0.0091356714
 4.044297000000046e-06 1.2539099999998906e-05 -1.9875604999999743e-06 -2.461129999999964e-05 -1.2941577999999993e-05 -0.00037211804999999915 -8.994585499991983e-05 0.0003257504999999931
 0.0001901010909999999 0.0092607865 8.829853149999996e-05 0.0064978284999999995 0.00019131720099999997 0.009124473949999998 0.9993245346449999 -0.026696037499999995
2301401.4014014 0.99209674005 -0.12528148849999998 -9.05197999999999e-06 -4.7218100000000475e-05 -7.538803499999997e-05 -0.0006679363999999994 7.4886349999999836e-06 3.203935000000032e-05
 -7.857945000005413e-05 0.0002400404999999925 -2.1580150000000004e-05 -0.00017418759999999998 5.378414999999978e-06 0.00010524020000000162 -4.25607500000004e-06 2.6790450000000105e-05
 -4.549244999999997e-06 -4.646855000000003e-05 0.9927892188000002 -0.11918804099999998 -3.5497904999999985e-05 -0.0003240085500000003 -1.9956949999999994e-06 -8.82705000000002e-06
 -8.939374999999979e-06 -0.00013310995000000034 4.098479999997892e-05 0.0006963720000000013 -2.2399974999999984e-05 -0.00029646465000000025 2.135350000000054e-07 -4.021174999999989e-05
 -7.538289499999997e-05 -0.0006670968000000004 -3.771988e-05 -0.0003220625000000012 0.99223116865 -0.12330765249999998 -3.2386319999999966e-05 -0.0002973247500000002
 9.847484999999986e-06 6.515039999999932e-05 5.866546999999999e-05 0.0006194449999999993 -6.88351499999902e-05 3.604949999999524e-05 -5.572353999999999e-05 -0.0006526606499999995
 5.523020000000002e-06 3.342839999999921e-05 -1.1235499999998922e-07 -8.588250000000095e-06 -3.077856499999995e-05 -0.00029483715000000037 0.9927162803500001 -0.11903087999999999
 -6.40241999999999e-06 -1.3151699999998992e-05 -3.002921499999998e-05 -0.00028558165000000036 3.7924150000000064e-06 8.378645000000048e-05 -3.1563049999919206e-05 0.0005275330000000039
 -6.578054999997407e-05 0.0002119034999999898 -1.384150999999985e-05 -0.00013326620000000033 4.578645000000014e-06 7.675380000000159e-05 -7.288744999999909e-06 9.372849999999205e-06
 0.99812379995 -0.0503893515 0.0004479751199999998 0.014899021899999998 0.0005556770149999998 0.016037525399999995 0.0005360113449999998 0.01641122435
 -1.4898144999999887e-05 -0.00018311035000000028 -7.904800000002876e-06 0.0006749069999999939 5.600859500000003e-05 0.0006376621499999968 -3.129463499999995e-05 -0.00026866745000000004
 0.0004366703249999998 0.01489153525 0.9983960212000001 -0.04583349799999999 0.0005475131049999998 0.01634988145 0.00024157521499999993 0.01151837085
 1.1444615000000003e-05 9.688150000000109e-05 -2.9161559999999965e-05 -0.00029744769999999894 -9.102485000001452e-05 6.609849999998905e-05 -1.6350599999999538e-06 0.00011027885
 0.0005356568349999998 0.016021671899999996 0.0005357602699999998 0.016336973799999998 0.99789567135 -0.05176826549999999 0.0005174123999999998 0.016166662749999998
 3.884010000000017e-06 1.9421300000000034e-05 -4.393565000000021e-06 -4.450514999999837e-05 -6.147780500000002e-05 -0.0006390651499999982 -7.489694999990907e-05 0.000571904999999984
 0.0005368849499999998 0.0163903558 0.0002511833149999999 0.011509265250000001 0.0005372272149999999 0.016158641249999998 0.9982073596500001 -0.04724985199999999
3302102.1021021 0.9839524627000001 -0.17927554850000002 -1.1830224999999997e-05 -6.768750000000022e-05 -0.000159162765 -0.0009554159999999993 8.78202e-06 4.956600000000026e-05
 -3.878629999998644e-05 0.00033119950000000793 -4.2234185e-05 -0.00024681149999999924 1.5572814999999934e-05 0.00015304499999999996 -2.3529299999999796e-06 4.2337000000000466e-05
 -1.2306454999999942e-05 -6.75414999999998e-05 0.9854036188500002 -0.1706021235 -7.41502e-05 -0.0004603059999999988 -2.693495000000001e-06 -1.023009999999931e-05
 -1.0653354999999985e-05 -0.000189092500000001 0.00016915054999997578 0.0009913785000000054 -3.826618999999999e-05 -0.0004268690000000004 9.018085000000005e-06 -5.9171099999999654e-05
 -0.00015626908999999992 -0.0009517854999999987 -7.695878999999998e-05 -0.00045763199999999975 0.9843378052999998 -0.176482111 -6.550744499999996e-05 -0.0004231424999999995
 1.2127390000000037e-05 9.437250000000047e-05 0.00011035581999999999 0.0008818070000000006 -8.486060000007214e-05 3.637100000001023e-05 -0.00011808863499999998 -0.0009279845000000012
 8.19636500000002e-06 4.639150000000079e-05 -1.7049849999999797e-06 -1.017184999999975e-05 -7.036908499999998e-05 -0.00041740199999999863 0.985357437 -0.170378826
 -3.3443550000000126e-06 -1.580149999999847e-05 -5.342241500000002e-05 -0.0003994097500000002 1.589908500000003e-05 0.0001331629999999996 7.025520000005768e-05 0.0007585159999999908
 -2.3023699999885133e-05 0.00028413050000000646 -3.3598604999999764e-05 -0.00019115949999999956 1.4124035000000145e-05 0.00010885000000000113 -1.4541669999999927e-05 1.2902000000001568e-05
 0.9961359473000001 -0.0722347215 0.0008870195749999996 0.0214026545 0.0010786325749999996 0.023022865 0.0010566452399999996 0.023568841
 -3.153025499999983e-05 -0.00025945549999999834 3.72594500000172e-05 0.0009759415000000199 0.00011076835000000011 0.0009049150000000045 -6.262804499999995e-05 -0.00038339430000000185
 0.0008665301849999997 0.021389403499999998 0.9967241111500001 -0.0657174765 0.0010838278799999996 0.023475451999999994 0.00047142709499999985 0.0165555771
 2.272723999999998e-05 0.0001380085000000013 -6.066407999999985e-05 -0.0004260089999999999 -0.00010289940000001594 9.062900000001559e-05 3.794450000001974e-07 0.00015864449999999767
 0.0010268617999999996 0.0229945825 0.0010473364099999995 0.023454893999999997 0.9957429147 -0.074214529 0.0010100556949999995 0.023210184499999998
 4.097965000000011e-06 3.135850000000107e-05 -1.0527925000000028e-05 -6.012334999999864e-05 -0.00011925386499999975 -0.0009106429999999982 -3.1805199999997396e-05 0.0008153640000000112
 0.0010700942049999996 0.023538213500000002 0.0004895651249999999 0.016545630949999997 0.0010668531849999997 0.023202402 0.9964494929999999 -0.06775851399999999
4302802.8028028 0.9729950530000001 -0.23284697949999994 -2.0479870000000073e-05 -8.957650000000051e-05 -0.0002759716499999998 -0.0012367774999999998 1.4885970000000074e-05 6.176850000000092e-05
 1.573499999996969e-05 0.0004239304999999903 -6.261756e-05 -0.0003161404999999998 2.681437999999992e-05 0.00019435149999999838 1.960490000000102e-06 5.464650000000001e-05
 -2.111716000000008e-05 -9.018649999999943e-05 0.9754890087500001 -0.22164468749999996 -0.0001251614599999999 -0.0005980310000000009 -5.604804999999977e-06 -1.1740500000000036e-05
 -9.9042699999999e-06 -0.0002455715000000002 0.0003591755500000213 0.0012474204999999906 -5.797731000000001e-05 -0.0005560249999999996 1.692933499999999e-05 -7.996549999999996e-05
 -0.00026807663 -0.0012370184999999998 -0.0001259923549999999 -0.0005945995000000019 0.9737983718500001 -0.22929856449999994 -0.00011044362000000002 -0.0005471740000000001
 1.530322999999997e-05 0.0001286875000000006 0.0001755093849999999 0.0011496075000000001 -8.956625000010025e-05 7.788049999997749e-05 -0.00020302960000000004 -0.0011941979999999996
 1.1608705000000012e-05 5.943450000000022e-05 -7.114179999999993e-06 -1.0710999999998434e-05 -0.00011900455499999994 -0.0005417444999999991 0.97548473615 -0.22136084249999996
 1.6403550000000204e-06 -1.2481499999999149e-05 -7.791110999999997e-05 -0.0005126659999999994 3.307700499999995e-05 0.00017871749999999882 0.00022415785000011286 0.0009527424999999983
 1.823499999992032e-05 0.00035612949999999736 -5.31284899999995e-05 -0.0002446484999999976 2.038778000000006e-05 0.00013898750000000185 -2.4698559999999754e-05 1.58645000000043e-05
 0.9933857770000001 -0.09397142049999997 0.0014610786199999995 0.0279487735 0.0017692261499999994 0.030054742499999995 0.0017431727599999992 0.030772438499999995
 -5.7610039999999494e-05 -0.0003334964999999965 0.00010728444999992027 0.0012694595000000031 0.00018793854000000013 0.0011678219999999972 -0.0001021682549999999 -0.0004935395000000021
 0.0014282116299999992 0.027934950499999996 0.9944343712500001 -0.0854951325 0.0017915882899999995 0.030639739999999995 0.0007636136849999998 0.0216334275
 3.279836000000018e-05 0.00017390550000000106 -0.0001029928249999997 -0.0005560914999999966 -8.287375000015972e-05 0.00010216949999996124 2.1180000000003925e-06 0.00021183899999999516
 0.0016384076199999994 0.030039571499999997 0.0016874002349999994 0.030637071499999998 0.99277790815 -0.09646186549999998 0.0016261188999999996 0.030320971000000002
 6.9497650000004684e-06 3.529749999999848e-05 -1.5341199999999903e-05 -8.0370999999999e-05 -0.00020070715499999987 -0.0011782874999999964 1.3432150000138613e-05 0.001044057499999988
 0.0017657137349999991 0.030737483500000003 0.00079714625 0.021619798 0.0017643560849999996 0.030296140499999995 0.99403821385 -0.08814955749999999
5303503.5035035 0.9593116175 -0.28595969849999997 -3.282302000000003e-05 -0.00010681450000000181 -0.0004194583999999998 -0.0015130734999999984 2.2202199999999958e-05 7.364999999999881e-05
 5.097449999997409e-05 0.0004799314999999917 -8.523821999999997e-05 -0.0003861444999999995 4.5393000000000004e-05 0.00022935349999999893 4.3453000000000344e-06 6.560500000000144e-05
 -3.3108089999999995e-05 -0.00010675649999999673 0.9630830085000001 -0.2723240085 -0.00018891609999999994 -0.0007285714999999999 -7.2398550000000256e-06 -1.2300499999999224e-05
 6.997609999999941e-06 -0.0003261145000000012 0.0006069764999998682 0.001404287500000014 -5.929830000000006e-05 -0.0007081144999999999 4.759111499999997e-05 -0.00010879749999999914
 -0.0004084515499999998 -0.0015154195000000004 -0.00019128339999999994 -0.0007270465000000011 0.9606411494999999 -0.28181101699999994 -0.00017026548499999983 -0.0006701679999999997
 1.1256849999999973e-05 0.00018743850000000196 0.0002521683000000001 0.0014471464999999992 -0.00010339550000005676 0.00017169800000000707 -0.000308457585 -0.0014339469999999999
 2.048594999999999e-05 7.121299999999882e-05 -4.716624999999944e-06 -1.0795999999999563e-05 -0.000177111 -0.0006650255000000014 0.9630571134999999 -0.2719494185
 1.2487750000000045e-05 -2.3322000000002827e-05 -0.00011654675500000006 -0.0006268949999999993 6.329699999999999e-05 0.00022360350000000134 0.00037026250000006696 0.0011290054999999733
 1.3155500000013683e-05 0.00042771849999998597 -8.215272000000024e-05 -0.0002977034999999959 3.196500000000012e-05 0.0001632595000000045 -4.4975800000000146e-05 1.8998000000001826e-05
 0.9898379925 -0.11555191149999998 0.0021608316799999997 0.03458561249999999 0.002597625399999999 0.03717057249999999 0.0025733252999999992 0.038062595
 -7.952838999999958e-05 -0.0004080734999999987 0.0001116134999999285 0.00158102249999998 0.00027568089999999997 0.0014252814999999985 -0.00015454944499999982 -0.0006038754999999962
 0.002105065509999999 0.03457230449999999 0.9914386415 -0.10514072149999998 0.002642833499999999 0.037898356499999994 0.0011107415049999997 0.026795417499999995
 4.90323499999997e-05 0.0002089634999999958 -0.00015514460000000025 -0.0006806734999999996 -7.274449999999199e-05 7.910199999997902e-05 -2.120885000000242e-06 0.0002671679999999966
 0.0023665853499999995 0.0372349315 0.0024469572999999993 0.03797296949999999 0.9889348104999999 -0.11842160299999997 0.0023577466149999993 0.037580735
 1.1237950000000112e-05 4.1332000000006244e-05 -2.6567205000000135e-05 -9.431100000000245e-05 -0.0003024345999999995 -0.0014435034999999961 2.121750000002893e-05 0.0012802744999999849
