!Keysight Technologies,M9370A,MY54322275,A.12.60.03
!Date: Friday, March 06, 2020 14:08:48
!Correction: S11(Full 8 Port(1,2,3,4,5,6,7,8)) 
!S12(Full 8 Port(1,2,3,4,5,6,7,8)) 
!S13(Full 8 Port(1,2,3,4,5,6,7,8)) 
!S14(Full 8 Port(1,2,3,4,5,6,7,8)) 
!S15(Full 8 Port(1,2,3,4,5,6,7,8)) 
!S16(Full 8 Port(1,2,3,4,5,6,7,8)) 
!S17(Full 8 Port(1,2,3,4,5,6,7,8)) 
!S18(Full 8 Port(1,2,3,4,5,6,7,8)) 
!S21(Full 8 Port(1,2,3,4,5,6,7,8)) 
!S22(Full 8 Port(1,2,3,4,5,6,7,8)) 
!S23(Full 8 Port(1,2,3,4,5,6,7,8)) 
!S24(Full 8 Port(1,2,3,4,5,6,7,8)) 
!S25(Full 8 Port(1,2,3,4,5,6,7,8)) 
!S26(Full 8 Port(1,2,3,4,5,6,7,8)) 
!S27(Full 8 Port(1,2,3,4,5,6,7,8)) 
!S28(Full 8 Port(1,2,3,4,5,6,7,8)) 
!S31(Full 8 Port(1,2,3,4,5,6,7,8)) 
!S32(Full 8 Port(1,2,3,4,5,6,7,8)) 
!S33(Full 8 Port(1,2,3,4,5,6,7,8)) 
!S34(Full 8 Port(1,2,3,4,5,6,7,8)) 
!S35(Full 8 Port(1,2,3,4,5,6,7,8)) 
!S36(Full 8 Port(1,2,3,4,5,6,7,8)) 
!S37(Full 8 Port(1,2,3,4,5,6,7,8)) 
!S38(Full 8 Port(1,2,3,4,5,6,7,8)) 
!S41(Full 8 Port(1,2,3,4,5,6,7,8)) 
!S42(Full 8 Port(1,2,3,4,5,6,7,8)) 
!S43(Full 8 Port(1,2,3,4,5,6,7,8)) 
!S44(Full 8 Port(1,2,3,4,5,6,7,8)) 
!S45(Full 8 Port(1,2,3,4,5,6,7,8)) 
!S46(Full 8 Port(1,2,3,4,5,6,7,8)) 
!S47(Full 8 Port(1,2,3,4,5,6,7,8)) 
!S48(Full 8 Port(1,2,3,4,5,6,7,8)) 
!S51(Full 8 Port(1,2,3,4,5,6,7,8)) 
!S52(Full 8 Port(1,2,3,4,5,6,7,8)) 
!S53(Full 8 Port(1,2,3,4,5,6,7,8)) 
!S54(Full 8 Port(1,2,3,4,5,6,7,8)) 
!S55(Full 8 Port(1,2,3,4,5,6,7,8)) 
!S56(Full 8 Port(1,2,3,4,5,6,7,8)) 
!S57(Full 8 Port(1,2,3,4,5,6,7,8)) 
!S58(Full 8 Port(1,2,3,4,5,6,7,8)) 
!S61(Full 8 Port(1,2,3,4,5,6,7,8)) 
!S62(Full 8 Port(1,2,3,4,5,6,7,8)) 
!S63(Full 8 Port(1,2,3,4,5,6,7,8)) 
!S64(Full 8 Port(1,2,3,4,5,6,7,8)) 
!S65(Full 8 Port(1,2,3,4,5,6,7,8)) 
!S66(Full 8 Port(1,2,3,4,5,6,7,8)) 
!S67(Full 8 Port(1,2,3,4,5,6,7,8)) 
!S68(Full 8 Port(1,2,3,4,5,6,7,8)) 
!S71(Full 8 Port(1,2,3,4,5,6,7,8)) 
!S72(Full 8 Port(1,2,3,4,5,6,7,8)) 
!S73(Full 8 Port(1,2,3,4,5,6,7,8)) 
!S74(Full 8 Port(1,2,3,4,5,6,7,8)) 
!S75(Full 8 Port(1,2,3,4,5,6,7,8)) 
!S76(Full 8 Port(1,2,3,4,5,6,7,8)) 
!S77(Full 8 Port(1,2,3,4,5,6,7,8)) 
!S78(Full 8 Port(1,2,3,4,5,6,7,8)) 
!S81(Full 8 Port(1,2,3,4,5,6,7,8)) 
!S82(Full 8 Port(1,2,3,4,5,6,7,8)) 
!S83(Full 8 Port(1,2,3,4,5,6,7,8)) 
!S84(Full 8 Port(1,2,3,4,5,6,7,8)) 
!S85(Full 8 Port(1,2,3,4,5,6,7,8)) 
!S86(Full 8 Port(1,2,3,4,5,6,7,8)) 
!S87(Full 8 Port(1,2,3,4,5,6,7,8)) 
!S88(Full 8 Port(1,2,3,4,5,6,7,8)) 
!S8P File: Measurements: <S11,S12,S13,S14,S15,S16,S17,S18>,
!<S21,S22,S23,S24,S25,S26,S27,S28>,
!<S31,S32,S33,S34,S35,S36,S37,S38>,
!<S41,S42,S43,S44,S45,S46,S47,S48>,
!<S51,S52,S53,S54,S55,S56,S57,S58>,
!<S61,S62,S63,S64,S65,S66,S67,S68>,
!<S71,S72,S73,S74,S75,S76,S77,S78>,
!<S81,S82,S83,S84,S85,S86,S87,S88>:
# Hz S  RI   R 50
10000000 0.99608666 -0.048633754 3.2993285e-005 -2.0105481e-005 -3.6083322e-005 -1.3515913e-005 -2.3703085e-005 4.4717472e-005
-5.1121406e-006 -5.6141991e-005 5.2606811e-005 1.6923117e-005 4.0570616e-005 1.7006942e-005 -4.9096707e-005 -1.2254407e-005
1.70684e-005 2.8796227e-005 0.99619114 0.019793946 -1.3468559e-005 -5.2713899e-006 1.0104685e-005 4.0603545e-006
-2.6101128e-005 -7.9172678e-006 3.4717058e-007 -5.403404e-006 -1.2792772e-005 7.6529186e-006 -6.8291656e-006 -4.1619109e-007
3.6822687e-005 -1.6253856e-005 2.6073665e-005 -2.5806658e-005 0.98335767 0.025215011 -3.453004e-005 6.4962253e-005
1.1472313e-005 -4.3347929e-005 2.5507274e-005 5.6379199e-006 2.9360039e-005 3.4527198e-005 -1.9642537e-005 -2.3636994e-005
-3.822488e-005 2.1474196e-005 -4.6735382e-005 4.7958431e-005 4.4059376e-005 6.9709204e-005 1.0043314 -0.049842145
-1.0521274e-005 5.892925e-005 -5.5167391e-005 -2.0979498e-005 -2.3651799e-005 -4.3835938e-005 5.4889257e-005 1.622056e-005
4.9411901e-005 3.4013997e-006 3.1413147e-005 -7.2875382e-006 -7.0060937e-006 -3.2947493e-005 -1.8674746e-005 1.6566702e-005
0.99530917 -0.1188923 1.2329566e-005 5.4124575e-005 -3.2929852e-006 2.2162641e-005 -1.9149322e-005 -4.6634606e-005
3.9890496e-005 1.1300828e-005 4.5095094e-005 3.2060127e-006 -3.0160139e-005 -6.4710453e-005 -4.8737031e-005 1.4128239e-005
3.0362446e-005 -2.7252229e-006 0.98510623 0.10478781 -1.1227096e-005 4.7494214e-005 -3.1357642e-005 -6.5699031e-005
-1.0996257e-006 -1.6492857e-005 2.4513704e-006 3.45842e-006 -3.9811557e-006 -3.9549127e-006 5.9142603e-006 -1.206601e-007
8.5930396e-006 -3.1845791e-006 2.3801522e-006 6.298299e-006 0.98716396 -0.071327955 7.9941165e-006 2.2836609e-006
1.3092162e-005 6.4319001e-006 8.8034931e-006 8.5288812e-006 -1.5604737e-005 -3.4859891e-005 -1.6682847e-005 -5.4881812e-006
3.427075e-005 -3.3974716e-006 -6.5330019e-006 1.740796e-005 -3.2919284e-005 2.2782589e-005 0.99626058 0.058242533
10010010.01001 0.99591899 -0.048372228 1.0694756e-005 1.2716894e-005 -2.4046146e-006 -1.0119443e-006 -1.8362196e-005 -1.4568963e-005
1.0553754e-005 -4.0372302e-006 -9.3636554e-006 1.0280126e-005 -1.4345999e-007 -3.1374805e-007 1.7153678e-005 1.4167597e-005
-1.0900847e-007 8.0215113e-006 0.99648613 0.019616034 -1.6130761e-006 -7.4304853e-006 1.0057907e-005 -3.225613e-006
1.775005e-005 7.3841188e-006 1.5296044e-005 -6.0123866e-006 -1.2993795e-005 5.830223e-006 6.9989701e-006 -5.8952228e-006
-1.186211e-006 -1.2534524e-005 1.5637939e-005 7.363009e-006 0.98378694 0.025116023 1.0002241e-005 3.1252115e-005
9.3256676e-006 1.963043e-005 4.0321825e-006 3.498943e-006 -8.3378518e-006 3.5459448e-006 3.4152106e-006 -1.5092302e-005
1.458073e-006 -4.3850891e-006 2.8031029e-005 -1.1012159e-005 5.7625516e-006 2.7683309e-005 1.0042869 -0.049660884
8.1753042e-006 -9.4891374e-007 2.1867043e-005 -4.0788582e-006 1.6683231e-008 -9.5266823e-006 -1.1888877e-005 2.4851834e-005
-8.1026801e-006 1.8740944e-005 5.7254756e-006 -7.4371255e-006 1.3585257e-007 6.7635419e-006 -2.0091591e-005 1.626343e-006
0.99509841 -0.11823559 1.6932559e-006 2.177965e-005 1.0913485e-005 -1.0154516e-005 2.0609466e-006 4.6608438e-006
1.2103567e-005 1.0139186e-006 -1.2631609e-005 -2.7014453e-006 -1.0185902e-005 1.5911297e-005 2.8148568e-007 -5.0514432e-006
-1.3967709e-005 2.4403145e-005 0.98585206 0.1043139 5.0894078e-006 -9.3926792e-006 1.2398837e-005 -6.8410118e-006
1.0795963e-005 4.9202356e-007 1.1733814e-005 6.4761607e-006 -1.720966e-006 1.973243e-005 7.6012207e-006 -4.8459128e-006
8.8423367e-006 2.6870487e-006 1.4863787e-006 -5.1339525e-006 0.98746741 -0.071060658 7.1757513e-006 3.1288735e-005
-2.5942597e-006 -1.4817117e-006 -2.1503873e-005 1.2177761e-005 -1.0479348e-005 -2.0495472e-005 -5.6872881e-007 1.2332695e-005
-1.933194e-006 -3.802872e-006 -5.0053486e-006 3.384547e-006 -1.9540335e-006 2.0594314e-005 0.99630886 0.058079448
10020020.02002 0.99598539 -0.048119798 -4.168603e-006 3.0975967e-005 3.3797537e-006 -6.9244029e-006 -4.9259211e-006 1.5544625e-005
6.5427198e-006 7.2812885e-009 6.1931282e-006 -9.2026776e-006 1.4223784e-006 -5.9674662e-006 2.5464042e-005 7.1421728e-006
1.4091514e-005 4.636966e-006 0.99655259 0.01944655 3.8245817e-006 -6.0518196e-006 1.2821662e-006 1.8797482e-005
-1.2212588e-005 8.7509989e-006 -4.5933862e-006 -4.4285702e-007 4.0395653e-007 -2.5011266e-006 -5.919539e-006 5.4244852e-006
-8.3023924e-006 -1.3328569e-005 -4.7160238e-006 -8.2226297e-006 0.98399049 0.024960661 -2.4332821e-006 2.1716125e-005
1.4721101e-005 1.1148511e-005 9.5087826e-006 -2.9131621e-005 -2.1182545e-005 -1.5975935e-005 5.7408943e-006 4.2190049e-006
7.8771177e-007 3.1514624e-006 1.7472303e-005 -1.4793407e-005 -1.6987617e-005 2.4939616e-005 1.00414 -0.049393352
5.6336048e-006 -1.4969059e-005 -1.0498222e-005 1.1935679e-006 1.1435071e-005 -6.9921252e-006 3.5148107e-006 -2.8909616e-007
-1.4010022e-005 1.0127782e-007 -5.8528872e-006 -7.2964122e-006 1.7491861e-006 4.0624059e-006 1.123779e-005 -3.0339206e-006
0.99512875 -0.1175121 4.2546953e-006 1.7179773e-005 -2.2841616e-006 -4.6981922e-006 -3.0983927e-006 1.2032745e-006
-1.9051044e-005 4.8648103e-006 -8.1223898e-006 3.3544668e-006 -3.1360862e-006 -6.0255534e-006 3.5046576e-006 2.0475029e-005
9.9780773e-006 2.4943958e-005 0.98628867 0.10377997 -7.0544479e-006 -6.6233424e-006 2.0151099e-006 3.8067135e-006
-1.4548197e-005 5.1335487e-006 7.535763e-006 -2.1320791e-006 6.1712431e-006 1.2633568e-005 8.705785e-007 1.295411e-005
1.0648683e-005 2.1434871e-006 -2.9185765e-006 -5.8033042e-006 0.98757118 -0.070669241 9.0594295e-007 1.7821476e-005
-1.1744491e-005 1.7601501e-007 1.0450296e-006 -4.6248256e-006 -4.6543387e-006 2.8081342e-005 1.2182761e-005 -1.4170502e-005
-1.9624784e-005 3.4928889e-006 5.4884486e-006 -1.612199e-006 1.3977171e-006 1.2109678e-005 0.99635148 0.057782792
10030030.03003 0.99601841 -0.047865462 4.4197023e-007 2.439425e-005 4.9316095e-006 -4.5098918e-006 1.6169546e-005 -9.9861481e-006
-7.7915402e-006 -5.7764723e-006 -5.0951053e-006 -1.0437629e-005 -1.2098481e-005 2.7508955e-007 1.4408154e-005 1.4720299e-006
3.3357844e-006 1.1289959e-005 0.9966234 0.019258376 -1.2531095e-005 7.1602967e-006 -5.4822854e-006 1.4187732e-005
-4.0004511e-006 4.1909516e-006 -4.0746063e-006 -8.7398548e-006 -4.0663895e-006 1.7222446e-005 -1.0675782e-005 9.3310164e-006
-7.1647237e-006 2.8193097e-007 1.0309686e-005 1.1130413e-005 0.98419666 0.024782278 1.0904947e-005 2.1978945e-005
-3.5824348e-006 3.3449112e-006 -9.5383066e-006 -1.3759077e-005 2.0027079e-005 -1.4732766e-005 9.3594817e-006 7.9540041e-006
9.9504077e-006 -2.4422462e-007 2.7156782e-006 1.0611943e-005 1.4818658e-006 1.695358e-005 1.0040952 -0.049147528
1.1158005e-005 9.8302589e-006 1.3012579e-005 -1.2372844e-005 -9.8883788e-007 4.6763525e-006 1.3365469e-005 -3.2235528e-006
-9.5877158e-006 -8.2940714e-006 1.8903311e-006 8.4276962e-006 -4.2271881e-006 1.0671205e-005 4.7498197e-006 1.7279281e-006
0.99513292 -0.11671386 1.1037405e-005 7.4236373e-006 -9.6146414e-006 -5.0847184e-006 -4.1890603e-006 -1.9348904e-006
-1.5693857e-005 -4.9316423e-006 -9.7802149e-006 -2.543243e-006 -3.4782361e-006 5.3880626e-006 -1.4679175e-005 -3.3096017e-006
-1.3694549e-007 3.5249384e-005 0.98672628 0.10321027 -7.9397669e-006 1.3760491e-006 -9.1012826e-006 2.806102e-006
1.2944157e-005 -3.2898805e-007 4.4075674e-007 -1.2964168e-005 1.4129097e-006 6.1708511e-006 -2.0715861e-006 -8.5183538e-006
5.6197464e-006 3.2063388e-009 3.2821129e-006 -1.6952018e-006 0.98770833 -0.070301078 1.3588257e-005 2.6343294e-005
-6.7032265e-006 4.3581008e-006 1.2567111e-006 -2.4320173e-006 -1.7255626e-007 -8.5344736e-006 -4.2865549e-006 1.7713799e-006
-2.6670582e-006 1.6870379e-005 2.5776112e-006 -4.8676234e-006 -7.7183067e-006 1.0859711e-005 0.99635148 0.0575133
10040040.04004 0.99608701 -0.047601901 -1.544694e-005 2.6283558e-005 1.6273582e-006 1.5013943e-006 -4.7733888e-006 -9.4256129e-006
-7.4582458e-006 1.5028243e-005 1.4787488e-005 -4.8530201e-006 5.0361168e-006 1.0940023e-005 -2.0479074e-005 -1.9561569e-006
4.4146313e-006 4.0818941e-006 0.99664682 0.019113231 -1.6869049e-006 -3.5866954e-006 -2.6710977e-005 3.3591409e-006
1.2769373e-005 -1.2678798e-005 -1.2202929e-005 1.3199669e-005 2.4477224e-006 1.3714125e-006 -3.3952679e-006 7.318125e-006
-8.790299e-006 5.8841761e-006 -7.7580225e-006 -3.6241931e-007 0.98439175 0.024600893 6.1338551e-006 1.956811e-005
-1.3204816e-006 7.6062588e-006 -4.4477838e-006 -2.4977639e-005 7.7195659e-007 7.1568338e-006 -7.2034727e-006 -3.559571e-006
1.328597e-005 -4.0318619e-006 -5.0954504e-006 2.2970339e-006 1.2782855e-005 2.2448186e-005 1.004029 -0.048853066
-1.7150196e-005 -1.0156547e-005 -2.0592406e-006 3.1230729e-006 -6.9894663e-006 -7.4432546e-006 6.7606502e-006 -4.7431394e-007
-6.5171162e-006 9.8562368e-006 -3.8447838e-006 8.332715e-006 4.8271954e-006 9.2318496e-006 1.4169267e-006 7.2269368e-006
0.99514294 -0.11590923 6.9245937e-007 1.1456678e-005 5.6108856e-006 -9.3399403e-006 -7.8917146e-006 -1.2753864e-005
-6.7214796e-006 7.6745437e-006 2.6105897e-006 -1.9377194e-005 1.0138517e-005 4.1892844e-007 1.1721043e-005 1.442884e-006
-1.1086789e-005 2.4462675e-005 0.98712891 0.10256863 -5.4896514e-006 -1.8224091e-005 7.6242427e-006 -2.2205268e-005
1.4039321e-006 -1.2536373e-005 1.7003476e-006 -1.2434614e-005 7.7583481e-006 1.9152903e-006 7.869623e-006 4.1889648e-006
1.2468308e-005 -7.887872e-006 -1.1759453e-005 -7.7669283e-006 0.98783362 -0.069869101 4.6295895e-006 2.8785536e-005
7.8857494e-007 -1.4430253e-006 -9.2465498e-006 -1.8425313e-005 1.2012411e-005 -1.4271339e-005 -1.1070226e-005 -3.6952965e-006
-1.1889027e-005 -1.0888506e-005 1.0964038e-005 -3.1326426e-006 1.2365103e-005 1.9346611e-005 0.9963693 0.057192069
10050050.05005 0.99614614 -0.047313534 1.406909e-006 1.6657508e-005 9.8484034e-006 -3.4973598e-006 -9.2161472e-006 -1.5286447e-006
9.0364429e-006 -7.0839326e-007 -1.2060676e-005 1.8481625e-005 5.7070565e-007 1.8462297e-006 1.2093999e-005 8.6064365e-006
-5.1027582e-006 2.9940682e-005 0.99671948 0.018940452 1.6338735e-006 9.5918558e-006 -4.4392873e-006 1.5930025e-006
-1.526712e-006 -6.8338895e-006 -6.6326566e-006 -6.459667e-006 -9.3448543e-006 1.1556122e-005 -2.0852094e-005 -6.4091046e-007
6.0110337e-006 6.569067e-006 2.9177186e-006 7.4628047e-006 0.98460013 0.024480125 3.85148e-006 2.1307866e-005
8.8120487e-006 1.2874475e-005 -3.3767392e-006 4.6019145e-006 -7.6037254e-006 -4.7457879e-006 -9.1427291e-006 -1.739819e-005
-1.6095282e-006 -1.911521e-005 7.3823021e-006 8.5243782e-006 8.2989218e-006 2.37035e-005 1.0039582 -0.048553638
-2.0434594e-005 -1.0425412e-005 -1.3527125e-006 1.157622e-005 1.2764137e-005 6.174027e-006 -9.417592e-007 1.5745268e-006
4.820492e-006 5.7942634e-006 8.8957546e-007 -1.5496034e-005 -3.4572902e-006 -1.5040043e-006 7.4362224e-006 5.8320084e-006
0.99516815 -0.11505767 -8.9196546e-006 1.83957e-005 -8.1554872e-006 1.6406419e-005 -1.1051023e-006 -1.5483987e-005
3.7396267e-006 -4.8432194e-006 -9.5981284e-007 2.1183166e-007 9.0604281e-006 2.0113839e-005 2.4018041e-006 -1.6715546e-006
-5.7615825e-006 1.4681318e-005 0.98755848 0.10191848 5.5136729e-006 -1.2102539e-006 -2.6925018e-006 -1.261654e-005
9.0126341e-006 7.9336041e-006 -2.5355973e-006 -1.3994765e-005 -3.8074279e-006 1.4431153e-005 6.9972621e-006 4.9620326e-006
5.8354732e-007 3.470966e-006 -1.4908215e-006 -7.4635009e-006 0.98797107 -0.069432683 -7.5035068e-006 3.9960662e-005
-1.1720249e-005 -6.2166273e-006 -2.2550439e-006 -1.1113688e-005 1.3852735e-006 -3.8592507e-006 -2.3523094e-006 4.8405641e-006
1.4961551e-005 -8.4513476e-006 -1.0674433e-005 -2.368618e-006 -2.0125411e-007 2.7597625e-005 0.99642271 0.056888338
10060060.06006 0.99622208 -0.04698788 -2.9663918e-006 1.7587894e-005 1.9628051e-005 7.574939e-006 7.3689102e-006 9.2471428e-006
-1.8123925e-005 -8.5726215e-006 5.4854621e-007 -1.1764122e-005 -1.2545769e-005 3.6338639e-007 -1.2935046e-006 2.157238e-006
-1.6694201e-005 3.3968295e-006 0.99677742 0.018738514 9.9579256e-006 2.4751165e-005 2.3478742e-006 -2.2254966e-005
-1.0545431e-005 6.3970703e-007 1.2498995e-006 9.3312701e-006 -4.0977196e-007 -1.3846364e-005 -8.3826126e-006 -1.5468559e-005
1.6027867e-005 -1.6255395e-005 -3.0521276e-006 3.5344044e-006 0.98482555 0.024288626 -2.3499546e-005 2.2382788e-005
-1.1535752e-005 1.2236407e-005 -1.4045174e-006 7.0655906e-006 -1.7487473e-005 2.3900141e-006 4.7712535e-007 -3.3829103e-006
-1.2815788e-005 -8.9372543e-006 5.590829e-006 9.3588869e-006 -5.4432726e-006 1.3477367e-005 1.0038615 -0.048234962
6.3960524e-006 -2.5953809e-006 1.2507367e-005 1.2503909e-006 1.3710489e-005 1.6824729e-006 6.1722862e-006 1.4679053e-005
-1.6751292e-005 5.2469243e-008 -2.4254947e-005 -1.2920107e-006 1.6919999e-005 -2.584881e-006 -6.1770484e-006 -9.575383e-006
0.99520063 -0.11418676 -1.0590186e-005 1.732208e-005 9.801508e-006 -1.0419116e-005 8.5689881e-006 1.1605733e-005
-1.622921e-006 1.3045633e-006 -8.4611429e-006 2.11374e-007 -8.6334621e-006 -7.4135496e-006 3.538584e-006 -6.4724068e-006
-6.8578165e-006 2.2782962e-005 0.9880088 0.10122408 -9.4461202e-006 -1.5148869e-005 -1.06105e-005 -8.6480031e-007
-1.513777e-005 -4.6978453e-006 -7.2972075e-006 2.0569922e-005 -5.5730784e-006 -7.3809592e-006 -2.2520228e-005 8.0092332e-006
4.6888536e-006 -4.5280396e-007 -1.570421e-005 -1.6441625e-005 0.98812622 -0.068962984 5.8434744e-006 -8.9710238e-006
-1.7541719e-006 1.6495256e-005 1.4428345e-005 2.2223501e-006 -3.821986e-006 3.0029598e-006 -5.4890515e-006 -1.5309914e-006
-1.7825118e-005 7.3483266e-006 2.0511754e-005 -4.006482e-006 1.1267154e-005 1.2197361e-005 0.99646437 0.056540348
10070070.07007 0.99626148 -0.046670705 1.1583543e-005 7.2309022e-006 -2.5940308e-006 -5.6491399e-006 -8.7365415e-006 1.4731594e-007
1.77049e-006 1.2706558e-005 9.646511e-006 -1.4554837e-005 -1.2856029e-005 5.0135109e-006 3.3529591e-006 -1.0215609e-005
3.7632014e-006 1.8035445e-005 0.99685115 0.018570296 1.4075325e-005 -1.7078257e-005 7.8440667e-007 5.910852e-006
7.525461e-007 1.0099848e-005 -3.9530573e-006 1.2805936e-005 9.0669761e-007 -1.7639386e-006 -1.2350548e-006 9.1241563e-006
8.3829182e-006 -5.7009024e-006 -7.0450296e-006 8.8545366e-006 0.98504615 0.024118785 1.6537467e-007 3.2378764e-005
6.0408097e-006 1.1045952e-005 -2.7624404e-007 -2.2273043e-006 -1.1724354e-005 -1.3219751e-006 3.6468837e-006 -3.1293896e-006
-6.043123e-006 1.348458e-006 -1.3743533e-005 -7.6507632e-007 6.271116e-006 2.6983455e-005 1.0037919 -0.047934812
-1.1422912e-009 5.9559429e-006 1.4322556e-007 1.0081954e-005 -1.1431608e-005 -1.7271369e-006 6.602987e-008 -1.4112849e-005
-4.0010518e-006 -5.1879006e-006 9.7455559e-006 -6.2648296e-006 -1.4461497e-005 8.8903071e-006 -4.7485264e-006 -1.2532149e-005
0.99521011 -0.11333106 3.9965726e-006 1.2704479e-005 -4.484295e-006 -5.1794501e-007 1.5748914e-006 9.4346324e-006
-8.2426177e-006 9.1619722e-006 -7.9512793e-006 8.7612312e-007 -7.4070745e-006 -1.3986577e-005 2.5966879e-006 -5.9276731e-006
-4.9497594e-008 2.9642155e-005 0.98841387 0.10057864 -3.7831485e-006 1.2907431e-005 -1.9821566e-005 -3.5390933e-006
5.8001056e-006 -1.5780493e-005 3.9799161e-007 6.9684688e-006 -1.9064057e-005 1.8161288e-006 -1.3894723e-005 7.5686735e-006
-5.2410564e-006 5.6029921e-007 -5.0415488e-006 -1.1625645e-005 0.98822957 -0.068491384 -1.3126863e-005 2.768095e-005
1.3411549e-005 5.9007908e-007 -1.6996366e-005 -2.1000582e-005 1.9091469e-005 -2.6660657e-006 -7.3005508e-006 7.9646807e-006
-3.2816638e-006 -9.6603562e-006 5.7540606e-006 7.4322315e-006 1.2508642e-005 1.1155184e-005 0.99649346 0.056172419
10080080.08008 0.99625307 -0.04633918 -1.6671926e-005 2.2035139e-005 -9.5613514e-006 -7.5436528e-006 2.0774472e-005 -4.8140191e-006
1.1171061e-006 1.3808762e-005 2.0269486e-006 4.0850259e-006 1.4382216e-005 -2.0947162e-005 7.1838913e-006 -1.2912957e-006
-1.1193585e-005 1.9605637e-005 0.99686313 0.018355051 -1.777161e-005 -1.489771e-005 -1.0170131e-005 5.3101121e-006
-5.1559673e-006 -2.2716233e-006 -6.9278035e-006 -2.3493765e-005 1.2093138e-006 -1.1355824e-005 -6.733389e-006 1.9328883e-005
-1.1160521e-005 9.3583147e-008 2.2002539e-005 -8.0973614e-006 0.98523855 0.02387852 -4.4386684e-006 3.0069827e-005
-8.8453471e-006 -1.0828267e-005 2.6791318e-005 -9.4971156e-006 1.274477e-005 2.3777384e-006 -3.3964629e-006 2.5215022e-006
5.5199457e-006 -8.1243588e-006 -1.4848119e-005 7.3336341e-006 6.0433181e-006 3.0506742e-005 1.0036741 -0.047595516
3.1681532e-006 1.1670075e-005 -8.2365295e-006 8.3580217e-006 -6.0626116e-006 5.8715882e-006 5.0484268e-006 -4.3376031e-007
5.0996562e-007 6.9329226e-006 -3.0544279e-006 5.9537388e-006 -1.7685383e-006 7.5416523e-007 -8.8425204e-006 1.3704025e-005
0.99526733 -0.11237443 -4.5334837e-006 1.5313541e-005 -1.9859895e-007 -2.8956024e-006 -1.3796198e-005 -3.3407605e-006
-8.0716363e-006 -5.4097568e-006 -1.8460258e-006 8.971002e-006 6.9716912e-006 -1.5759486e-005 3.9716249e-007 -7.3819001e-006
3.3320416e-006 2.8235223e-005 0.98888838 0.099820644 2.0207447e-006 -8.4105077e-006 1.4709265e-005 2.6717214e-006
