!Agilent Technologies,M9370A,MY54322275,A.02.50.04
!Agilent M9370A: A.02.50.04
!Date: Friday, August 17, 2018 12:57:14
!Correction: S11(Full 8 Port(1,2,3,4,5,6,7,8)) 
!S12(Full 8 Port(1,2,3,4,5,6,7,8)) 
!S13(Full 8 Port(1,2,3,4,5,6,7,8)) 
!S14(Full 8 Port(1,2,3,4,5,6,7,8)) 
!S15(Full 8 Port(1,2,3,4,5,6,7,8)) 
!S16(Full 8 Port(1,2,3,4,5,6,7,8)) 
!S17(Full 8 Port(1,2,3,4,5,6,7,8)) 
!S18(Full 8 Port(1,2,3,4,5,6,7,8)) 
!S21(Full 8 Port(1,2,3,4,5,6,7,8)) 
!S22(Full 8 Port(1,2,3,4,5,6,7,8)) 
!S23(Full 8 Port(1,2,3,4,5,6,7,8)) 
!S24(Full 8 Port(1,2,3,4,5,6,7,8)) 
!S25(Full 8 Port(1,2,3,4,5,6,7,8)) 
!S26(Full 8 Port(1,2,3,4,5,6,7,8)) 
!S27(Full 8 Port(1,2,3,4,5,6,7,8)) 
!S28(Full 8 Port(1,2,3,4,5,6,7,8)) 
!S31(Full 8 Port(1,2,3,4,5,6,7,8)) 
!S32(Full 8 Port(1,2,3,4,5,6,7,8)) 
!S33(Full 8 Port(1,2,3,4,5,6,7,8)) 
!S34(Full 8 Port(1,2,3,4,5,6,7,8)) 
!S35(Full 8 Port(1,2,3,4,5,6,7,8)) 
!S36(Full 8 Port(1,2,3,4,5,6,7,8)) 
!S37(Full 8 Port(1,2,3,4,5,6,7,8)) 
!S38(Full 8 Port(1,2,3,4,5,6,7,8)) 
!S41(Full 8 Port(1,2,3,4,5,6,7,8)) 
!S42(Full 8 Port(1,2,3,4,5,6,7,8)) 
!S43(Full 8 Port(1,2,3,4,5,6,7,8)) 
!S44(Full 8 Port(1,2,3,4,5,6,7,8)) 
!S45(Full 8 Port(1,2,3,4,5,6,7,8)) 
!S46(Full 8 Port(1,2,3,4,5,6,7,8)) 
!S47(Full 8 Port(1,2,3,4,5,6,7,8)) 
!S48(Full 8 Port(1,2,3,4,5,6,7,8)) 
!S51(Full 8 Port(1,2,3,4,5,6,7,8)) 
!S52(Full 8 Port(1,2,3,4,5,6,7,8)) 
!S53(Full 8 Port(1,2,3,4,5,6,7,8)) 
!S54(Full 8 Port(1,2,3,4,5,6,7,8)) 
!S55(Full 8 Port(1,2,3,4,5,6,7,8)) 
!S56(Full 8 Port(1,2,3,4,5,6,7,8)) 
!S57(Full 8 Port(1,2,3,4,5,6,7,8)) 
!S58(Full 8 Port(1,2,3,4,5,6,7,8)) 
!S61(Full 8 Port(1,2,3,4,5,6,7,8)) 
!S62(Full 8 Port(1,2,3,4,5,6,7,8)) 
!S63(Full 8 Port(1,2,3,4,5,6,7,8)) 
!S64(Full 8 Port(1,2,3,4,5,6,7,8)) 
!S65(Full 8 Port(1,2,3,4,5,6,7,8)) 
!S66(Full 8 Port(1,2,3,4,5,6,7,8)) 
!S67(Full 8 Port(1,2,3,4,5,6,7,8)) 
!S68(Full 8 Port(1,2,3,4,5,6,7,8)) 
!S71(Full 8 Port(1,2,3,4,5,6,7,8)) 
!S72(Full 8 Port(1,2,3,4,5,6,7,8)) 
!S73(Full 8 Port(1,2,3,4,5,6,7,8)) 
!S74(Full 8 Port(1,2,3,4,5,6,7,8)) 
!S75(Full 8 Port(1,2,3,4,5,6,7,8)) 
!S76(Full 8 Port(1,2,3,4,5,6,7,8)) 
!S77(Full 8 Port(1,2,3,4,5,6,7,8)) 
!S78(Full 8 Port(1,2,3,4,5,6,7,8)) 
!S81(Full 8 Port(1,2,3,4,5,6,7,8)) 
!S82(Full 8 Port(1,2,3,4,5,6,7,8)) 
!S83(Full 8 Port(1,2,3,4,5,6,7,8)) 
!S84(Full 8 Port(1,2,3,4,5,6,7,8)) 
!S85(Full 8 Port(1,2,3,4,5,6,7,8)) 
!S86(Full 8 Port(1,2,3,4,5,6,7,8)) 
!S87(Full 8 Port(1,2,3,4,5,6,7,8)) 
!S88(Full 8 Port(1,2,3,4,5,6,7,8)) 
!S8P File: Measurements: <S11,S12,S13,S14,S15,S16,S17,S18>,
!<S21,S22,S23,S24,S25,S26,S27,S28>,
!<S31,S32,S33,S34,S35,S36,S37,S38>,
!<S41,S42,S43,S44,S45,S46,S47,S48>,
!<S51,S52,S53,S54,S55,S56,S57,S58>,
!<S61,S62,S63,S64,S65,S66,S67,S68>,
!<S71,S72,S73,S74,S75,S76,S77,S78>,
!<S81,S82,S83,S84,S85,S86,S87,S88>:
# Hz S  RI   R 50
10000000 0.25238737 0.0010914338 0.24998181 0.0036208755 0.060704928 0.057183307 0.061291773 0.056462295
0.082288347 -0.015161276 0.082196124 -0.01312213 0.069819078 0.045241728 0.069028519 0.046720091
0.25041014 0.0037419747 0.25192797 0.0072805667 0.059999298 0.057995252 0.060532726 0.05735765
0.082265228 -0.014722803 0.082512602 -0.011883792 0.069013789 0.04650531 0.068179645 0.04810128
0.058359388 -0.058957182 0.059009589 -0.05817382 0.25108922 0.0077051795 0.24981675 0.0055609257
0.063480839 0.053608157 0.060909241 0.056060046 0.080785014 -0.017570818 0.081297807 -0.016094193
0.058030378 -0.060007505 0.05880167 -0.059063803 0.251156 0.0057812235 0.2530469 0.002609361
0.064111032 0.053730827 0.061411835 0.056312993 0.081411466 -0.017565696 0.081831686 -0.016199302
0.082549289 0.010533109 0.082204655 0.010946099 0.059785731 -0.057619289 0.059497379 -0.058011685
0.25481164 -0.0057238969 0.25089845 -0.0012382024 0.061135598 0.056408342 0.060620837 0.057181537
0.081768781 0.012995895 0.08162529 0.014293437 0.062367611 -0.054504223 0.062126495 -0.054795563
0.25070941 0.00030626892 0.25223053 0.013164668 0.059254043 0.057973124 0.058687605 0.05874531
0.065517485 -0.051361486 0.066311315 -0.050077632 0.082652509 0.007738607 0.082712889 0.0077608922
0.057859842 -0.060300741 0.058993727 -0.058710489 0.25272858 0.0022907679 0.25041479 0.0052724658
0.066723049 -0.05013049 0.067570239 -0.04876573 0.082680032 0.0092856046 0.082774967 0.0093811676
0.058629494 -0.059702046 0.059893407 -0.058054812 0.25032258 0.0055189207 0.25291637 0.010943265
10490490.49049 0.25218281 0.0044084848 0.24999002 0.0027776111 0.081623517 -0.01615021 0.081519164 -0.016348049
0.083053283 0.0027539164 0.082993433 0.0015377017 0.081784405 -0.014433253 0.08190906 -0.014343882
0.24983357 0.0028067527 0.25241801 0.0023038439 0.081646197 -0.016326265 0.081534527 -0.016399277
0.082956165 0.001941623 0.083101429 0.0015923853 0.081873879 -0.014155245 0.08202742 -0.014067893
0.082124449 0.013343995 0.082191058 0.013165976 0.25218803 0.0055334466 0.25037205 0.0056352504
0.081692405 -0.015397656 0.081795081 -0.015056014 0.082954869 -0.0018755497 0.083083555 -0.0020331067
0.082139589 0.013096797 0.082169719 0.013065535 0.25016889 0.0056689959 0.25210956 0.0049931118
0.08172933 -0.015093862 0.081909731 -0.014637568 0.083002523 -0.001109781 0.083104685 -0.0012052646
0.083035663 -0.0030818309 0.082879022 -0.0038404898 0.082065359 0.012470608 0.082080334 0.012838018
0.25263086 0.005594492 0.24950914 -0.00038652061 0.081793718 -0.014788821 0.081700675 -0.015449892
0.082895719 -0.0044003706 0.083036602 -0.0043593571 0.082109481 0.012730764 0.082093589 0.013184998
0.24942294 -0.00070399139 0.25255427 0.0015535932 0.081565335 -0.016231669 0.081464164 -0.016807854
0.082585469 0.0092665581 0.082577132 0.0095439134 0.082605921 -0.0076637059 0.082710057 -0.0068551344
0.081727013 0.014731781 0.081963949 0.013382275 0.25270686 0.0080302013 0.25005057 0.0055049676
0.082653664 0.0093592117 0.082647361 0.0097376108 0.082643278 -0.0077563319 0.082784288 -0.0069910511
0.081818573 0.014047016 0.082114927 0.012819574 0.2498052 0.0055156439 0.25268927 0.0057999147
10980980.980981 0.25237378 0.004384256 0.25007552 0.0030747885 0.082634248 -0.010142728 0.082444705 -0.010442802
0.082871385 0.0013957307 0.082992241 0.00040961459 0.082449727 -0.0097574759 0.082535602 -0.009559026
0.24980459 0.0030947821 0.25234783 0.0028983019 0.08263965 -0.010238134 0.082391746 -0.010379463
0.082782529 0.00065754587 0.083215013 0.00058937416 0.082586177 -0.0093413908 0.082686335 -0.0090844072
0.082968161 0.0072922441 0.082949892 0.0071657486 0.25217709 0.0060977484 0.2502673 0.0059707914
0.082382023 -0.0098013012 0.08257667 -0.0091740265 0.082920723 -0.0032936772 0.083091401 -0.003314913
0.082975119 0.0069584707 0.082961775 0.0069889007 0.25011334 0.0060546505 0.25203946 0.0051434259
0.082446001 -0.0095521705 0.082657933 -0.0087883389 0.082935862 -0.0025483093 0.08313942 -0.0025092398
0.083019421 -0.002016936 0.083057746 -0.0027094048 0.082832918 0.0066283955 0.082673557 0.006897382
0.25261664 0.0050318381 0.24967976 -0.00039637482 0.082727566 -0.0089197168 0.082579561 -0.0094940318
0.082919538 -0.0030993852 0.083209343 -0.0029301078 0.082808562 0.0071675652 0.082663789 0.0075637335
0.24931474 -0.0005765899 0.25257862 0.0025677821 0.082635559 -0.010114406 0.08254876 -0.010620042
0.083079562 0.0041866838 0.083079562 0.0046046562 0.082670465 -0.0067134346 0.082744278 -0.0059581352
0.082438879 0.0084678652 0.082696639 0.0073534492 0.25302958 0.0079907496 0.25019234 0.0058061751
0.083080888 0.0044401903 0.083173022 0.0049144863 0.08276245 -0.0066649853 0.082824558 -0.0058899079
0.082501642 0.0078961458 0.082791485 0.0068501239 0.24985205 0.005835583 0.25284147 0.0065434845
11471471.471471 0.25234705 0.0043451381 0.2499221 0.0034272654 0.083175167 -0.0014842814 0.083099768 -0.0019062161
0.083088197 -0.00058700558 0.08294937 -0.0012234903 0.082966059 -0.0030520868 0.083071984 -0.0026039437
0.24982372 0.0034458246 0.25247741 0.0036152434 0.083182789 -0.0014269963 0.083127573 -0.0017166507
0.082935274 -0.001172273 0.083078623 -0.00088686147 0.083003625 -0.0024940588 0.083177499 -0.0019627253
0.083142959 -0.0014826016 0.083138056 -0.0014287267 0.25227478 0.006660827 0.25030461 0.0063788109
0.083038703 -0.0017756115 0.083140291 -0.00075520418 0.08275874 -0.0051918626 0.082845174 -0.0050225803
0.083113499 -0.001899504 0.083109111 -0.0017137848 0.25019908 0.0064088302 0.25218314 0.0052330922
0.083109669 -0.0016038319 0.083174571 -0.00042300209 0.082847655 -0.0045392513 0.082916409 -0.0043118736
0.08304397 -0.00060563203 0.082882747 -0.0011355535 0.083008699 -0.0018051171 0.083029278 -0.001619956
0.25279516 0.00400917 0.24945378 -0.00039714086 0.083069704 -0.0005122053 0.083094716 -0.00090160989
0.08294189 -0.001247531 0.08308807 -0.00094251282 0.083088785 -0.00078263623 0.083182052 -0.00044425367
0.24936794 -0.0004401558 0.25268266 0.0039440054 0.083109006 -0.0013323475 0.083123311 -0.0016550753
0.082961492 -0.0030506942 0.083003998 -0.0024916786 0.082759254 -0.0052154125 0.08282394 -0.0045287064
0.08306174 -0.00046532779 0.083008647 -0.0012973367 0.25295109 0.0078433864 0.25003389 0.0061611547
0.083091237 -0.0025928058 0.08314237 -0.0019930787 0.082838014 -0.0050057294 0.08291547 -0.0043340018
0.083020046 -0.00089473429 0.083069414 -0.0015877624 0.24982508 0.0062116329 0.25279853 0.0074675097
11961961.961962 0.252415 0.0045550629 0.24992405 0.0036566241 0.083173729 -0.0015321218 0.083113633 -0.0019555574
0.083080918 -0.00056911528 0.08294756 -0.0012481367 0.082913138 -0.0031681291 0.083036445 -0.0026925481
0.24982041 0.0036623084 0.25256675 0.0037951225 0.083186358 -0.0014662882 0.083080329 -0.0017744104
0.082877912 -0.0011761363 0.08305946 -0.00091804867 0.083004788 -0.00257751 0.083117492 -0.002048943
0.083120063 -0.0015355165 0.083120182 -0.0014723068 0.25235975 0.006936512 0.25034463 0.0067037768
0.083036833 -0.0018586245 0.083133958 -0.00075535581 0.082711264 -0.0054160776 0.082834832 -0.0052151363
0.08307936 -0.0019648466 0.083130106 -0.0017458621 0.25023571 0.0067134816 0.25227675 0.0054600965
0.083097562 -0.0016519749 0.083175547 -0.00043053302 0.08279638 -0.0047167661 0.082914107 -0.0044604968
0.083006084 -0.00055224885 0.082837299 -0.0012188024 0.08299572 -0.0018672757 0.083031572 -0.0016479219
0.25292045 0.0042081163 0.24946012 -0.00036333365 0.083063692 -0.00053339353 0.083067201 -0.0009434644
0.082930148 -0.0012658489 0.083071038 -0.00095662673 0.083072938 -0.0008257234 0.083160043 -0.0004624764
0.24940157 -0.00037581255 0.25279862 0.0041005625 0.083088748 -0.0013963629 0.083113618 -0.0017015211
0.082938381 -0.0031291086 0.082969964 -0.0025858872 0.082703575 -0.0054217018 0.082784459 -0.0046555758
0.083023757 -0.00047045251 0.083026372 -0.0013240003 0.253025 0.008164837 0.25004014 0.0064736269
0.083079778 -0.0027046523 0.083114497 -0.0020446335 0.082798794 -0.0052221725 0.082897969 -0.0044503179
0.082982004 -0.00092339085 0.083056308 -0.0016365019 0.2498773 0.0065432293 0.252886 0.0078049898
12452452.452452 0.252498 0.0047758953 0.24993099 0.0038811401 0.0831834 -0.0015727942 0.083134808 -0.0019971572
0.083057322 -0.0005766789 0.082947284 -0.0012736507 0.082914494 -0.0032543638 0.083056286 -0.0027705363
0.2498289 0.0038690877 0.25262016 0.003968955 0.08317367 -0.0015371339 0.083137162 -0.0018129247
0.082856961 -0.0012153537 0.083115265 -0.00093513337 0.08299835 -0.0026542877 0.083141968 -0.0020969221
0.083114907 -0.0015653284 0.083138041 -0.0015097503 0.25246298 0.0072519742 0.25038588 0.0070631145
0.083020978 -0.0019111595 0.083091453 -0.00077795825 0.082710952 -0.005610073 0.082795575 -0.0053843269
0.083068125 -0.0020133688 0.083095774 -0.0018040326 0.2502884 0.0070472993 0.25232938 0.0057575773
0.083065853 -0.0017049642 0.083177201 -0.00040911988 0.082773842 -0.00487593 0.082889892 -0.0046127685
0.083002076 -0.0005832006 0.082815163 -0.0012210289 0.083001643 -0.0019222322 0.083027415 -0.0016777888
0.25301602 0.0043739961 0.24944964 -0.00033091867 0.083070345 -0.00050049816 0.083067909 -0.00096508011
0.08289247 -0.0013120356 0.083067402 -0.00096254819 0.083105728 -0.00081487832 0.083176285 -0.00046683536
0.2493979 -0.00034120513 0.25287625 0.0042824713 0.083090052 -0.0014486309 0.083107352 -0.0017655048
0.082906291 -0.0032420151 0.08299946 -0.0026673763 0.082680687 -0.0056394208 0.082770392 -0.0048633958
0.08302699 -0.0004799469 0.083020769 -0.0013620676 0.25316226 0.0085741021 0.25008887 0.0068258168
0.083033361 -0.0027433385 0.083125286 -0.0021210662 0.08276315 -0.0053991978 0.082865618 -0.0045899204
0.083004117 -0.00092748023 0.083054967 -0.0016906889 0.24987541 0.0068805707 0.25298595 0.0081224777
12942942.942943 0.25251535 0.0049900538 0.24996923 0.0040763314 0.083240375 -0.0015816346 0.083119921 -0.0020361957
0.083133057 -0.00056648516 0.082943395 -0.001328393 0.082924165 -0.0033443612 0.083077148 -0.0028747483
0.24979338 0.0041214591 0.25273162 0.0041417093 0.083159387 -0.0015522121 0.083073817 -0.0018695804
0.082885437 -0.0012423722 0.083054215 -0.00094344094 0.083004475 -0.0027221413 0.083130248 -0.0021415001
0.083141401 -0.0015819111 0.08316271 -0.0015616888 0.25265279 0.0075745718 0.25037608 0.0073693823
0.083054885 -0.0019645297 0.083096936 -0.00078418426 0.082654014 -0.0058085443 0.082794622 -0.0055898726
0.083102211 -0.0020358956 0.083079197 -0.0018609411 0.25039575 0.0073886872 0.25230891 0.0060010403
0.083085768 -0.0017392694 0.083146267 -0.00040423858 0.082743995 -0.0050448114 0.082814582 -0.0047780126
0.082983255 -0.0005498823 0.082832456 -0.0012716403 0.083001629 -0.0019630599 0.083009303 -0.0017446588
0.25313658 0.0045522316 0.24940787 -0.0002744777 0.08305537 -0.0005075541 0.083039515 -0.00097461988
0.082886264 -0.0013400307 0.08309076 -0.0009824289 0.083079189 -0.00081670383 0.083178438 -0.00044635325
0.24950421 -0.00029444339 0.25289467 0.0045117014 0.083079234 -0.0014364047 0.083052434 -0.0017943236
0.082859308 -0.003364891 0.082993321 -0.0027186214 0.082636341 -0.0058187917 0.082718082 -0.0050427071
0.083007373 -0.00048340359 0.083000213 -0.001368936 0.25319725 0.0089557562 0.25004342 0.0071596391
0.082978681 -0.0028318916 0.083146214 -0.0021795242 0.082745701 -0.0055563524 0.082839146 -0.0047666458
0.082994163 -0.00090838526 0.083052479 -0.0017393497 0.24987397 0.0071745422 0.25299621 0.0084943147
13433433.433433 0.25272718 0.0052212584 0.25000814 0.0043277401 0.08321391 -0.0016432417 0.083157547 -0.0021191174
0.083130322 -0.00057728466 0.082966872 -0.001310257 0.082945623 -0.0034409454 0.083058164 -0.002918531
0.24993542 0.004371169 0.25281826 0.0043241386 0.083173975 -0.001607998 0.083096683 -0.0019126253
0.082819276 -0.001278956 0.083076619 -0.00094336842 0.08297807 -0.0028045862 0.083123721 -0.0022416341
0.083143145 -0.001588967 0.083155133 -0.0015793368 0.25268367 0.0078862729 0.25045013 0.0077406154
0.083001263 -0.002000883 0.083147682 -0.00076479901 0.082676679 -0.0059804241 0.082741462 -0.0057509453
0.083053209 -0.0021285878 0.083093956 -0.0018909576 0.25037986 0.0077089774 0.25254849 0.0062575857
0.083058648 -0.0017741006 0.083170272 -0.000412147 0.082735628 -0.005200726 0.082824685 -0.004905378
0.082969628 -0.00059208559 0.082815953 -0.0012825604 0.082986191 -0.0020264457 0.083041899 -0.0017788693
0.25321814 0.004716171 0.24946533 -0.00021212926 0.083060175 -0.00050985382 0.083073065 -0.00098712661
0.082864471 -0.0013724525 0.083045609 -0.00099239068 0.08307261 -0.00082867261 0.083177008 -0.00044011782
0.24944659 -0.00023650224 0.25307408 0.0046387613 0.083041623 -0.0014703306 0.083072796 -0.0018229104
0.082901143 -0.0034337882 0.082982369 -0.0028172943 0.082641229 -0.0060079508 0.082726121 -0.0052014845
0.083002813 -0.00044971926 0.0829992 -0.001410606 0.25342986 0.0092445612 0.25017303 0.0075061768
0.083029367 -0.0029279571 0.083121747 -0.0022076429 0.082710542 -0.00578513 0.082815357 -0.0049372432
0.082963079 -0.0008917363 0.083046138 -0.0017884236 0.25000548 0.0075102421 0.25321141 0.008850242
13923923.923924 0.25282824 0.0054832702 0.25006229 0.0046057114 0.083226569 -0.0016608693 0.083151221 -0.0021458047
0.083126806 -0.00054940558 0.082928635 -0.0013252578 0.082934089 -0.0035401674 0.083084509 -0.0030263504
0.24996698 0.0045753345 0.25293607 0.0046046111 0.083146043 -0.0016416697 0.083080053 -0.0019200403
0.082826577 -0.0012792035 0.08306957 -0.00096901209 0.082974039 -0.0029002004 0.083136536 -0.0022782292
0.08316052 -0.0016062844 0.08316762 -0.0015999634 0.25278717 0.0082116956 0.25051787 0.0081382701
0.083030269 -0.0020026776 0.083137162 -0.00077696983 0.082629241 -0.0061820857 0.082729191 -0.0059690643
0.083068542 -0.0021300935 0.083058588 -0.0019102455 0.25045013 0.0080753183 0.25261641 0.0065081827
0.083038703 -0.0018439468 0.083162352 -0.00039992848 0.082708411 -0.0053342204 0.082793944 -0.0050632828
0.082991578 -0.00057308795 0.082783028 -0.0012938043 0.082987361 -0.002079553 0.083015002 -0.0018074405
0.25332463 0.0049124677 0.24950227 -0.00015351847 0.083073609 -0.00046925983 0.083060816 -0.00096240558
0.082837291 -0.0013883871 0.083030954 -0.00099625357 0.083089344 -0.00082496519 0.083145425 -0.00042994981
0.24947618 -0.00017472902 0.25323275 0.0048705363 0.083063066 -0.0014789791 0.08306922 -0.0018715359
0.082877487 -0.0035234448 0.082967348 -0.002882977 0.082617328 -0.0061798184 0.082697779 -0.0053117448
0.08304704 -0.00045077183 0.083010532 -0.0014423266 0.25350031 0.0096596954 0.25023305 0.0078725806
0.083027691 -0.0029897739 0.083109364 -0.0022906773 0.082707278 -0.0059270472 0.082815953 -0.0050590867
0.083011284 -0.00092084467 0.083043143 -0.0018125713 0.25006706 0.0078864293 0.25330573 0.0092455652
14414414.414414 0.25298065 0.0057366677 0.25010926 0.0048329788 0.083207339 -0.0016863213 0.083139315 -0.0021931578
0.083095133 -0.00055797526 0.082933217 -0.0013612314 0.082936801 -0.0036294414 0.083062768 -0.0030640217
0.25004855 0.0048334249 0.25303394 0.0047540013 0.0831616 -0.0016666679 0.083100639 -0.0019481917
0.082795538 -0.0012774154 0.083033487 -0.00098529668 0.082948662 -0.0029354224 0.083135895 -0.0023187515
0.083170213 -0.001617619 0.083186299 -0.0016332169 0.25290704 0.0085297506 0.25057894 0.0085125165
0.083023347 -0.0020672663 0.083120458 -0.00076941622 0.08260718 -0.0063407542 0.082722992 -0.0060931337
0.083059698 -0.0021875366 0.083042413 -0.0019630441 0.25049362 0.00843619 0.2527467 0.0068210517
0.083048858 -0.0018436509 0.083184913 -0.00038172424 0.082677893 -0.0054836725 0.0827858 -0.0052015567
0.083012559 -0.00056252605 0.082825005 -0.0013092178 0.08297994 -0.00210719 0.083018675 -0.0018705023
0.25345945 0.0051304088 0.24954258 -0.00011399302 0.083097734 -0.00051112968 0.083055988 -0.00098751043
0.082826197 -0.0013876915 0.083015449 -0.0010053674 0.083078094 -0.00082470756 0.083154969 -0.00041701866
0.24948737 -0.00011313523 0.25335491 0.0050677587 0.08305721 -0.0015264122 0.083098285 -0.0019081424
0.082877621 -0.0036141789 0.082956277 -0.0029111002 0.082597107 -0.0063864836 0.082679749 -0.0054699383
0.083031356 -0.00044358056 0.083050773 -0.0014915164 0.25366455 0.010015291 0.25030801 0.008235448
0.083026171 -0.0030459985 0.083098866 -0.0023334438 0.082661219 -0.0061182003 0.082768947 -0.005173638
0.082985163 -0.00092810852 0.083026133 -0.0018381692 0.25010243 0.0082132071 0.25344646 0.0095525747
14904904.904905 0.25307164 0.0059910663 0.25018281 0.0050574318 0.083246164 -0.0017100074 0.083157927 -0.0022706955
0.083120905 -0.00054834317 0.082944095 -0.0013615242 0.082951225 -0.0037193368 0.083068937 -0.0031865891
0.25004491 0.0050720321 0.25324398 0.0049329605 0.08313673 -0.0017007729 0.083097383 -0.0020095287
0.082776666 -0.0013422418 0.083050162 -0.00096994371 0.082982145 -0.0030202088 0.083117768 -0.0023862631
0.083165504 -0.0016677544 0.083181649 -0.0016342134 0.2530697 0.0088914204 0.25067204 0.0088907219
0.083030947 -0.0021368584 0.083172545 -0.00074856391 0.082575142 -0.0065507558 0.082701601 -0.0062908991
