!Agilent Technologies,M9370A,MY54322275,A.02.50.04
!Agilent M9370A: A.02.50.04
!Date: Friday, August 17, 2018 12:54:49
!Correction: S11(Full 8 Port(1,2,3,4,5,6,7,8)) 
!S12(Full 8 Port(1,2,3,4,5,6,7,8)) 
!S13(Full 8 Port(1,2,3,4,5,6,7,8)) 
!S14(Full 8 Port(1,2,3,4,5,6,7,8)) 
!S15(Full 8 Port(1,2,3,4,5,6,7,8)) 
!S16(Full 8 Port(1,2,3,4,5,6,7,8)) 
!S17(Full 8 Port(1,2,3,4,5,6,7,8)) 
!S18(Full 8 Port(1,2,3,4,5,6,7,8)) 
!S21(Full 8 Port(1,2,3,4,5,6,7,8)) 
!S22(Full 8 Port(1,2,3,4,5,6,7,8)) 
!S23(Full 8 Port(1,2,3,4,5,6,7,8)) 
!S24(Full 8 Port(1,2,3,4,5,6,7,8)) 
!S25(Full 8 Port(1,2,3,4,5,6,7,8)) 
!S26(Full 8 Port(1,2,3,4,5,6,7,8)) 
!S27(Full 8 Port(1,2,3,4,5,6,7,8)) 
!S28(Full 8 Port(1,2,3,4,5,6,7,8)) 
!S31(Full 8 Port(1,2,3,4,5,6,7,8)) 
!S32(Full 8 Port(1,2,3,4,5,6,7,8)) 
!S33(Full 8 Port(1,2,3,4,5,6,7,8)) 
!S34(Full 8 Port(1,2,3,4,5,6,7,8)) 
!S35(Full 8 Port(1,2,3,4,5,6,7,8)) 
!S36(Full 8 Port(1,2,3,4,5,6,7,8)) 
!S37(Full 8 Port(1,2,3,4,5,6,7,8)) 
!S38(Full 8 Port(1,2,3,4,5,6,7,8)) 
!S41(Full 8 Port(1,2,3,4,5,6,7,8)) 
!S42(Full 8 Port(1,2,3,4,5,6,7,8)) 
!S43(Full 8 Port(1,2,3,4,5,6,7,8)) 
!S44(Full 8 Port(1,2,3,4,5,6,7,8)) 
!S45(Full 8 Port(1,2,3,4,5,6,7,8)) 
!S46(Full 8 Port(1,2,3,4,5,6,7,8)) 
!S47(Full 8 Port(1,2,3,4,5,6,7,8)) 
!S48(Full 8 Port(1,2,3,4,5,6,7,8)) 
!S51(Full 8 Port(1,2,3,4,5,6,7,8)) 
!S52(Full 8 Port(1,2,3,4,5,6,7,8)) 
!S53(Full 8 Port(1,2,3,4,5,6,7,8)) 
!S54(Full 8 Port(1,2,3,4,5,6,7,8)) 
!S55(Full 8 Port(1,2,3,4,5,6,7,8)) 
!S56(Full 8 Port(1,2,3,4,5,6,7,8)) 
!S57(Full 8 Port(1,2,3,4,5,6,7,8)) 
!S58(Full 8 Port(1,2,3,4,5,6,7,8)) 
!S61(Full 8 Port(1,2,3,4,5,6,7,8)) 
!S62(Full 8 Port(1,2,3,4,5,6,7,8)) 
!S63(Full 8 Port(1,2,3,4,5,6,7,8)) 
!S64(Full 8 Port(1,2,3,4,5,6,7,8)) 
!S65(Full 8 Port(1,2,3,4,5,6,7,8)) 
!S66(Full 8 Port(1,2,3,4,5,6,7,8)) 
!S67(Full 8 Port(1,2,3,4,5,6,7,8)) 
!S68(Full 8 Port(1,2,3,4,5,6,7,8)) 
!S71(Full 8 Port(1,2,3,4,5,6,7,8)) 
!S72(Full 8 Port(1,2,3,4,5,6,7,8)) 
!S73(Full 8 Port(1,2,3,4,5,6,7,8)) 
!S74(Full 8 Port(1,2,3,4,5,6,7,8)) 
!S75(Full 8 Port(1,2,3,4,5,6,7,8)) 
!S76(Full 8 Port(1,2,3,4,5,6,7,8)) 
!S77(Full 8 Port(1,2,3,4,5,6,7,8)) 
!S78(Full 8 Port(1,2,3,4,5,6,7,8)) 
!S81(Full 8 Port(1,2,3,4,5,6,7,8)) 
!S82(Full 8 Port(1,2,3,4,5,6,7,8)) 
!S83(Full 8 Port(1,2,3,4,5,6,7,8)) 
!S84(Full 8 Port(1,2,3,4,5,6,7,8)) 
!S85(Full 8 Port(1,2,3,4,5,6,7,8)) 
!S86(Full 8 Port(1,2,3,4,5,6,7,8)) 
!S87(Full 8 Port(1,2,3,4,5,6,7,8)) 
!S88(Full 8 Port(1,2,3,4,5,6,7,8)) 
!S8P File: Measurements: <S11,S12,S13,S14,S15,S16,S17,S18>,
!<S21,S22,S23,S24,S25,S26,S27,S28>,
!<S31,S32,S33,S34,S35,S36,S37,S38>,
!<S41,S42,S43,S44,S45,S46,S47,S48>,
!<S51,S52,S53,S54,S55,S56,S57,S58>,
!<S61,S62,S63,S64,S65,S66,S67,S68>,
!<S71,S72,S73,S74,S75,S76,S77,S78>,
!<S81,S82,S83,S84,S85,S86,S87,S88>:
# Hz S  RI   R 50
10000000 0.25287235 0.004283214 0.25000212 0.0060622185 0.0615522 0.056088388 0.061534651 0.056038935
0.081314467 -0.01921444 0.081669942 -0.016008005 0.068625391 0.047072519 0.068427928 0.047710527
0.25026506 0.0060859434 0.25238261 0.010789819 0.060669746 0.057250299 0.060697585 0.057191767
0.081691228 -0.018075172 0.082022212 -0.014757771 0.068270981 0.047668941 0.068069063 0.048326716
0.057279982 -0.059805572 0.058184657 -0.058817647 0.25119096 0.0057892133 0.24951476 0.0029298123
0.063383728 0.053926099 0.061504759 0.055400513 0.081659384 -0.013546874 0.081820175 -0.012847504
0.057578593 -0.060287155 0.058656905 -0.059183095 0.25076368 0.003151993 0.2532236 0.001251156
0.06414675 0.053925734 0.062206618 0.055496667 0.081924915 -0.014710722 0.08247149 -0.013259739
0.082766011 0.0063745929 0.08260642 0.0076229018 0.060076859 -0.057523668 0.059636902 -0.057872601
0.25427565 -0.003423691 0.25165322 0.0047415867 0.061929982 0.055530332 0.060556561 0.057281006
0.082134709 0.010133324 0.081913114 0.011370223 0.061698187 -0.05524962 0.061393186 -0.055546205
0.25162175 0.006282202 0.25175726 0.014228848 0.059492279 0.057801984 0.05793782 0.059535109
0.066838682 -0.049573768 0.067081824 -0.048928194 0.082382642 0.011848572 0.082306825 0.010603664
0.056959499 -0.061017528 0.058780205 -0.058854889 0.2527386 -0.00097284943 0.2499533 -0.00048547899
0.067348205 -0.049211565 0.067685954 -0.04850905 0.082315631 0.012607589 0.082391061 0.012254203
0.058711998 -0.059608728 0.060614586 -0.057297494 0.25004742 -0.00021320373 0.25292096 0.0078181494
10490490.49049 0.25270975 0.0076384842 0.25003922 0.0052725892 0.081215829 -0.017512994 0.081365697 -0.016941698
0.082934529 -0.0015695936 0.082976952 -0.0014859217 0.082193635 -0.012152045 0.082117386 -0.013193117
0.24982549 0.0052996571 0.25272936 0.0059933434 0.081345603 -0.017357079 0.081495337 -0.016673824
0.083007894 -0.0016243176 0.083032794 -0.0014789995 0.08211679 -0.012707185 0.082027815 -0.013728789
0.082216516 0.011911037 0.082260244 0.012110282 0.25223941 0.0035491448 0.2499796 0.002950534
0.081883989 -0.015115863 0.081610516 -0.01605529 0.083089389 0.00239868 0.083071396 0.0014924434
0.082150683 0.012550221 0.082202718 0.012746417 0.24978372 0.0029787992 0.25234523 0.0035727907
0.081852265 -0.014982706 0.081644557 -0.015776774 0.082925633 0.0019376379 0.083148926 0.00193744
0.082620658 -0.0073532034 0.082701236 -0.007414795 0.082107037 0.012849377 0.082123719 0.012971818
0.25198084 0.0079143103 0.25021315 0.0058328998 0.081517167 -0.015973521 0.081762411 -0.015385573
0.082671352 -0.0074412492 0.082755849 -0.0074401102 0.082272798 0.011764076 0.082220703 0.012037032
0.25016022 0.0055199848 0.25207415 0.0027415326 0.081515066 -0.01648974 0.081757575 -0.015753862
0.082337432 0.011585101 0.08237572 0.010979706 0.083034478 -0.0033656026 0.082861833 -0.0038153899
0.081897497 0.013527039 0.081998579 0.013141919 0.25270569 0.0045717699 0.24968892 -0.00055451068
0.082464524 0.010529579 0.082559638 0.010031237 0.082890935 -0.0042903367 0.083055079 -0.0038806316
0.081831828 0.014161042 0.081967764 0.013911169 0.24940708 -0.0005168608 0.25268829 0.0025318093
10980980.980981 0.25278947 0.0078446511 0.24981251 0.0056725135 0.082173608 -0.011623684 0.082359381 -0.011014933
0.082765445 -0.0031256303 0.083079375 -0.0027990949 0.082803786 -0.0073429057 0.082709447 -0.0083299167
0.24981649 0.0057350933 0.25277442 0.0067116925 0.082322948 -0.011332013 0.082476757 -0.010686426
0.082863487 -0.0030830777 0.083124273 -0.0026865527 0.082690082 -0.0078853583 0.082713649 -0.0087643247
0.082909741 0.0057395315 0.082930803 0.0060375859 0.25227726 0.0039476543 0.24973539 0.0031813299
0.082565196 -0.0095166955 0.082513854 -0.010223225 0.082855009 0.0011782022 0.082913034 0.0003306306
0.082872428 0.0063464716 0.082893774 0.0066609713 0.24982215 0.0032043906 0.25237006 0.0036308391
0.082509458 -0.0094162365 0.082581639 -0.0099968184 0.082703851 0.00063442683 0.083005898 0.00071498705
0.082667582 -0.0065263365 0.082732923 -0.0064456873 0.082814477 0.0069321888 0.082782358 0.0070159161
0.2518909 0.0074514886 0.25033474 0.0061422181 0.082325347 -0.010150017 0.082655996 -0.0093840668
0.082728699 -0.0062729474 0.082790606 -0.0061738752 0.082866184 0.0061287587 0.082778811 0.0063522835
0.25016478 0.0059081321 0.25209868 0.0038451352 0.082352124 -0.010391027 0.082673669 -0.0094822738
0.08279489 0.0066018063 0.082829937 0.0060955272 0.083264485 -0.0022201152 0.082687415 -0.0027340204
0.082590662 0.0071505047 0.082798809 0.0070933583 0.25283912 0.0044200234 0.24969833 -0.00048835279
0.082884222 0.0056651975 0.082960516 0.0052136788 0.083096102 -0.0030125224 0.082942411 -0.0026665342
0.082505882 0.00800227 0.082864687 0.0080248695 0.24936286 -0.00042484651 0.25289491 0.0030994115
11471471.471471 0.25287625 0.0078739338 0.24994139 0.0061391303 0.082972094 -0.0030326445 0.08303345 -0.0024969249
0.082783945 -0.0052604889 0.082838468 -0.0045754183 0.08305119 -0.0004771032 0.083098985 -0.0013305545
0.24988763 0.006165762 0.25279948 0.0076142824 0.08310952 -0.0025840262 0.083107263 -0.0020004448
0.082830809 -0.0050650383 0.082909845 -0.0042729517 0.08301381 -0.00090427947 0.083110705 -0.0016179211
0.082942337 -0.0030490214 0.083030947 -0.002593912 0.25244492 0.0044428078 0.24991198 0.0034142833
0.083167911 -0.0014754713 0.08312206 -0.0018526334 0.083070837 -0.00052279409 0.083017364 -0.001217894
0.083000459 -0.0025173028 0.083149113 -0.0020099261 0.24976826 0.0034445163 0.25239226 0.0036101374
0.083183594 -0.0014771587 0.083118714 -0.0017084066 0.082864359 -0.0011504117 0.083116114 -0.00091791264
0.082687214 -0.0052609155 0.082787812 -0.0050686793 0.083125606 -0.0015061557 0.083140478 -0.0014707276
0.25220057 0.0066002128 0.25024369 0.0063613132 0.083030082 -0.0018399493 0.083142631 -0.00082056312
0.08280804 -0.004561862 0.082894139 -0.0043119187 0.08310321 -0.0018822235 0.08309453 -0.0017470459
0.25017449 0.0063018641 0.25215676 0.005270083 0.083089545 -0.0016309875 0.083211273 -0.00046108404
0.083072864 -0.00048657585 0.083046347 -0.00091111544 0.083040506 -0.00057015405 0.082903884 -0.0011729379
0.082986489 -0.001774115 0.083014689 -0.0015816094 0.25288504 0.0040918044 0.24959829 -0.00040678136
0.083099373 -0.0013242323 0.083093539 -0.0016278633 0.082942538 -0.0012310888 0.083102472 -0.00090315111
0.083079435 -0.00076576712 0.083173469 -0.00042773996 0.24938981 -0.00035663258 0.25275448 0.0038638057
11961961.961962 0.25301263 0.0082751149 0.24999483 0.0064752423 0.082958549 -0.0031781076 0.083012417 -0.0026090159
0.082742952 -0.0054854285 0.082818091 -0.0047042407 0.083056629 -0.0005133322 0.08310236 -0.0013531666
0.24991354 0.0064650467 0.25290671 0.0079721939 0.08306881 -0.0026909267 0.08313898 -0.0020602024
0.08283028 -0.0052514845 0.082861044 -0.0044601322 0.08304166 -0.00093078567 0.083100609 -0.0016714493
0.082915463 -0.0031697676 0.083014235 -0.0026793021 0.25250575 0.0046526953 0.24993238 0.0036731625
0.083185062 -0.0015080223 0.083103031 -0.0018942379 0.083052643 -0.00055401254 0.08296559 -0.001231761
0.082998194 -0.002615792 0.083110005 -0.0020764438 0.24982926 0.0036567729 0.25246158 0.0038113513
0.08318124 -0.0015153431 0.083074361 -0.0017369926 0.08287929 -0.0012156159 0.083095074 -0.00091841089
0.082685389 -0.005456463 0.082785681 -0.0052546519 0.083144121 -0.0015167696 0.083113596 -0.0015113046
0.25226274 0.0068642711 0.25029635 0.0066804443 0.083004914 -0.0018981827 0.083122596 -0.00081886561
0.082799718 -0.0047353958 0.082891949 -0.0044761766 0.083085634 -0.0019317609 0.083092324 -0.0017988818
0.25023463 0.0066549578 0.25222668 0.0054896357 0.083089188 -0.0016852312 0.083194278 -0.00045773917
0.083072469 -0.00049268536 0.083027184 -0.00090633513 0.083018303 -0.00054004428 0.082851551 -0.0011844453
0.082988031 -0.0018716922 0.083025828 -0.0016121794 0.25301915 0.0042568874 0.24960478 -0.00036281752
0.083079025 -0.0013586145 0.083092108 -0.0016756116 0.082923651 -0.001225021 0.083086044 -0.00090806221
0.083077908 -0.00079216593 0.083153643 -0.00041515226 0.24941006 -0.00032432307 0.25286892 0.0040989877
12452452.452452 0.2531102 0.0086383941 0.25002351 0.006819448 0.082942158 -0.0032523558 0.082989551 -0.0026976154
0.082725182 -0.0056807306 0.082803242 -0.0048806416 0.083061248 -0.00049924041 0.083103992 -0.0013884371
0.24995524 0.006821353 0.25301075 0.0083178487 0.083080448 -0.0027909286 0.083124876 -0.0021121479
0.082738258 -0.0054490925 0.082875721 -0.0045942212 0.083043464 -0.00096142734 0.083073698 -0.001718102
0.08292947 -0.0032553191 0.083027862 -0.0027464998 0.2525931 0.0048386264 0.24991579 0.0038853828
0.083169572 -0.0015715614 0.083129399 -0.0019573881 0.08302848 -0.00053898175 0.082922563 -0.0012944893
0.082948789 -0.0026789126 0.083108708 -0.0021148657 0.24981877 0.0038680984 0.2525695 0.0040219491
0.083148353 -0.0015836238 0.08311893 -0.0017752979 0.082850181 -0.0012325643 0.08310543 -0.000929214
0.082681552 -0.0056659365 0.082763001 -0.0054457802 0.083107539 -0.0015538624 0.083126739 -0.001574363
0.25236785 0.0071582338 0.25031835 0.0070114383 0.083029151 -0.0019472449 0.083140127 -0.0008281726
0.082774162 -0.0049278489 0.082858734 -0.0046212198 0.083095066 -0.0020014246 0.083073117 -0.0018202348
0.25029731 0.0069877463 0.25237811 0.0057699159 0.083071619 -0.0016895973 0.083214104 -0.00046586481
0.083073251 -0.00047026723 0.083037548 -0.00092579261 0.08303377 -0.0005811216 0.082852788 -0.0012358038
0.082960144 -0.001928632 0.083004959 -0.0016955886 0.25309351 0.0044796886 0.24960433 -0.00031243701
0.083103739 -0.0013675417 0.083092645 -0.0017229936 0.082923122 -0.0012506576 0.083072618 -0.00096865289
0.08306177 -0.00077779888 0.083166748 -0.00039410649 0.24939629 -0.00027986447 0.25292817 0.0042609531
12942942.942943 0.25313932 0.0089983512 0.25012484 0.0071421703 0.082952961 -0.0033636906 0.083032444 -0.0027464095
0.082739688 -0.0058800373 0.082815163 -0.0050256466 0.08306849 -0.00045369272 0.083106898 -0.0014333177
0.24991342 0.0071623782 0.25319159 0.0086737769 0.083040901 -0.00285649 0.083126791 -0.0021614106
0.082770444 -0.0056194146 0.082864992 -0.0047710198 0.0830281 -0.00094656361 0.083074018 -0.0018046816
0.08288902 -0.0033242556 0.083022527 -0.0028347806 0.2526904 0.0050618635 0.24991991 0.0041050366
0.083178855 -0.0015771963 0.083090529 -0.0020071219 0.082996421 -0.00052632502 0.082927637 -0.0013002555
0.082957588 -0.0027339919 0.083087184 -0.0021665634 0.24981855 0.0040752348 0.25270459 0.0042254655
0.083167702 -0.0015887562 0.083102927 -0.0018645489 0.082777523 -0.0012235841 0.0830779 -0.00097334996
0.082633436 -0.0058518797 0.082762145 -0.0056221234 0.083141811 -0.0016255279 0.0831571 -0.0015732818
0.25256896 0.0074333576 0.25032848 0.0073363348 0.082993783 -0.0020112155 0.083150789 -0.00083035801
0.082719781 -0.0050763236 0.08287368 -0.0048035462 0.083065279 -0.0020542899 0.08308848 -0.0018925824
0.25044423 0.0072838045 0.25243291 0.0060225134 0.083066933 -0.0017342273 0.083216488 -0.00042546191
0.083031066 -0.0004745707 0.08305756 -0.0009342882 0.083014473 -0.0005693523 0.082845479 -0.0012665
0.082989126 -0.0019866629 0.083030231 -0.0016936532 0.25305781 0.0046715038 0.24959198 -0.00021382992
0.083049282 -0.0014080608 0.083091535 -0.0017450132 0.082880579 -0.0013111619 0.083088525 -0.00095389917
0.083069675 -0.00078499306 0.083167404 -0.00040944747 0.2493206 -0.00017125923 0.25303626 0.0044210977
13433433.433433 0.25333035 0.009373039 0.25014809 0.0074844155 0.082973689 -0.0034776498 0.083041213 -0.002814234
0.082693435 -0.0060585188 0.082797013 -0.0052294759 0.083102107 -0.00049084087 0.083135083 -0.0014128454
0.25007227 0.0074777501 0.25322548 0.0090245781 0.083036795 -0.0029380138 0.083103344 -0.0022231508
0.0827545 -0.0057950593 0.082825266 -0.0049241115 0.083014324 -0.00097210979 0.083087757 -0.0017591376
0.082903937 -0.0034032238 0.083026811 -0.0029301289 0.25285408 0.0052918941 0.24999827 0.0043469463
0.083159029 -0.001622727 0.083139569 -0.0020942914 0.083050512 -0.00054441585 0.082925446 -0.0013176606
0.082942426 -0.0028357548 0.083057709 -0.0022111125 0.24993937 0.0043356232 0.25278428 0.0043771961
0.083147466 -0.001638197 0.083080545 -0.0018879449 0.082801126 -0.0012587101 0.083041571 -0.00094622071
0.082604103 -0.0060592815 0.08268512 -0.0057919212 0.083150156 -0.0016476064 0.083111979 -0.0016174569
0.25256079 0.0077487133 0.25044549 0.0076601594 0.083028086 -0.0020564871 0.083202258 -0.00084562303
0.082722515 -0.0052527105 0.082793303 -0.004955817 0.083065696 -0.0021308991 0.083075836 -0.0019668012
0.25038704 0.0076527917 0.25251985 0.0062617115 0.083034523 -0.0017900638 0.083214946 -0.00041169897
0.083076112 -0.00046828439 0.083019599 -0.00092576898 0.083039209 -0.0005403267 0.082767762 -0.0012531021
0.082992323 -0.0019989505 0.083015732 -0.0017275328 0.25334147 0.0048389048 0.24962837 -0.00015802331
0.083073534 -0.001443597 0.083060391 -0.0018094362 0.08289203 -0.0012836598 0.08305236 -0.00096497807
0.083075881 -0.00077218789 0.083165482 -0.00038775409 0.24944793 -0.00012735484 0.25313687 0.0046081333
13923923.923924 0.25346059 0.0098244995 0.25017494 0.0078647444 0.082956664 -0.0035508948 0.083060011 -0.0029069295
0.082696855 -0.0062152883 0.082799785 -0.0053599393 0.083124168 -0.00047574792 0.083151378 -0.0014446381
0.2501317 0.007865265 0.25329503 0.0093757808 0.083037123 -0.002992081 0.083100632 -0.0023060546
0.08274775 -0.0059792697 0.082847901 -0.0050764102 0.083004586 -0.00095212192 0.083048299 -0.0018157234
0.08292111 -0.0035011373 0.083009042 -0.0029988221 0.25294334 0.0055596996 0.25004664 0.0045791096
0.083158188 -0.0016366119 0.083107553 -0.0021070917 0.083039522 -0.00047172551 0.08295168 -0.0012907552
0.082957312 -0.0028919422 0.083069436 -0.0022995567 0.24998523 0.0045309244 0.25286734 0.0046001989
0.083129711 -0.0016648639 0.083057016 -0.0019201088 0.082812011 -0.0012763543 0.083026528 -0.00097758847
0.082597613 -0.0062249713 0.0826938 -0.0059884205 0.083140023 -0.0016832671 0.083115228 -0.0016523104
0.25269988 0.0080608679 0.25048122 0.0079986379 0.082995728 -0.0020627426 0.083133236 -0.0008225519
0.082702823 -0.0054026763 0.082770571 -0.0051064268 0.083041504 -0.0021741784 0.083048798 -0.0019529603
0.2504403 0.007978634 0.25264207 0.0065133264 0.083064847 -0.001830032 0.08320982 -0.00042782928
0.083068974 -0.00044789867 0.082987353 -0.0009509006 0.083008774 -0.00056361372 0.082788818 -0.0012398557
0.082979806 -0.0020373533 0.083028398 -0.0017838643 0.25344324 0.0051124692 0.2496064 -8.4968648e-005
0.083051212 -0.0014322312 0.083076268 -0.0018449272 0.082865693 -0.0013134074 0.083051525 -0.00098800589
0.083096765 -0.00077692076 0.083167061 -0.00037796766 0.24947463 -5.0080816e-005 0.25328153 0.0048541101
14414414.414414 0.25360239 0.010187481 0.25022447 0.0082257623 0.08296001 -0.0036335003 0.08303389 -0.0029516288
0.082663447 -0.0064291032 0.082763694 -0.0055267853 0.083119392 -0.0004308442 0.083167963 -0.001488292
0.25019917 0.0082078185 0.25347972 0.0097575076 0.08301232 -0.003088719 0.083109416 -0.0023066523
0.08267308 -0.006184577 0.08278285 -0.0052101975 0.083020441 -0.00095218909 0.083076857 -0.0018848284
0.082905114 -0.0036078347 0.082994811 -0.003060638 0.2530742 0.0057690856 0.25010461 0.0048374301
0.083164141 -0.0016670668 0.083137423 -0.0021694333 0.083029389 -0.00051386078 0.082902871 -0.0013267847
0.082907312 -0.0029868246 0.083056279 -0.0023070564 0.25001368 0.0047757756 0.25298709 0.0047970763
0.083124898 -0.0016731482 0.083075389 -0.001977087 0.082780264 -0.0013098702 0.08303453 -0.00096669234
0.082564555 -0.0064150705 0.08266335 -0.0061675631 0.083136097 -0.0017390964 0.083113946 -0.0016913755
0.25278395 0.0083969599 0.25055629 0.0083184242 0.083010405 -0.0021248271 0.083168358 -0.00085762306
0.082650557 -0.0055731898 0.082785152 -0.0052654729 0.083048105 -0.0022192451 0.083052211 -0.002002324
0.25052422 0.008326726 0.25272647 0.0067624412 0.083058886 -0.0018889816 0.083233595 -0.00041277849
0.083072446 -0.00041964682 0.082997784 -0.00092157535 0.083010301 -0.00054708787 0.082761981 -0.0012651152
0.082956053 -0.0020981883 0.083017752 -0.0018434428 0.25355992 0.0052978937 0.24968055 1.2416533e-006
0.083056346 -0.0014399791 0.083054006 -0.0018522883 0.08288601 -0.0013530242 0.083061814 -0.00095664023
0.08304321 -0.00078596681 0.083193451 -0.00034062061 0.24951641 1.6370957e-005 0.25341415 0.0050509693
14904904.904905 0.2537851 0.010569386 0.25034866 0.0085581811 0.082937382 -0.0037490895 0.08303722 -0.0030526489
0.082628988 -0.0066006435 0.082779802 -0.0056869169 0.083122671 -0.00041663923 0.083158419 -0.0014881216
0.25032935 0.0085678995 0.25360963 0.01011043 0.08299683 -0.0031830953 0.083138175 -0.0024049596
0.082698904 -0.0063407258 0.082792282 -0.0053704018 0.08301308 -0.00096451351 0.083079726 -0.0019261695
0.082907848 -0.0036819947 0.083002694 -0.003125387 0.25320283 0.0059886579 0.25009486 0.0051178634
0.08318802 -0.0016803613 0.083122268 -0.0022119852 0.083022594 -0.00048508574 0.082895294 -0.0013314362
