!Agilent Technologies,M9370A,MY54322275,A.02.50.04
!Agilent M9370A: A.02.50.04
!Date: Friday, August 17, 2018 13:07:12
!Correction: S11(Full 8 Port(1,2,3,4,5,6,7,8)) 
!S12(Full 8 Port(1,2,3,4,5,6,7,8)) 
!S13(Full 8 Port(1,2,3,4,5,6,7,8)) 
!S14(Full 8 Port(1,2,3,4,5,6,7,8)) 
!S15(Full 8 Port(1,2,3,4,5,6,7,8)) 
!S16(Full 8 Port(1,2,3,4,5,6,7,8)) 
!S17(Full 8 Port(1,2,3,4,5,6,7,8)) 
!S18(Full 8 Port(1,2,3,4,5,6,7,8)) 
!S21(Full 8 Port(1,2,3,4,5,6,7,8)) 
!S22(Full 8 Port(1,2,3,4,5,6,7,8)) 
!S23(Full 8 Port(1,2,3,4,5,6,7,8)) 
!S24(Full 8 Port(1,2,3,4,5,6,7,8)) 
!S25(Full 8 Port(1,2,3,4,5,6,7,8)) 
!S26(Full 8 Port(1,2,3,4,5,6,7,8)) 
!S27(Full 8 Port(1,2,3,4,5,6,7,8)) 
!S28(Full 8 Port(1,2,3,4,5,6,7,8)) 
!S31(Full 8 Port(1,2,3,4,5,6,7,8)) 
!S32(Full 8 Port(1,2,3,4,5,6,7,8)) 
!S33(Full 8 Port(1,2,3,4,5,6,7,8)) 
!S34(Full 8 Port(1,2,3,4,5,6,7,8)) 
!S35(Full 8 Port(1,2,3,4,5,6,7,8)) 
!S36(Full 8 Port(1,2,3,4,5,6,7,8)) 
!S37(Full 8 Port(1,2,3,4,5,6,7,8)) 
!S38(Full 8 Port(1,2,3,4,5,6,7,8)) 
!S41(Full 8 Port(1,2,3,4,5,6,7,8)) 
!S42(Full 8 Port(1,2,3,4,5,6,7,8)) 
!S43(Full 8 Port(1,2,3,4,5,6,7,8)) 
!S44(Full 8 Port(1,2,3,4,5,6,7,8)) 
!S45(Full 8 Port(1,2,3,4,5,6,7,8)) 
!S46(Full 8 Port(1,2,3,4,5,6,7,8)) 
!S47(Full 8 Port(1,2,3,4,5,6,7,8)) 
!S48(Full 8 Port(1,2,3,4,5,6,7,8)) 
!S51(Full 8 Port(1,2,3,4,5,6,7,8)) 
!S52(Full 8 Port(1,2,3,4,5,6,7,8)) 
!S53(Full 8 Port(1,2,3,4,5,6,7,8)) 
!S54(Full 8 Port(1,2,3,4,5,6,7,8)) 
!S55(Full 8 Port(1,2,3,4,5,6,7,8)) 
!S56(Full 8 Port(1,2,3,4,5,6,7,8)) 
!S57(Full 8 Port(1,2,3,4,5,6,7,8)) 
!S58(Full 8 Port(1,2,3,4,5,6,7,8)) 
!S61(Full 8 Port(1,2,3,4,5,6,7,8)) 
!S62(Full 8 Port(1,2,3,4,5,6,7,8)) 
!S63(Full 8 Port(1,2,3,4,5,6,7,8)) 
!S64(Full 8 Port(1,2,3,4,5,6,7,8)) 
!S65(Full 8 Port(1,2,3,4,5,6,7,8)) 
!S66(Full 8 Port(1,2,3,4,5,6,7,8)) 
!S67(Full 8 Port(1,2,3,4,5,6,7,8)) 
!S68(Full 8 Port(1,2,3,4,5,6,7,8)) 
!S71(Full 8 Port(1,2,3,4,5,6,7,8)) 
!S72(Full 8 Port(1,2,3,4,5,6,7,8)) 
!S73(Full 8 Port(1,2,3,4,5,6,7,8)) 
!S74(Full 8 Port(1,2,3,4,5,6,7,8)) 
!S75(Full 8 Port(1,2,3,4,5,6,7,8)) 
!S76(Full 8 Port(1,2,3,4,5,6,7,8)) 
!S77(Full 8 Port(1,2,3,4,5,6,7,8)) 
!S78(Full 8 Port(1,2,3,4,5,6,7,8)) 
!S81(Full 8 Port(1,2,3,4,5,6,7,8)) 
!S82(Full 8 Port(1,2,3,4,5,6,7,8)) 
!S83(Full 8 Port(1,2,3,4,5,6,7,8)) 
!S84(Full 8 Port(1,2,3,4,5,6,7,8)) 
!S85(Full 8 Port(1,2,3,4,5,6,7,8)) 
!S86(Full 8 Port(1,2,3,4,5,6,7,8)) 
!S87(Full 8 Port(1,2,3,4,5,6,7,8)) 
!S88(Full 8 Port(1,2,3,4,5,6,7,8)) 
!S8P File: Measurements: <S11,S12,S13,S14,S15,S16,S17,S18>,
!<S21,S22,S23,S24,S25,S26,S27,S28>,
!<S31,S32,S33,S34,S35,S36,S37,S38>,
!<S41,S42,S43,S44,S45,S46,S47,S48>,
!<S51,S52,S53,S54,S55,S56,S57,S58>,
!<S61,S62,S63,S64,S65,S66,S67,S68>,
!<S71,S72,S73,S74,S75,S76,S77,S78>,
!<S81,S82,S83,S84,S85,S86,S87,S88>:
# Hz S  RI   R 50
1000000 0.25226158 0.053306505 0.24583496 0.0085215569 0.080848984 0.0041820249 0.080770038 0.004203523
0.080807537 0.0042436095 0.081137247 0.0042128582 0.081127517 0.0043806196 0.081670105 0.00420987
0.24564315 0.0085396739 0.2511934 0.051860232 0.080755703 0.0042520547 0.080673501 0.0042844568
0.080755301 0.0041956627 0.080501243 0.004298158 0.08087521 0.0043993467 0.080839679 0.0042928895
0.080758289 0.0042437543 0.080673911 0.0043440019 0.25177652 0.055142812 0.2446368 0.008576029
0.080622651 0.0042291642 0.080410182 0.0042296383 0.080912396 0.0040432648 0.080260381 0.0040663197
0.080820709 0.0043355557 0.080742374 0.0044567804 0.24487314 0.0088758282 0.25176424 0.055151466
0.080579467 0.0042828359 0.080434628 0.0042826571 0.080669001 0.0041715237 0.081122793 0.0040824939
0.080743186 0.0044085314 0.080675162 0.0043981862 0.080618143 0.0043740221 0.080572836 0.0043384414
0.25358611 0.059337486 0.24444354 0.0075012087 0.08032579 0.0043327142 0.080403529 0.0042397971
0.080673791 0.0044310736 0.080595069 0.0044997623 0.080532692 0.0043581575 0.080504604 0.0043315827
0.24501897 0.0075425841 0.25107321 0.055059113 0.080545112 0.0044689071 0.080493376 0.0044132615
0.080702111 0.004436201 0.0805915 0.0044935318 0.080562472 0.0041061598 0.08051271 0.0041022622
0.080584884 0.0041877427 0.080354951 0.004368227 0.25168973 0.056836717 0.2447069 0.0086555732
0.080692045 0.0043371064 0.080588363 0.0044115148 0.080542997 0.0041109947 0.080522276 0.0041200807
0.08057709 0.0041530766 0.08035589 0.0043548653 0.24477986 0.0088834632 0.25126404 0.056948584
1405625 0.25108901 0.003467534 0.25005192 0.0018181697 0.083267517 0.00016439825 0.083283357 0.00023965682
0.083309852 0.00061008293 0.083212152 0.00033624226 0.083290994 0.00036535563 0.083267763 0.00031798179
0.24994363 0.001876208 0.25105706 0.0031260692 0.083217666 0.00019806641 0.083219528 0.00026516381
0.08323244 0.00047893004 0.083144873 0.00030984805 0.083228387 0.00030942203 0.083207272 0.00027635429
0.083250768 0.00018561102 0.083224617 0.00020405882 0.25133544 0.0038334189 0.24981771 0.0022023947
0.083249874 0.00055032759 0.083174646 0.00025137994 0.083221771 -0.0001219222 0.08319167 -3.730223e-005
0.083237015 0.00021313294 0.083231412 0.00026952921 0.24974643 0.002255701 0.25121152 0.003771648
0.083252199 0.00052967964 0.083171941 0.00023665804 0.083237864 -9.0890091e-005 0.083193995 -1.1759615e-005
0.083231039 0.00058938365 0.083225109 0.0004703725 0.083223961 0.00055369723 0.083246432 0.00054991822
0.25161484 0.0045807553 0.2499432 0.0014731504 0.08328522 0.0004005807 0.083260268 0.00042720351
0.083180092 0.00034969984 0.0831782 0.00033026416 0.083147295 0.00026652959 0.083175912 0.00026526806
0.24988599 0.0015486649 0.25093043 0.0034760181 0.083216377 0.00037310508 0.083182447 0.00041905275
0.083272576 0.00042631791 0.083247721 0.0003878549 0.083212867 -4.9535902e-005 0.083220221 -1.7008937e-005
0.083230689 0.00045016242 0.083166368 0.00039705844 0.25091308 0.0038069047 0.25003695 0.002385488
0.083259776 0.00033958958 0.083241925 0.00031090414 0.083201185 1.3098699e-005 0.08323615 5.8847359e-005
0.083221033 0.00044072169 0.083169743 0.00042974952 0.25008458 0.0024287009 0.25085381 0.0036338298
1811250 0.25101402 0.0065210001 0.24988437 0.0026065921 0.083214805 0.00045020145 0.083246291 0.00054472551
0.083229959 0.0009855259 0.083170108 0.00071305683 0.083252273 0.00070067449 0.083223328 0.00064290938
0.24977364 0.0026557799 0.25096723 0.0060481383 0.08316958 0.0004911648 0.083184987 0.00057624688
0.083151221 0.00081941468 0.08310362 0.00067702634 0.083191723 0.00062859699 0.083168365 0.00058692938
0.083219908 0.00047004202 0.083193175 0.00050134753 0.25127938 0.0071022976 0.24967147 0.0031082497
0.083176568 0.00090664288 0.083152957 0.00060660276 0.083186753 7.8993369e-005 0.083139546 0.00019013969
0.08321736 0.00050619332 0.083205618 0.00058590859 0.24959281 0.0031564448 0.25118485 0.0069381371
0.083179429 0.00088616833 0.083156861 0.00058699178 0.083205715 0.00011800873 0.08314696 0.00022130554
0.083261818 0.00095274858 0.083231032 0.0008066523 0.083226502 0.00091737165 0.083255142 0.00090435467
0.25189957 0.0076889768 0.24991415 0.0021417306 0.0832908 0.00070904347 0.083262466 0.00074774947
0.083156034 0.00074308307 0.08315748 0.00072237465 0.083117746 0.00064268993 0.083152719 0.00063506601
0.24960648 0.0022785137 0.25089568 0.006663579 0.083189599 0.00076901721 0.08315412 0.00083335396
0.083237216 0.00078720698 0.083213881 0.00073760789 0.083165228 0.00017319458 0.083186112 0.00021728178
0.083158389 0.00077552523 0.083142959 0.00079074712 0.25086713 0.0071202409 0.24984996 0.0033151924
0.083218746 0.00069204863 0.083203591 0.00065754092 0.083154418 0.00026969923 0.083195128 0.00033025403
0.083139122 0.00077779946 0.083142914 0.0008474004 0.24990444 0.0034069968 0.25073984 0.0068706693
2216875 0.25116849 0.0032513835 0.25005251 0.0019423369 0.083328955 -5.0626499e-005 0.083343618 5.4797369e-005
0.083324507 0.00047107204 0.083310761 0.00028832947 0.083354682 0.0002356864 0.083333999 0.00015749413
0.24992926 0.0020150691 0.25112319 0.002981754 0.083271064 3.483456e-005 0.083273999 0.00013278161
0.083230123 0.00031039343 0.083249889 0.00027863131 0.083287336 0.00018984858 0.083269149 0.00012621073
0.083319589 -1.6191769e-005 0.083292671 6.1041304e-005 0.25149029 0.0037882959 0.24984367 0.0023562503
0.083267681 0.0003731288 0.083280608 0.00015064211 0.083285756 -0.00053148117 0.083268739 -0.00040184261
0.083293013 7.462447e-005 0.08327613 0.00020883082 0.24974015 0.0025664764 0.25124457 0.003626067
0.083239272 0.00039577571 0.083255574 0.00017675533 0.083275877 -0.00044038764 0.083241776 -0.00031582807
0.083227083 0.00052207662 0.083187938 0.00037127806 0.083202541 0.0004696204 0.08321593 0.00044030527
0.25152412 0.0035132407 0.24972509 0.0010837998 0.083250232 0.00018103977 0.0832325 0.00022951425
0.083247297 0.0004002277 0.08324904 0.00039924387 0.083221607 0.0002536673 0.083242022 0.00023773478
0.2497112 0.001193224 0.25111267 0.0033720839 0.083283164 0.00038411468 0.083259515 0.00045690889
0.083334945 0.00037073941 0.083311968 0.00034048472 0.083271131 -0.00039537577 0.083275221 -0.00035179176
0.083245352 0.00021060821 0.083268128 0.00037494808 0.25099471 0.0036431607 0.2500526 0.0025705106
0.08331573 0.00025189715 0.083300404 0.00023924964 0.083262436 -0.00028066072 0.083288766 -0.00021609828
0.083232731 0.00021286737 0.083270527 0.00044259289 0.25008062 0.0026813322 0.25095326 0.0032251042
2622500 0.25121015 0.0031841523 0.25010327 0.0017539246 0.083353415 -0.00021437976 0.083365977 -9.5057723e-005
0.083344832 0.00038968306 0.08333879 0.00019719405 0.083379902 0.00011719258 0.083324239 4.6793357e-005
0.24995779 0.0018911953 0.25118956 0.0028845966 0.083297312 -9.3438568e-005 0.083295651 1.1067675e-005
0.083239861 0.00021776701 0.083242662 0.0001974632 0.083307549 7.6113734e-005 0.083256818 2.8084287e-005
0.083357975 -0.00020640924 0.083339743 -0.00012277684 0.25151202 0.0038097424 0.24991363 0.0022194879
0.083295211 0.00024711399 0.083321288 5.8429468e-006 0.08331649 -0.00081279164 0.083260618 -0.00064315228
0.083305828 -6.3202096e-005 0.083301827 8.9486122e-005 0.24975902 0.0025698729 0.25127709 0.0036724743
0.083201371 0.0003109579 0.083268642 7.0114664e-005 0.083284982 -0.00066538411 0.08323735 -0.00050706702
0.083152995 0.00041540721 0.083121777 0.00024649501 0.083126768 0.00036965247 0.083136879 0.00033499816
0.25124174 0.0034015302 0.24944091 0.00069816911 0.083130896 3.5493664e-005 0.083107106 0.00010827411
0.083269924 0.00031520461 0.083283395 0.0003153781 0.083245352 0.00015927563 0.083261356 0.00013660218
0.24969147 0.00092076097 0.25117254 0.0032955967 0.083300591 0.00031315762 0.083246268 0.00041859123
0.083363913 0.00025952139 0.083350413 0.00021428785 0.083297983 -0.00063535012 0.083301045 -0.00058614218
0.083260387 6.6386448e-005 0.083298706 0.00028268472 0.25102651 0.0036260295 0.24997874 0.0025295073
0.083340496 0.00010825179 0.083332635 9.0782531e-005 0.083282918 -0.00050468335 0.083305955 -0.00042823859
0.083243825 5.9961083e-005 0.083297566 0.00035615009 0.25010061 0.0025756422 0.25083634 0.003126668
3028125 0.25126433 0.0038315458 0.25006521 0.0024099806 0.083354592 -0.00013950927 0.083385989 -2.9870134e-006
0.083349064 0.00056814321 0.083332799 0.00035549817 0.083381668 0.00025749041 0.083339661 0.00012264015
0.24995892 0.0025352216 0.251252 0.0035263856 0.083302133 -7.1942804e-006 0.083320826 0.00011158644
0.083245069 0.00037196901 0.083213091 0.0003471325 0.083317384 0.00020260141 0.083277538 9.2404036e-005
0.083372369 -0.00011004576 0.083347656 -9.6827989e-006 0.2515583 0.0045169503 0.24996361 0.002889625
0.083305463 0.00041390708 0.083321661 0.00014898648 0.083323166 -0.00081272784 0.083281793 -0.00066557148
0.083329797 4.550783e-005 0.083319627 0.0002246698 0.24979328 0.0032346135 0.25145465 0.0042771888
0.083222732 0.00047283352 0.083284676 0.00021179437 0.083300225 -0.00065758143 0.083265491 -0.00052494055
0.083243713 0.00054278568 0.083199747 0.00035332635 0.083207816 0.00046288467 0.083236143 0.00042952708
0.25153601 0.0037470828 0.24963574 0.00099684915 0.0832133 0.00011019801 0.083201826 0.00012946973
0.083278708 0.00052560639 0.083292514 0.00052404095 0.083254308 0.00031945595 0.083290122 0.00029126584
0.24969585 0.0015321723 0.25125363 0.0040281699 0.083307698 0.00052666536 0.083268546 0.00058153528
0.083368853 0.0004273098 0.083350502 0.00038669375 0.083297342 -0.00062002108 0.083318017 -0.00056069699
0.083265215 0.0002050179 0.083294399 0.00045966357 0.25108945 0.0043596928 0.24999575 0.0031399252
0.083325259 0.0002833812 0.083314091 0.00027018733 0.083264828 -0.00044153005 0.083307073 -0.00035105908
0.083226778 0.00022577614 0.083273634 0.00057081995 0.25002205 0.0034260377 0.2508474 0.0037057775
3433750 0.25136381 0.003567382 0.25020415 0.0025720084 0.08342021 -0.00023049949 0.083439909 -6.7850924e-005
0.083420396 0.00053636951 0.083395228 0.00033776398 0.083451554 0.00021676967 0.083396785 4.4173605e-005
0.25005448 0.0027271502 0.25132802 0.0032792725 0.083352298 -7.104782e-005 0.08335679 6.6778921e-005
0.083295383 0.0003179831 0.083337456 0.00033065066 0.083370447 0.00016162939 0.083319634 1.6921133e-005
0.083426662 -0.00019126153 0.083405875 -8.0785438e-005 0.25167164 0.0044110133 0.25004572 0.0031212799
0.083368175 0.00036477408 0.083380409 0.00010472847 0.083379813 -0.00099393213 0.083338581 -0.00085056544
0.08336553 2.1967576e-006 0.083358064 0.00020665776 0.24986045 0.0035866259 0.25142077 0.004138961
0.083303295 0.00045101461 0.083320484 0.00019443632 0.083334267 -0.00079494965 0.083282605 -0.00066861155
0.083194591 0.00079343363 0.083147481 0.00058357918 0.083160095 0.00070077466 0.083172269 0.00067871611
0.25129429 0.0041058799 0.24943963 0.0016972478 0.083199657 0.00029796455 0.083155088 0.00029789627
0.083321095 0.00052921678 0.083336823 0.00053088955 0.083297744 0.00028806785 0.083315782 0.00027552567
0.24978615 0.001507784 0.25131035 0.0037816842 0.083354056 0.00052628829 0.083304718 0.00056709081
0.083433747 0.00039299158 0.083418004 0.000346499 0.083356746 -0.00079149881 0.083362423 -0.00072367518
0.083335474 0.00010798164 0.083356835 0.00043150052 0.25118604 0.0041095135 0.250117 0.0032710647
0.08337938 0.00024033773 0.08337298 0.00022581909 0.083317526 -0.00058336888 0.083344117 -0.00047544614
0.083289079 0.00013778603 0.083331667 0.00056771049 0.25015196 0.0036834406 0.25088611 0.0033069998
3839375 0.25138348 0.0044013029 0.250267 0.0031104137 0.083444998 -0.00016096063 0.083468705 2.3314629e-005
0.083466254 0.00070933509 0.083425954 0.00048019638 0.083482437 0.00035127174 0.08343856 0.00017022347
0.25013661 0.0033041651 0.25133535 0.0041031768 0.083377637 2.6244903e-005 0.083388813 0.00018573664
0.083334111 0.00048074979 0.083375759 0.00048057595 0.083405785 0.00029775812 0.083364367 0.0001469319
0.083455764 -0.00012215757 0.083436027 -8.8628184e-007 0.25161675 0.0052610547 0.250029 0.0037076774
0.083393365 0.00051399542 0.08339671 0.00021134944 0.083390534 -0.0010082618 0.083362587 -0.00082839979
0.083426021 9.0125061e-005 0.083418608 0.00032242225 0.2499252 0.0041975342 0.25142661 0.0049967896
0.0833579 0.00061560259 0.083367817 0.00031362608 0.083378382 -0.00078226498 0.083337381 -0.00062652124
0.083209775 0.00093019556 0.083154857 0.00069636031 0.083154254 0.00082978298 0.083166175 0.00080199924
0.2511819 0.0047735232 0.24937028 0.0019560985 0.083200455 0.00037894229 0.083163865 0.00041209138
0.083367847 0.00074744155 0.083388381 0.00074246799 0.083329745 0.00047693585 0.083349466 0.00046040129
0.24986935 0.0021247703 0.25134805 0.0047560236 0.083390847 0.00074503553 0.083353005 0.00081512413
0.083479241 0.000557911 0.083461158 0.00050747907 0.083377056 -0.00076772831 0.083388299 -0.00069190294
0.083374143 0.0002564051 0.083388314 0.00060643075 0.25116923 0.0051043313 0.25018647 0.0040236185
0.083430856 0.00039754171 0.083423287 0.00038322917 0.083344795 -0.00052729383 0.083376169 -0.0004034265
0.083337717 0.00030104298 0.083374761 0.00076850626 0.2502116 0.0044643618 0.25093853 0.004255001
4245000 0.2517167 0.0046036462 0.25037363 0.0034092264 0.083503 -0.00017535166 0.083522066 1.8666913e-005
0.083527558 0.00080005825 0.083486125 0.00051711965 0.083550073 0.00036716592 0.083526596 0.00019937687
0.25027573 0.0036871582 0.25164211 0.0042894427 0.083444498 5.4436296e-005 0.083449937 0.00021588257
0.083399914 0.00056801742 0.083442234 0.00053571595 0.083477341 0.00032307359 0.083459638 0.00019140153
0.083495833 -0.00015933366 0.08347214 -2.7755017e-005 0.25200137 0.0055353898 0.25013632 0.0040711015
0.083441019 0.00057804293 0.083449699 0.00020872722 0.083439842 -0.0011488195 0.083431244 -0.00091721705
0.083487384 0.00012470632 0.083479337 0.00037854625 0.25010666 0.004766047 0.2517944 0.0053731534
0.083427615 0.00074101903 0.083440214 0.00036449806 0.083449319 -0.00084818323 0.083430253 -0.00064419984
0.08338052 0.0011148242 0.083313406 0.00085522915 0.08332862 0.0010288351 0.083335392 0.00096981821
0.25186068 0.0052357968 0.24981521 0.0024395077 0.083381526 0.0004937526 0.083365828 0.00056930765
0.083436936 0.00083744485 0.083455451 0.00082736852 0.083404928 0.00055266044 0.08342205 0.00051442639
0.25005305 0.0024507223 0.25172192 0.0049704728 0.083472773 0.00081690017 0.08346004 0.00093736302
0.083536252 0.00060299906 0.083515875 0.00054165034 0.083439782 -0.00084842561 0.083444335 -0.00077784352
0.083439283 0.00029144151 0.083457112 0.00065735291 0.25154838 0.0052768053 0.25042763 0.0044888733
0.083482042 0.00044224484 0.083471984 0.00042017872 0.083405554 -0.00056839152 0.083428413 -0.0004430296
0.083401136 0.0003602026 0.083435275 0.00085885526 0.25037953 0.0049016699 0.25138447 0.00451071
4650625 0.25189197 0.0051278253 0.250512 0.003765451 0.083619237 -0.0002095357 0.083629794 3.9037917e-005
0.083665967 0.00087514991 0.083566613 0.00057386374 0.083649747 0.00041092964 0.083677098 0.00021099496
0.25047946 0.0040648179 0.25177541 0.0048387954 0.08356522 4.4026034e-005 0.083563238 0.00025578809
0.083534777 0.00062946457 0.08353252 0.00058833003 0.083580352 0.00036303359 0.083611801 0.00020134618
0.083558768 -0.00017202809 0.083520167 -1.4016605e-005 0.2521967 0.006049477 0.25030774 0.0044459896
0.083550133 0.00061960984 0.083508879 0.00021865174 0.083505124 -0.0012567916 0.08355052 -0.0010227147
0.083597831 0.0001690083 0.083573319 0.00046117094 0.2504214 0.0052016694 0.25205883 0.006014619
0.083578348 0.00082835444 0.08353927 0.00042354781 0.083559953 -0.00089820265 0.083590567 -0.00069848867
0.083563231 0.0013984303 0.083477676 0.0011413131 0.083540842 0.0012830985 0.083533488 0.0012754039
0.25240043 0.0062839119 0.25019261 0.00313545 0.08357095 0.00075346947 0.08360748 0.00078775256
0.083549403 0.00094479544 0.083556607 0.00095072848 0.083550237 0.00061036809 0.083554469 0.0006235966
0.25042936 0.0027432358 0.25193429 0.0055576707 0.08359319 0.0009551635 0.083633117 0.0010348154
0.08362525 0.00065151061 0.083593845 0.00059912261 0.083550841 -0.00096209405 0.083543792 -0.00085477362
0.083575383 0.00029995202 0.083538257 0.00070282049 0.25173274 0.0058699562 0.25079611 0.0048029092
0.083509691 0.00049154862 0.083483867 0.00048226508 0.083454579 -0.00064066879 0.083467774 -0.00046808762
0.083469331 0.00038866766 0.083456807 0.00093729061 0.25039127 0.005394388 0.25151095 0.0049384343
5056250 0.25211123 0.0058174874 0.2506693 0.0043622795 0.083665468 -9.6693417e-005 0.083696783 0.000141464
0.083746426 0.0010685616 0.083648227 0.00074955093 0.083728008 0.00055118802 0.083720446 0.00034749496
0.25067675 0.0047408724 0.25199568 0.0055135419 0.083623961 0.00018926 0.083639756 0.00038906941
0.083619379 0.00081197266 0.08362487 0.00077875977 0.083669066 0.00051548949 0.083668604 0.00035335528
0.083638191 -0.00010505017 0.08359798 5.3882763e-005 0.25228065 0.0068378523 0.25039443 0.0050708745
0.083616421 0.00077007437 0.083580114 0.00034053461 0.083564252 -0.0012796595 0.083577342 -0.0010100399
