!Agilent Technologies,M9370A,MY54322275,A.02.50.04
!Agilent M9370A: A.02.50.04
!Date: Friday, August 17, 2018 12:58:08
!Correction: S11(Full 8 Port(1,2,3,4,5,6,7,8)) 
!S12(Full 8 Port(1,2,3,4,5,6,7,8)) 
!S13(Full 8 Port(1,2,3,4,5,6,7,8)) 
!S14(Full 8 Port(1,2,3,4,5,6,7,8)) 
!S15(Full 8 Port(1,2,3,4,5,6,7,8)) 
!S16(Full 8 Port(1,2,3,4,5,6,7,8)) 
!S17(Full 8 Port(1,2,3,4,5,6,7,8)) 
!S18(Full 8 Port(1,2,3,4,5,6,7,8)) 
!S21(Full 8 Port(1,2,3,4,5,6,7,8)) 
!S22(Full 8 Port(1,2,3,4,5,6,7,8)) 
!S23(Full 8 Port(1,2,3,4,5,6,7,8)) 
!S24(Full 8 Port(1,2,3,4,5,6,7,8)) 
!S25(Full 8 Port(1,2,3,4,5,6,7,8)) 
!S26(Full 8 Port(1,2,3,4,5,6,7,8)) 
!S27(Full 8 Port(1,2,3,4,5,6,7,8)) 
!S28(Full 8 Port(1,2,3,4,5,6,7,8)) 
!S31(Full 8 Port(1,2,3,4,5,6,7,8)) 
!S32(Full 8 Port(1,2,3,4,5,6,7,8)) 
!S33(Full 8 Port(1,2,3,4,5,6,7,8)) 
!S34(Full 8 Port(1,2,3,4,5,6,7,8)) 
!S35(Full 8 Port(1,2,3,4,5,6,7,8)) 
!S36(Full 8 Port(1,2,3,4,5,6,7,8)) 
!S37(Full 8 Port(1,2,3,4,5,6,7,8)) 
!S38(Full 8 Port(1,2,3,4,5,6,7,8)) 
!S41(Full 8 Port(1,2,3,4,5,6,7,8)) 
!S42(Full 8 Port(1,2,3,4,5,6,7,8)) 
!S43(Full 8 Port(1,2,3,4,5,6,7,8)) 
!S44(Full 8 Port(1,2,3,4,5,6,7,8)) 
!S45(Full 8 Port(1,2,3,4,5,6,7,8)) 
!S46(Full 8 Port(1,2,3,4,5,6,7,8)) 
!S47(Full 8 Port(1,2,3,4,5,6,7,8)) 
!S48(Full 8 Port(1,2,3,4,5,6,7,8)) 
!S51(Full 8 Port(1,2,3,4,5,6,7,8)) 
!S52(Full 8 Port(1,2,3,4,5,6,7,8)) 
!S53(Full 8 Port(1,2,3,4,5,6,7,8)) 
!S54(Full 8 Port(1,2,3,4,5,6,7,8)) 
!S55(Full 8 Port(1,2,3,4,5,6,7,8)) 
!S56(Full 8 Port(1,2,3,4,5,6,7,8)) 
!S57(Full 8 Port(1,2,3,4,5,6,7,8)) 
!S58(Full 8 Port(1,2,3,4,5,6,7,8)) 
!S61(Full 8 Port(1,2,3,4,5,6,7,8)) 
!S62(Full 8 Port(1,2,3,4,5,6,7,8)) 
!S63(Full 8 Port(1,2,3,4,5,6,7,8)) 
!S64(Full 8 Port(1,2,3,4,5,6,7,8)) 
!S65(Full 8 Port(1,2,3,4,5,6,7,8)) 
!S66(Full 8 Port(1,2,3,4,5,6,7,8)) 
!S67(Full 8 Port(1,2,3,4,5,6,7,8)) 
!S68(Full 8 Port(1,2,3,4,5,6,7,8)) 
!S71(Full 8 Port(1,2,3,4,5,6,7,8)) 
!S72(Full 8 Port(1,2,3,4,5,6,7,8)) 
!S73(Full 8 Port(1,2,3,4,5,6,7,8)) 
!S74(Full 8 Port(1,2,3,4,5,6,7,8)) 
!S75(Full 8 Port(1,2,3,4,5,6,7,8)) 
!S76(Full 8 Port(1,2,3,4,5,6,7,8)) 
!S77(Full 8 Port(1,2,3,4,5,6,7,8)) 
!S78(Full 8 Port(1,2,3,4,5,6,7,8)) 
!S81(Full 8 Port(1,2,3,4,5,6,7,8)) 
!S82(Full 8 Port(1,2,3,4,5,6,7,8)) 
!S83(Full 8 Port(1,2,3,4,5,6,7,8)) 
!S84(Full 8 Port(1,2,3,4,5,6,7,8)) 
!S85(Full 8 Port(1,2,3,4,5,6,7,8)) 
!S86(Full 8 Port(1,2,3,4,5,6,7,8)) 
!S87(Full 8 Port(1,2,3,4,5,6,7,8)) 
!S88(Full 8 Port(1,2,3,4,5,6,7,8)) 
!S8P File: Measurements: <S11,S12,S13,S14,S15,S16,S17,S18>,
!<S21,S22,S23,S24,S25,S26,S27,S28>,
!<S31,S32,S33,S34,S35,S36,S37,S38>,
!<S41,S42,S43,S44,S45,S46,S47,S48>,
!<S51,S52,S53,S54,S55,S56,S57,S58>,
!<S61,S62,S63,S64,S65,S66,S67,S68>,
!<S71,S72,S73,S74,S75,S76,S77,S78>,
!<S81,S82,S83,S84,S85,S86,S87,S88>:
# Hz S  RI   R 50
10000000 0.25239316 0.0014035758 0.25000405 0.0027972737 0.06151063 0.056198739 0.061603561 0.056029636
0.08230602 -0.015149626 0.082215756 -0.012899151 0.069082141 0.046505455 0.068641312 0.047384571
0.25043604 0.0029397518 0.25182402 0.0078858938 0.06056853 0.057420317 0.060589351 0.057277337
0.08234641 -0.014587739 0.082519941 -0.011955238 0.06865254 0.047296591 0.068110235 0.048318636
0.057346873 -0.059755202 0.058326323 -0.058710199 0.25169283 0.0092187589 0.24942723 0.0046984321
0.062816754 0.054425474 0.061327033 0.055623394 0.080820926 -0.017447615 0.081423648 -0.015520286
0.057631671 -0.060338002 0.058709208 -0.059099704 0.25104719 0.0049899132 0.25332472 0.0040742937
0.063634403 0.054476582 0.062062126 0.055549938 0.081396692 -0.017809935 0.081930675 -0.015923994
0.082567424 0.010582669 0.082114875 0.011079451 0.060522046 -0.056850575 0.06009227 -0.057333805
0.2550129 -0.0052582086 0.25089529 -0.0021182299 0.061910287 0.055497669 0.061025027 0.056736473
0.08175572 0.013223684 0.081556663 0.014211947 0.061883159 -0.054961883 0.061416421 -0.055435583
0.25107154 -0.00054382061 0.25214857 0.013830641 0.058932174 0.05833016 0.057892539 0.05963251
0.066494331 -0.050309502 0.066880494 -0.049437679 0.082749613 0.0078837965 0.082770199 0.0075174519
0.056968726 -0.061084505 0.059329212 -0.058389634 0.25175747 0.001355372 0.25074634 0.0048835077
0.067194231 -0.049497068 0.067661926 -0.048589684 0.082692564 0.0099142706 0.082742259 0.0096177757
0.05818538 -0.060143337 0.060755301 -0.057224438 0.25049871 0.005086571 0.25238603 0.0088683963
10490490.49049 0.25213563 0.0046180584 0.24999146 0.0019209415 0.081255823 -0.017431907 0.081400737 -0.016923668
0.08304324 0.0027866347 0.082992196 0.0017856598 0.082161188 -0.012962202 0.082096726 -0.013588027
0.24982828 0.0019427284 0.25237995 0.0029540351 0.081387632 -0.017158752 0.081531271 -0.016530609
0.082953468 0.0020860352 0.083093695 0.0015202783 0.082098879 -0.0133119 0.082087688 -0.013779012
0.082219794 0.012014925 0.082244277 0.012276399 0.25268763 0.0071445168 0.24994954 0.0047612102
0.08192157 -0.014299708 0.08161281 -0.015755074 0.082975835 -0.0017677201 0.083083615 -0.0013770123
0.082156733 0.012566076 0.082181975 0.012918288 0.24974458 0.0048006787 0.25255221 0.0065482813
0.081925787 -0.014218171 0.081637695 -0.015636796 0.083043344 -0.0013417912 0.083118871 -0.00090697949
0.083012834 -0.0029966021 0.08288192 -0.0036936419 0.081901319 0.013630271 0.08190842 0.013694731
0.25260606 0.0060423953 0.24945156 -0.0012971584 0.081546597 -0.016034028 0.081558317 -0.016123686
0.082907394 -0.0041954857 0.083042704 -0.0044130175 0.082172528 0.012035514 0.082195811 0.012183413
0.24937934 -0.0016364763 0.25250456 0.0023102241 0.08172109 -0.015756745 0.081799641 -0.015650144
0.082513362 0.010790406 0.082570381 0.010433251 0.082647584 -0.0075279507 0.08274813 -0.0071423277
0.081938349 0.01348477 0.081950612 0.013937499 0.2519668 0.0070327073 0.25038603 0.0050381781
0.082566336 0.010193111 0.082604855 0.0099335546 0.082727119 -0.0071192533 0.082824267 -0.0066982163
0.081949748 0.013410873 0.081980832 0.014009805 0.25006142 0.0050460808 0.25212219 0.0035933482
10980980.980981 0.25205082 0.0047165565 0.25002536 0.0021819004 0.08218392 -0.01149189 0.082502365 -0.011021543
0.083160803 0.001446737 0.083053805 0.00063651218 0.082737774 -0.0082116611 0.082744904 -0.008699947
0.24982147 0.0022075458 0.25225574 0.0035717529 0.082299337 -0.011098571 0.082627296 -0.010514813
0.082974076 0.00081859878 0.083230659 0.00052396144 0.082672738 -0.0084537687 0.082729153 -0.0088686831
0.082836226 0.005843116 0.082975686 0.0062292246 0.25270969 0.0077240109 0.24999291 0.0050703716
0.082823075 -0.00865936 0.082510382 -0.0099122645 0.082966447 -0.0031764389 0.082860678 -0.0025963685
0.082878672 0.0063463729 0.083054855 0.0068675512 0.24989428 0.0050953194 0.25275984 0.0067696036
0.082856357 -0.0086336294 0.082549118 -0.0098404866 0.083034649 -0.0028015119 0.082918733 -0.0022152083
0.08305762 -0.0019402757 0.083033197 -0.0025804376 0.082590632 0.0077687432 0.082795575 0.0078434777
0.25270596 0.0054440773 0.24948727 -0.0013469097 0.082441181 -0.010219241 0.082463942 -0.010194658
0.082925275 -0.0028816394 0.083136424 -0.0030093389 0.082728364 0.0064501869 0.082909368 0.0065446286
0.24942437 -0.0015432003 0.25240791 0.0033884326 0.082522757 -0.0096214619 0.082696095 -0.0093666399
0.083058141 0.0057639745 0.083180688 0.005499131 0.082684614 -0.0065366025 0.082776882 -0.0061662532
0.082807645 0.0071686935 0.082795583 0.0079107294 0.25193414 0.0069932756 0.25017619 0.0053432113
0.08308579 0.0053002518 0.083199553 0.0051299459 0.08272665 -0.0059633735 0.082867838 -0.0056039416
0.082805321 0.0072569256 0.082858399 0.0081561673 0.25009155 0.005390801 0.25206682 0.0042741243
11471471.471471 0.25227791 0.0046188082 0.24991414 0.0024777676 0.083024919 -0.0029379481 0.083067842 -0.0025130529
0.083077572 -0.00049156428 0.08296679 -0.00097271934 0.083124824 -0.0014383997 0.083145879 -0.001738709
0.24979289 0.00250239 0.25237846 0.0043406333 0.08307562 -0.0023663859 0.083150677 -0.0018166581
0.08294908 -0.0010373632 0.083072565 -0.00096682884 0.083131425 -0.0015203777 0.083173215 -0.0017423504
0.082968652 -0.0029361229 0.08306139 -0.0024100607 0.252803 0.0083780577 0.24989331 0.0053989417
0.08309333 -0.00059170683 0.083067782 -0.0015392046 0.082805648 -0.0051137088 0.082934 -0.0043219789
0.083058141 -0.0025190571 0.083140649 -0.0018675318 0.24979007 0.0054356246 0.2526758 0.0068814224
0.083091028 -0.00062356715 0.083067924 -0.0015311452 0.082876079 -0.004791507 0.082968965 -0.003968698
0.083015606 -0.00051191292 0.082887426 -0.0010378115 0.083043613 -0.00059500179 0.083031617 -0.00059427507
0.25281247 0.0045165843 0.24941896 -0.0014414305 0.083040282 -0.0018845369 0.083103858 -0.0016006809
0.082956366 -0.00099121744 0.083090492 -0.0010158278 0.083041362 -0.0015398507 0.083056211 -0.0015591813
0.24937102 -0.0014360916 0.25264305 0.0047635902 0.083165221 -0.00081252295 0.083241217 -0.0003168807
0.083166987 -0.0013767856 0.083161898 -0.0015210431 0.082834177 -0.0050866711 0.082840115 -0.0047924235
0.082978204 -0.0018642296 0.083123855 -0.00070141797 0.2521235 0.0067530735 0.25030905 0.0056913844
0.083140537 -0.0016967102 0.083181813 -0.0017447817 0.082865171 -0.0043233489 0.082939394 -0.0040049041
0.083025165 -0.0016216855 0.083204895 -0.00027980848 0.25013664 0.005717705 0.25214726 0.0050689154
11961961.961962 0.25234681 0.0048679588 0.24993221 0.0026719605 0.083000161 -0.0030456886 0.083040036 -0.0025829
0.083057977 -0.00055496866 0.082962267 -0.0010157174 0.083127521 -0.0014547526 0.083126456 -0.0017514281
0.24982287 0.0026707954 0.2524938 0.0045659733 0.083075672 -0.0024515688 0.083138213 -0.0018861759
0.082912922 -0.0010155662 0.083083048 -0.001001112 0.083161049 -0.0015635464 0.083152823 -0.0018036512
0.08297912 -0.0030298622 0.083037026 -0.0024519439 0.25292292 0.0087446794 0.24989688 0.0056924159
0.083082363 -0.00057933724 0.083048575 -0.0015990109 0.082789496 -0.0052905595 0.082890369 -0.0044628559
0.083021253 -0.0025655241 0.083116859 -0.0018857967 0.24983071 0.0057331063 0.25275293 0.007208107
0.08308056 -0.00060471846 0.083089642 -0.0015963608 0.082849756 -0.004939077 0.082930587 -0.0041282666
0.083025955 -0.00050130067 0.082847819 -0.0010505889 0.083001398 -0.00060456293 0.082999818 -0.00060043513
0.25290725 0.0046922876 0.24939412 -0.0014463179 0.083044313 -0.001908569 0.083119474 -0.0016781251
0.082951374 -0.0010336344 0.083062597 -0.0010481834 0.083028004 -0.0016189789 0.083049014 -0.0016260878
0.24938302 -0.0014614066 0.25271037 0.0049688495 0.083153382 -0.00077701674 0.083235644 -0.00029587708
0.083161928 -0.0014366293 0.08316949 -0.0015422467 0.082787581 -0.0052682385 0.082815699 -0.0049679633
0.083002277 -0.001906989 0.083111748 -0.00072788057 0.25223845 0.0071408544 0.25037855 0.0059723062
0.083135635 -0.0017501846 0.083159707 -0.0018148818 0.082855776 -0.004510236 0.082938857 -0.0041100541
0.083022118 -0.0016603135 0.083165482 -0.00028542156 0.2501387 0.0060180048 0.25224665 0.0053274347
12452452.452452 0.25248179 0.0050584488 0.24992639 0.002813596 0.082996972 -0.0031497583 0.083037741 -0.002652793
0.083057657 -0.00052017707 0.082987621 -0.0010362361 0.083116926 -0.0014817581 0.083156735 -0.0018244563
0.24988359 0.0028515838 0.25253829 0.0047795232 0.083054274 -0.0025598709 0.083073676 -0.0019399374
0.082929388 -0.0010264535 0.083062157 -0.0010206705 0.083147958 -0.0016015237 0.083155401 -0.0018602581
0.082971156 -0.0031111757 0.0830421 -0.0025595757 0.2530143 0.0091239568 0.24993952 0.0060195052
0.083094031 -0.00059700938 0.083075263 -0.0016015224 0.082743183 -0.0054281945 0.082883984 -0.0046409843
0.083033159 -0.0026765936 0.083107553 -0.0019398383 0.24985142 0.0060303104 0.25283837 0.0075811567
0.083074413 -0.00062242261 0.083069429 -0.0016213388 0.082867175 -0.0051543047 0.08291997 -0.0042779883
0.083049044 -0.00053255307 0.082852907 -0.0010539897 0.083028853 -0.00060219859 0.083033919 -0.00061503798
0.25303403 0.0048948429 0.24938549 -0.0014185159 0.083028302 -0.0020212734 0.083093226 -0.0017435979
0.082955524 -0.0010341549 0.083068639 -0.0010462602 0.083037011 -0.0016531256 0.083044581 -0.0016469409
0.24937904 -0.0014339513 0.25280598 0.0052008894 0.083140858 -0.00078857818 0.08325579 -0.00027786801
0.083142482 -0.0014770888 0.083160259 -0.0015943728 0.082760192 -0.0055151423 0.08279068 -0.0051183971
0.082983047 -0.0019603453 0.083115838 -0.00074081006 0.25229222 0.0074270191 0.25040767 0.0062899673
0.083122872 -0.0018028158 0.083112992 -0.0018465446 0.08282546 -0.0046402905 0.082910895 -0.0042629261
0.083007909 -0.0016985403 0.083176337 -0.00023412572 0.25022116 0.0063404473 0.25230208 0.0055577634
12942942.942943 0.25245205 0.0053180442 0.24990343 0.0030164761 0.083029009 -0.0032461535 0.083095625 -0.0027445056
0.083122849 -0.00052901421 0.082997195 -0.0010257872 0.083165355 -0.0015273617 0.083171628 -0.0018718684
0.24979714 0.003040175 0.25252786 0.0049968087 0.083082698 -0.0026075076 0.083164692 -0.0020029498
0.082902946 -0.001034713 0.083062649 -0.001061908 0.083128251 -0.0016370509 0.083139718 -0.0018808813
0.082976013 -0.0032280092 0.083023667 -0.0026279278 0.25325248 0.0094961654 0.24998981 0.0063435542
0.083096847 -0.00057357125 0.083053216 -0.0016891547 0.08270815 -0.0056516444 0.082869105 -0.0047642244
0.082995102 -0.0027604233 0.083092324 -0.0019986753 0.24999993 0.006313026 0.25303629 0.0079059862
0.08305911 -0.00060971256 0.083075218 -0.0016792649 0.082760774 -0.0053119925 0.082915388 -0.0044452175
0.083010323 -0.00051020138 0.082824215 -0.0010615573 0.08303728 -0.0006215091 0.083053917 -0.00062692974
0.25318968 0.0051096901 0.24946605 -0.0013876155 0.083024971 -0.0020456566 0.083099037 -0.001790076
0.08290156 -0.0010566692 0.083026692 -0.0011069857 0.083045505 -0.0016798909 0.083041541 -0.001709568
0.24942024 -0.0014101192 0.2529476 0.0054290369 0.083122954 -0.00079827249 0.083273441 -0.00029949035
0.083150864 -0.0015281111 0.083135232 -0.0016189659 0.082731523 -0.0056863595 0.082803987 -0.0053098286
0.082995214 -0.0020117885 0.083106577 -0.00074606301 0.25231275 0.007756881 0.25051656 0.0065839021
0.083128452 -0.0018613224 0.083109349 -0.0019093496 0.082862511 -0.0047911629 0.08293885 -0.0043861154
0.083007067 -0.0017322211 0.083194375 -0.00024077242 0.2501857 0.0065953159 0.25253218 0.0058360645
13433433.433433 0.25267625 0.0055723861 0.2500264 0.0032089932 0.08302521 -0.003353053 0.083092898 -0.002833843
0.083108731 -0.00052133133 0.082965866 -0.0010255707 0.083189398 -0.0015443731 0.083180867 -0.0019355416
0.24992649 0.0031969738 0.25274277 0.0052265897 0.083059683 -0.0027128067 0.083067104 -0.0020529202
0.082870044 -0.0010588726 0.083013244 -0.0010768725 0.083134867 -0.0016795088 0.083127178 -0.0019144159
0.082955562 -0.003310377 0.083074339 -0.0026993034 0.25325349 0.0098800203 0.25004256 0.0066586663
0.083087765 -0.00059752102 0.083061427 -0.0016759203 0.082715318 -0.0058381595 0.082861148 -0.0049173315
0.082991473 -0.0028136566 0.08307451 -0.0020378532 0.24993473 0.006648933 0.25304496 0.0082178591
0.083032697 -0.00059862674 0.083032541 -0.0016871139 0.082742892 -0.0054731686 0.082866266 -0.0045253448
0.082994156 -0.0004961121 0.082808532 -0.0010911125 0.083058551 -0.00061497395 0.08303161 -0.00063510815
0.25323841 0.00531446 0.24943216 -0.001420053 0.083050705 -0.0020945533 0.083072461 -0.0018175618
0.082908466 -0.001061068 0.083031811 -0.0011367361 0.083010703 -0.0017421987 0.083036527 -0.0017474561
0.2494456 -0.0014229179 0.25302348 0.0056507709 0.083124027 -0.0008263294 0.08324369 -0.00026546087
0.083145969 -0.0015550199 0.08314766 -0.0016459232 0.082704574 -0.0058619273 0.082754567 -0.0054699453
0.083008423 -0.0020423911 0.083093926 -0.0007646482 0.25249648 0.00805985 0.25047824 0.0069420543
0.083098248 -0.0018772378 0.083114676 -0.0019273059 0.08279559 -0.0049639987 0.082855307 -0.004560573
0.083013803 -0.001770857 0.083198972 -0.00021141292 0.25028557 0.0069566653 0.25249216 0.0060840179
13923923.923924 0.2527782 0.0058445786 0.25005427 0.0034260242 0.083000615 -0.0034363719 0.083081797 -0.0028846776
0.083103046 -0.00049095135 0.082952797 -0.0010498903 0.083194181 -0.0015760307 0.083156258 -0.0019414648
0.24998398 0.0034663233 0.25287771 0.0054601501 0.0830383 -0.0027821611 0.083106093 -0.0020952264
0.082867637 -0.0010700549 0.083054997 -0.0010552452 0.083138421 -0.0017059526 0.083137952 -0.0019760458
0.082943603 -0.0033878828 0.083028547 -0.0027580194 0.25337669 0.010316019 0.25009519 0.0070103374
0.083083473 -0.00057125295 0.083063059 -0.0017045257 0.082688436 -0.0059898407 0.082804836 -0.0050803889
0.082973868 -0.0028776156 0.083094947 -0.0020889621 0.24999906 0.0069220671 0.25315127 0.0085670426
0.083038501 -0.00060555991 0.083058894 -0.0017706469 0.082746603 -0.0056619337 0.082816862 -0.0046716328
0.082997665 -0.00050580862 0.082829945 -0.0010973874 0.083065413 -0.00058582937 0.083000854 -0.00059570896
0.25330049 0.0055636982 0.24946709 -0.0013867593 0.083036333 -0.0021666773 0.083081193 -0.0018815398
0.082851142 -0.0010709157 0.083016485 -0.0010812922 0.082993209 -0.0017650755 0.083019979 -0.0017958877
0.24947797 -0.0013583991 0.25314212 0.0058538928 0.083156191 -0.00081479468 0.083207935 -0.00026849663
0.083132371 -0.0015654428 0.083157092 -0.0016896167 0.082689963 -0.0060484093 0.082735457 -0.005666953
0.082969308 -0.0020931927 0.083103292 -0.00074763678 0.25262728 0.0084467763 0.25057089 0.0072667655
0.083087742 -0.0019474074 0.083132394 -0.0019673549 0.082774952 -0.0051027443 0.082845956 -0.0046638153
0.083052479 -0.0017842283 0.083211154 -0.00019654399 0.25036284 0.0072997105 0.25259027 0.0063789901
14414414.414414 0.25286627 0.0061005023 0.25008684 0.0036463109 0.083018616 -0.0035191707 0.083074979 -0.002929141
0.083084501 -0.00046851678 0.082959615 -0.0010320746 0.083217584 -0.0015939922 0.083165541 -0.0019654064
0.25000533 0.0036409772 0.2529678 0.0056765019 0.083053909 -0.0028351999 0.083123177 -0.0021236539
0.08283484 -0.0010788748 0.083024882 -0.0010848428 0.08313708 -0.0017026179 0.08313702 -0.0020278017
0.082934186 -0.0034654562 0.083051085 -0.0027899467 0.25352213 0.010714462 0.25017741 0.0073277103
0.083126292 -0.00050593016 0.083051689 -0.0017120993 0.082681306 -0.0061904155 0.082839087 -0.0052008098
0.082964569 -0.0029173472 0.083086796 -0.0021321112 0.25006804 0.0072524152 0.25326601 0.0089022312
0.083026402 -0.00057171745 0.083043687 -0.0017406512 0.082715593 -0.0057995301 0.082842827 -0.0048126373
0.082985356 -0.00050589489 0.082809687 -0.0011013554 0.083046608 -0.00062599033 0.08298932 -0.00062176603
0.25345138 0.0057371603 0.24947716 -0.0013711038 0.083021447 -0.0021824737 0.083102748 -0.0019172248
0.082852587 -0.0010927626 0.083022512 -0.001147429 0.08301083 -0.0018113899 0.083031319 -0.0018077856
0.24948858 -0.0013524633 0.25325665 0.0060714716 0.083148457 -0.0007733152 0.083242573 -0.00023820956
0.083149642 -0.0016040162 0.083193414 -0.0017142667 0.082662448 -0.0062112533 0.08270856 -0.0058059418
0.082980543 -0.002131914 0.083106339 -0.00072284858 0.25273484 0.0087790433 0.25062266 0.0075922948
0.083127722 -0.0019634855 0.083136767 -0.0020217404 0.082764409 -0.0052280994 0.082840383 -0.0048180949
0.083001636 -0.001845082 0.083242819 -0.00020820955 0.25041837 0.007580888 0.25269032 0.0066276025
14904904.904905 0.25309852 0.0063434122 0.2501258 0.0038653186 0.083003268 -0.0036042933 0.083054975 -0.0030272587
0.083078921 -0.00044572304 0.082963467 -0.0010613676 0.083198257 -0.0016219415 0.083193041 -0.0020312341
0.25013155 0.0038147005 0.25305241 0.0059016226 0.08302217 -0.002916459 0.083157562 -0.00219024
0.082802288 -0.0010999137 0.083009765 -0.0011049877 0.083147153 -0.0017626862 0.083186343 -0.0021055981
0.082977034 -0.0035260741 0.083027169 -0.0028726012 0.25364468 0.011121664 0.25023374 0.0076614083
0.083111726 -0.00052411237 0.08308202 -0.0017800464 0.082661301 -0.0063791978 0.082809225 -0.0053655114
