!Agilent Technologies,M9370A,MY54322275,A.02.50.04
!Agilent M9370A: A.02.50.04
!Date: Friday, April 06, 2018 11:01:09
!Correction: S11(Full 8 Port(1,2,3,4,5,6,7,8)) 
!S12(Full 8 Port(1,2,3,4,5,6,7,8)) 
!S13(Full 8 Port(1,2,3,4,5,6,7,8)) 
!S14(Full 8 Port(1,2,3,4,5,6,7,8)) 
!S15(Full 8 Port(1,2,3,4,5,6,7,8)) 
!S16(Full 8 Port(1,2,3,4,5,6,7,8)) 
!S17(Full 8 Port(1,2,3,4,5,6,7,8)) 
!S18(Full 8 Port(1,2,3,4,5,6,7,8)) 
!S21(Full 8 Port(1,2,3,4,5,6,7,8)) 
!S22(Full 8 Port(1,2,3,4,5,6,7,8)) 
!S23(Full 8 Port(1,2,3,4,5,6,7,8)) 
!S24(Full 8 Port(1,2,3,4,5,6,7,8)) 
!S25(Full 8 Port(1,2,3,4,5,6,7,8)) 
!S26(Full 8 Port(1,2,3,4,5,6,7,8)) 
!S27(Full 8 Port(1,2,3,4,5,6,7,8)) 
!S28(Full 8 Port(1,2,3,4,5,6,7,8)) 
!S31(Full 8 Port(1,2,3,4,5,6,7,8)) 
!S32(Full 8 Port(1,2,3,4,5,6,7,8)) 
!S33(Full 8 Port(1,2,3,4,5,6,7,8)) 
!S34(Full 8 Port(1,2,3,4,5,6,7,8)) 
!S35(Full 8 Port(1,2,3,4,5,6,7,8)) 
!S36(Full 8 Port(1,2,3,4,5,6,7,8)) 
!S37(Full 8 Port(1,2,3,4,5,6,7,8)) 
!S38(Full 8 Port(1,2,3,4,5,6,7,8)) 
!S41(Full 8 Port(1,2,3,4,5,6,7,8)) 
!S42(Full 8 Port(1,2,3,4,5,6,7,8)) 
!S43(Full 8 Port(1,2,3,4,5,6,7,8)) 
!S44(Full 8 Port(1,2,3,4,5,6,7,8)) 
!S45(Full 8 Port(1,2,3,4,5,6,7,8)) 
!S46(Full 8 Port(1,2,3,4,5,6,7,8)) 
!S47(Full 8 Port(1,2,3,4,5,6,7,8)) 
!S48(Full 8 Port(1,2,3,4,5,6,7,8)) 
!S51(Full 8 Port(1,2,3,4,5,6,7,8)) 
!S52(Full 8 Port(1,2,3,4,5,6,7,8)) 
!S53(Full 8 Port(1,2,3,4,5,6,7,8)) 
!S54(Full 8 Port(1,2,3,4,5,6,7,8)) 
!S55(Full 8 Port(1,2,3,4,5,6,7,8)) 
!S56(Full 8 Port(1,2,3,4,5,6,7,8)) 
!S57(Full 8 Port(1,2,3,4,5,6,7,8)) 
!S58(Full 8 Port(1,2,3,4,5,6,7,8)) 
!S61(Full 8 Port(1,2,3,4,5,6,7,8)) 
!S62(Full 8 Port(1,2,3,4,5,6,7,8)) 
!S63(Full 8 Port(1,2,3,4,5,6,7,8)) 
!S64(Full 8 Port(1,2,3,4,5,6,7,8)) 
!S65(Full 8 Port(1,2,3,4,5,6,7,8)) 
!S66(Full 8 Port(1,2,3,4,5,6,7,8)) 
!S67(Full 8 Port(1,2,3,4,5,6,7,8)) 
!S68(Full 8 Port(1,2,3,4,5,6,7,8)) 
!S71(Full 8 Port(1,2,3,4,5,6,7,8)) 
!S72(Full 8 Port(1,2,3,4,5,6,7,8)) 
!S73(Full 8 Port(1,2,3,4,5,6,7,8)) 
!S74(Full 8 Port(1,2,3,4,5,6,7,8)) 
!S75(Full 8 Port(1,2,3,4,5,6,7,8)) 
!S76(Full 8 Port(1,2,3,4,5,6,7,8)) 
!S77(Full 8 Port(1,2,3,4,5,6,7,8)) 
!S78(Full 8 Port(1,2,3,4,5,6,7,8)) 
!S81(Full 8 Port(1,2,3,4,5,6,7,8)) 
!S82(Full 8 Port(1,2,3,4,5,6,7,8)) 
!S83(Full 8 Port(1,2,3,4,5,6,7,8)) 
!S84(Full 8 Port(1,2,3,4,5,6,7,8)) 
!S85(Full 8 Port(1,2,3,4,5,6,7,8)) 
!S86(Full 8 Port(1,2,3,4,5,6,7,8)) 
!S87(Full 8 Port(1,2,3,4,5,6,7,8)) 
!S88(Full 8 Port(1,2,3,4,5,6,7,8)) 
!S8P File: Measurements: <S11,S12,S13,S14,S15,S16,S17,S18>,
!<S21,S22,S23,S24,S25,S26,S27,S28>,
!<S31,S32,S33,S34,S35,S36,S37,S38>,
!<S41,S42,S43,S44,S45,S46,S47,S48>,
!<S51,S52,S53,S54,S55,S56,S57,S58>,
!<S61,S62,S63,S64,S65,S66,S67,S68>,
!<S71,S72,S73,S74,S75,S76,S77,S78>,
!<S81,S82,S83,S84,S85,S86,S87,S88>:
# Hz S  RI   R 50
1000000 0.98199064 0.083996177 -9.7205571e-005 0.0013647925 -2.5528907e-005 0.000344464 -2.5103567e-005 0.00036175296
-2.3221241e-005 0.00037615362 -4.344853e-005 0.00063853565 -2.5239708e-005 0.00036585517 -2.709056e-005 0.00036648879
-9.7026204e-005 0.0013616186 0.98292333 0.081338525 -2.3562819e-005 0.00031598864 -2.323425e-005 0.00032760171
-3.8162292e-005 0.00058760354 -2.0874062e-005 0.00032675883 -2.3023758e-005 0.00032036306 -2.3499662e-005 0.00031505091
2.6604091e-006 0.00032641992 4.6212253e-006 0.00028709508 0.98000807 0.086232811 -9.7130236e-005 0.0013832096
-2.7225917e-005 0.00039605732 -2.5843912e-005 0.00037871685 -2.2801054e-005 0.00031437856 -2.4853964e-005 0.00031704005
-3.30279e-005 0.00036429625 -2.8299213e-005 0.00033191018 -9.9729899e-005 0.0013839935 0.98050761 0.085560694
-4.5604276e-005 0.00065992808 -2.6645872e-005 0.00040962466 -2.7033881e-005 0.00032808739 -2.4612327e-005 0.00033956597
-2.9801389e-005 0.00037803157 -4.2703945e-005 0.00059078942 -2.7915334e-005 0.00039741016 -4.4458036e-005 0.00065706106
0.9742806 0.088245131 -7.559036e-005 0.0011155746 -2.7491114e-005 0.00038972229 -2.8725168e-005 0.0004010791
-4.8051901e-005 0.00063845218 -2.5845089e-005 0.00033109449 -2.7939099e-005 0.00037805716 -3.0426147e-005 0.00040837395
-7.9728619e-005 0.0011162631 0.98128182 0.084022164 -4.6506168e-005 0.00064000802 -2.9825522e-005 0.00041071011
-3.2086118e-005 0.00036713234 -2.5298956e-005 0.00032386094 -2.4145276e-005 0.00031304048 -2.3201241e-005 0.00032340726
-2.7260028e-005 0.00038882665 -4.1310101e-005 0.00063757307 0.9790262 0.088596694 -0.00010199195 0.0014171907
-2.9410014e-005 0.00036303315 -2.4517505e-005 0.00031778961 -2.327915e-005 0.0003181932 -2.4708506e-005 0.00033871146
-2.8995675e-005 0.00040593604 -2.9120627e-005 0.00040899988 -0.00010354994 0.0014151924 0.97861874 0.088737532
1499499.4994995 0.99886185 0.002733984 -3.1477286e-006 0.0021270986 -2.4387064e-006 0.00054139941 -1.7876743e-006 0.00056350866
-2.1117071e-007 0.00059160287 -1.8068805e-007 0.0009910682 -2.1058529e-006 0.00057257636 -2.8769085e-007 0.00056341162
-6.5949541e-007 0.0021192334 0.99914694 0.002048224 -2.5831371e-006 0.00048900128 -2.5294305e-006 0.00050749234
1.7043449e-006 0.00092293601 -8.5854907e-008 0.00050319033 -1.8886468e-006 0.00049866544 -1.2424927e-006 0.0004879662
3.6886111e-005 0.0004838123 3.1622287e-005 0.00043458826 0.99884719 0.0037404061 5.599635e-007 0.0021595454
1.8599391e-007 0.00062015984 2.6784162e-006 0.00058833131 2.1619103e-007 0.00048933411 9.5381154e-008 0.00049511285
-8.1020289e-006 0.00057255116 -8.3896439e-006 0.00052103156 -1.1811132e-006 0.0021557012 0.99911064 0.0025941604
1.774055e-006 0.0010384264 -1.6063701e-007 0.0006351276 -5.100689e-007 0.0005084732 -1.6939982e-006 0.00052897452
-4.8481033e-006 0.00059963873 -4.5535298e-006 0.00092968403 -1.3669272e-006 0.00062177307 -2.7312915e-006 0.0010376417
0.99985033 0.0050070989 2.1454878e-006 0.0017542935 -1.509205e-006 0.00061306841 2.3878013e-007 0.00063892099
-7.6085757e-006 0.00099693751 -4.6594832e-006 0.00051326398 2.8322147e-006 0.00058928045 -8.6678796e-007 0.0006350028
-2.2736177e-009 0.0017540356 0.99893981 0.0021650631 -5.6080228e-007 0.00099767558 -2.1623327e-006 0.00063672941
-5.1864281e-006 0.00057505793 -4.1887174e-006 0.00050469203 -1.8100733e-006 0.0004876098 -1.3856222e-006 0.00050649332
-1.0172917e-006 0.00061429775 1.9606614e-007 0.00099446869 0.9986769 0.0035465213 -1.2137909e-006 0.0022116781
-4.5193283e-006 0.00056781142 -3.4775692e-006 0.00049531675 2.0020825e-006 0.00049625721 -1.7273927e-006 0.0005297946
-1.6693243e-006 0.00063990528 -1.6982273e-006 0.00063690863 -4.6166692e-006 0.002215246 0.99883515 0.0040797591
1998998.998999 0.99894172 0.0011853392 -7.5293847e-006 0.0028327301 -1.1787147e-006 0.00072060723 -4.0547011e-006 0.00075282785
-4.2920497e-006 0.00079002208 -7.8920095e-007 0.0013201976 -4.5279007e-006 0.0007641727 -2.1682949e-006 0.0007499698
-7.3311098e-006 0.0028296744 0.99915981 0.00088941836 -3.6190061e-006 0.00065430684 -3.8814778e-006 0.000680823
-3.2552121e-006 0.0012293137 -2.5092716e-006 0.00067263813 -3.2035709e-006 0.00066577067 -3.7508287e-006 0.0006512127
4.029819e-005 0.00063165859 3.4432698e-005 0.00056982116 0.99885625 0.0023746255 -4.1991277e-007 0.0028793006
-9.9561078e-007 0.00082639459 -6.0820332e-007 0.00078545965 -9.46211e-007 0.00065122079 -7.8548385e-007 0.00066072022
-8.5773108e-006 0.0007693168 -1.0875448e-005 0.00069567037 -2.3538253e-006 0.0028751681 0.99939501 0.00078995497
-6.7018982e-007 0.0013820641 -3.1924606e-006 0.00084710424 -1.6984319e-006 0.00067551027 -2.4486328e-006 0.00070399407
-8.0861018e-006 0.00080122979 -7.0200354e-006 0.00124129 2.7028341e-007 0.00083244592 -8.4900199e-007 0.0013811734
1.0012972 0.0020246303 2.3390344e-006 0.0023426977 -3.3139861e-006 0.00082059082 -1.552811e-007 0.00085164898
-7.3421747e-006 0.001331948 -1.0540285e-005 0.00068484369 -2.0178836e-006 0.00078624708 -2.3445707e-006 0.00084632408
-2.1078263e-006 0.0023364332 0.99887973 0.00079434452 -2.6244967e-007 0.0013288871 -1.7779552e-006 0.00084973668
-7.3636206e-006 0.00077089702 -7.6978095e-006 0.00067648507 -1.3910172e-006 0.00065183884 -4.3019586e-006 0.00067316298
-2.5940762e-006 0.00082134648 -1.8977252e-006 0.001327378 0.9988277 0.0020104439 -3.9260676e-006 0.0029522765
-8.1084363e-006 0.00075775263 -7.0384772e-006 0.000663188 -3.6639703e-006 0.00065916817 -4.3500781e-006 0.00070414273
-4.6297314e-006 0.00085147686 -2.8028858e-006 0.00084855029 -4.7196322e-006 0.0029550472 0.99877483 0.0022785617
2498498.4984985 0.99987149 -0.011254148 2.6522215e-005 0.0035444864 5.4097327e-006 0.00089854136 4.8450902e-006 0.00094054645
4.4825256e-006 0.00098428119 1.6968785e-005 0.0016520285 3.2588707e-006 0.00095561863 4.3019454e-006 0.00093650876
2.7617763e-005 0.0035388255 1.0001075 -0.010987527 3.7793907e-006 0.00081773364 4.4069184e-006 0.00084779196
1.1718061e-005 0.001537555 4.7742651e-006 0.00083990273 1.9802042e-006 0.00083396659 4.8796337e-006 0.00081277604
4.7155139e-005 0.00077723013 4.259769e-005 0.00070558774 0.99957258 -0.010362678 4.2539225e-005 0.0035986353
1.163312e-005 0.0010363914 1.1907332e-005 0.00098290667 6.304449e-006 0.00081416196 6.9677735e-006 0.00082780031
-5.0417129e-006 0.00096139702 -3.2150929e-006 0.00086921518 3.1498927e-005 0.0035956847 0.99984223 -0.011810378
1.4804108e-005 0.0017300339 8.8009965e-006 0.0010554263 9.3438348e-007 0.00084640371 1.8981136e-006 0.00088097673
-2.2013457e-007 0.00099891867 7.2211787e-006 0.0015503038 6.8013533e-006 0.0010364862 1.4984411e-005 0.0017256528
0.9992733 -0.012002417 3.3184038e-005 0.0029202329 7.0789315e-006 0.0010231043 8.0907785e-006 0.0010648578
8.6036798e-006 0.0016674707 -3.0593701e-006 0.00085744681 5.6868003e-006 0.00098441693 6.9862731e-006 0.0010584564
2.9495917e-005 0.0029244793 0.99991602 -0.012110201 1.3462592e-005 0.0016634547 6.9558014e-006 0.0010619578
7.8456782e-007 0.00096656848 -1.494175e-006 0.00084656035 3.7451757e-006 0.00081262342 4.2136976e-006 0.0008455427
8.1327644e-006 0.0010249519 1.680308e-005 0.0016579756 0.99968398 -0.01117049 3.6312413e-005 0.0036935809
-1.6205188e-006 0.00095232605 6.796871e-007 0.0008263776 5.5836081e-006 0.00082681736 5.9374283e-006 0.00088350539
9.1011179e-006 0.0010644324 6.3822376e-006 0.0010616395 3.320599e-005 0.0036997795 0.99954045 -0.011066157
2997997.997998 0.99968487 -0.012057321 3.134086e-005 0.0042551435 4.7521535e-006 0.0010802838 3.5751032e-006 0.0011262224
4.5024872e-006 0.0011842202 1.5755766e-005 0.001982972 3.9141573e-006 0.0011443564 3.5049857e-006 0.0011228884
3.441119e-005 0.0042470344 0.99995005 -0.011702067 2.030192e-006 0.00098118617 1.039752e-006 0.0010203396
1.2534165e-005 0.0018440493 2.7196265e-006 0.0010064133 1.4679037e-007 0.0010007822 6.26573e-006 0.00097438949
4.6010689e-005 0.00092683535 4.4316504e-005 0.00084245711 0.99977499 -0.010918223 4.8100414e-005 0.0043192655
1.4367758e-005 0.0012435731 8.9714285e-006 0.0011792356 5.8989845e-006 0.00098125951 5.5327496e-006 0.00098991743
-3.9730121e-006 0.0011526495 -4.909863e-006 0.0010452435 3.3937118e-005 0.004314695 1.0002743 -0.0131396
1.7362676e-005 0.0020735904 8.6266309e-006 0.0012721233 3.1307832e-006 0.0010139056 4.0022101e-006 0.0010563118
-1.7493149e-006 0.0012012344 8.7037997e-006 0.0018619025 6.3391867e-006 0.0012411397 1.8856186e-005 0.0020725781
1.0003029 -0.014673619 3.9235478e-005 0.0035076856 9.4457509e-006 0.0012294467 1.0284782e-005 0.0012764072
6.6883995e-006 0.0019992336 -6.2234358e-006 0.0010286558 5.8307887e-006 0.001178883 5.4658344e-006 0.0012699295
2.7841517e-005 0.0035120181 0.99983001 -0.012759597 1.0425571e-005 0.001994933 5.605958e-006 0.0012742127
2.7091044e-006 0.0011592144 -2.0460211e-006 0.0010161564 5.8729383e-006 0.00098158268 4.2177749e-006 0.001014212
5.6383114e-006 0.0012277607 1.4461009e-005 0.0019873679 0.99947071 -0.011732754 4.1953561e-005 0.0044266903
-1.7738786e-006 0.0011412882 -1.5013242e-006 0.00099487707 6.1835067e-006 0.00099158078 4.98807e-006 0.0010561849
9.8059163e-006 0.0012794052 6.4576325e-006 0.0012722829 3.5201749e-005 0.004433854 0.99926382 -0.012143185
3497497.4974975 0.99987668 -0.015961995 4.7969923e-005 0.0049652378 7.4787799e-006 0.0012621979 4.4504936e-006 0.0013191558
8.8717543e-006 0.0013807897 2.218957e-005 0.0023167178 6.584924e-006 0.0013382788 6.0473812e-006 0.00131082
4.7611757e-005 0.0049545509 0.99997735 -0.015450871 3.3935762e-006 0.0011467761 5.9571735e-006 0.0011922498
2.1182208e-005 0.0021518909 6.9206812e-006 0.0011776773 3.719656e-006 0.0011658123 3.8559574e-006 0.0011400249
4.9045349e-005 0.0010754188 4.2904689e-005 0.00098091562 0.99999285 -0.014501747 6.7715402e-005 0.0050419886
2.0312464e-005 0.00144994 1.3513433e-005 0.0013764217 8.4273706e-006 0.0011435085 1.1134062e-005 0.00115525
1.3178968e-007 0.0013472424 -5.0518556e-006 0.0012190931 4.9443574e-005 0.0050353399 0.99967164 -0.017007146
2.4229039e-005 0.0024192668 8.2977631e-006 0.0014789993 -9.9986238e-008 0.0011852111 4.1762487e-006 0.0012344741
-2.09563e-006 0.0014022007 9.3352828e-006 0.0021699902 4.2254428e-006 0.0014488291 1.8218305e-005 0.0024167022
0.998851 -0.016702604 4.1326995e-005 0.0040905955 3.1880509e-006 0.0014334844 9.8745259e-006 0.0014846874
9.9415374e-006 0.0023343032 -2.4329411e-006 0.0012003761 9.49485e-006 0.0013765554 1.0324949e-005 0.0014821154
4.4495904e-005 0.0040956098 0.99976403 -0.017089883 1.5849713e-005 0.0023292061 1.0419787e-005 0.0014836657
5.8084089e-007 0.0013566143 -1.4041656e-006 0.0011846863 3.7997204e-006 0.0011418067 5.2948458e-006 0.0011845985
1.2380126e-005 0.0014355417 2.7041924e-005 0.0023208165 0.99968129 -0.015871501 6.4716893e-005 0.0051667546
-7.699183e-007 0.0013305779 -1.5579398e-006 0.0011600043 4.843595e-006 0.001156149 4.4884132e-006 0.001237749
1.0954011e-005 0.0014912734 1.0738766e-005 0.0014850401 5.1039169e-005 0.0051738066 0.9991622 -0.016307101
3996996.996997 0.99976957 -0.017622113 4.9073151e-005 0.0056739855 5.5779756e-006 0.0014399241 2.6836999e-006 0.0015033341
5.5493579e-006 0.0015791843 2.2109116e-005 0.0026406078 -1.027831e-007 0.0015297064 3.7202451e-006 0.0014997476
4.8388451e-005 0.0056662387 0.9999702 -0.016901711 3.1084501e-006 0.0013071876 2.0188204e-006 0.0013614676
2.2665612e-005 0.0024623738 1.5155159e-006 0.0013438141 -2.3161649e-006 0.0013348776 5.8115558e-007 0.0013031441
5.2975432e-005 0.0012270096 4.4416745e-005 0.0011143461 0.99951982 -0.015865471 8.0422236e-005 0.005761038
2.0471854e-005 0.001658225 1.3578962e-005 0.0015719278 8.2422466e-006 0.001305052 8.8729166e-006 0.0013221325
-5.8969617e-006 0.0015419592 -7.0228593e-006 0.0013943629 5.3966643e-005 0.0057581123 0.99972653 -0.019179845
2.3938697e-005 0.0027670893 7.2459143e-006 0.0016928936 -1.8202062e-006 0.0013537847 5.9259733e-006 0.0014115056
-1.4852259e-006 0.0016004759 1.1443868e-005 0.0024788042 4.2850429e-006 0.0016537677 2.4269262e-005 0.002763527
0.99832666 -0.021072824 5.3032087e-005 0.0046717464 7.0498877e-006 0.0016401584 1.0386081e-005 0.0016984482
8.3262548e-006 0.0026687938 -8.2948627e-006 0.0013710501 4.7273752e-006 0.0015726517 3.8023993e-006 0.0016961304
4.075186e-005 0.0046813115 0.99962503 -0.018229561 1.3057061e-005 0.0026575467 4.7103108e-006 0.0016967689
-7.7498692e-007 0.0015507375 -9.6559359e-007 0.0013573616 4.5445795e-006 0.0013054127 5.6294648e-006 0.0013503268
8.1963808e-006 0.0016404006 2.374816e-005 0.0026542761 0.99936742 -0.016873877 6.8641588e-005 0.0059068683
-3.334757e-007 0.0015240194 -7.3125229e-006 0.001327749 1.5749589e-006 0.0013238029 5.7090679e-006 0.0014115986
8.6728769e-006 0.0017059344 8.2810166e-006 0.0016996094 5.0675233e-005 0.0059165428 0.99930775 -0.01730348
4496496.4964965 0.99983954 -0.021165621 6.7822322e-005 0.0063902135 8.1324843e-006 0.0016221899 7.9038946e-006 0.0016964872
9.1775346e-006 0.0017758906 3.1712774e-005 0.0029761891 2.9631224e-006 0.001719279 8.154143e-006 0.0016900769
6.5353117e-005 0.0063798642 0.99984515 -0.020094562 1.9707675e-006 0.0014714242 5.4571592e-007 0.0015328091
2.6317741e-005 0.0027694949 1.5255644e-006 0.0015176331 -9.9387807e-007 0.0015019991 2.160758e-006 0.00146683
5.5569137e-005 0.0013796672 4.5818062e-005 0.0012520551 0.99978065 -0.019175453 0.00010586604 0.0064887875
2.5192887e-005 0.0018675301 2.041376e-005 0.001768486 1.1209066e-005 0.0014724353 1.3062835e-005 0.0014896228
-5.9419153e-006 0.0017361494 -5.9070799e-006 0.0015707656 6.6320084e-005 0.0064845392 0.99978238 -0.02191871
2.6748146e-005 0.0031179551 9.6237991e-006 0.0019061655 -2.0526636e-007 0.001528478 2.3668399e-006 0.0015903271
-9.2532991e-006 0.0018112338 5.1630595e-006 0.0028003997 1.5431519e-006 0.0018703782 2.0646841e-005 0.0031150104
1.0004079 -0.021492714 5.1907507e-005 0.0052750763 1.5167396e-006 0.001851439 5.4101797e-006 0.001922348
1.1317246e-005 0.0030078685 -1.1392646e-005 0.0015444605 7.3427855e-006 0.0017707369 4.3087725e-006 0.0019068097
5.1723946e-005 0.005275839 0.99969649 -0.022330819 1.7223534e-005 0.0029957977 4.9700598e-006 0.0019136681
2.2371391e-006 0.0017451163 -6.8090156e-007 0.0015246677 6.5239542e-006 0.0014732155 6.2658119e-006 0.0015235081
1.271897e-005 0.0018490941 3.7827656e-005 0.0029895913 0.99981117 -0.020971397 9.2376002e-005 0.0066588158
2.2956499e-006 0.0017170715 -2.1350261e-006 0.0014925601 3.9933225e-006 0.0014895942 6.8639833e-006 0.0015898549
1.2328468e-005 0.0019208761 1.1777505e-005 0.0019125351 6.6952554e-005 0.0066629299 1.000047 -0.021088468
4995995.995996 0.99974042 -0.02317759 7.1713977e-005 0.0071082828 4.3564328e-006 0.0018072654 3.7116301e-006 0.0018847688
3.3666752e-006 0.00197785 3.0830332e-005 0.0033090487 1.7735628e-006 0.0019133283 4.9416167e-006 0.0018787287
6.5485445e-005 0.0070972387 0.99978143 -0.022127308 1.2775179e-006 0.0016378935 2.1996882e-006 0.0017060193
2.668291e-005 0.003084529 -9.81266e-007 0.0016850998 -2.1510687e-006 0.0016695195 1.5371028e-006 0.0016342327
7.4272342e-005 0.0015454782 4.5736117e-005 0.0013934105 0.99923432 -0.021114692 0.0001208176 0.0072080921
2.7911836e-005 0.0020734984 1.8827934e-005 0.0019668627 9.5286514e-006 0.0016352566 1.463344e-005 0.0016558438
-9.8118207e-006 0.001931767 -9.5540463e-006 0.0017487071 7.2417053e-005 0.0072157076 0.99955738 -0.024741661
2.987287e-005 0.0034681647 6.6566613e-006 0.0021203686 -3.9064616e-006 0.0016977675 2.1243741e-006 0.0017695094
-1.8075396e-005 0.0020057352 1.0331834e-006 0.0031107317 -5.9987889e-007 0.0020725327 1.6650078e-005 0.0034625707
0.99783641 -0.024636688 5.1315499e-005 0.0058601568 -4.7046642e-006 0.0020541428 2.8778923e-006 0.0021317215
2.4394612e-006 0.0033416355 -1.466801e-005 0.0017222173 1.3621003e-006 0.0019696399 -2.4044513e-007 0.0021229372
4.824021e-005 0.0058705816 0.99936801 -0.023888145 1.1531009e-005 0.0033354179 1.3468093e-006 0.0021264176
-3.359504e-006 0.001940832 -4.4011508e-006 0.0016979313 7.1457703e-006 0.0016354044 6.4442065e-006 0.0016945805
9.3338058e-006 0.0020557863 3.9519793e-005 0.003322483 0.99940592 -0.022228654 0.00010041946 0.0074033923
-6.3619905e-006 0.0019037498 -6.0016196e-006 0.0016628974 3.1911118e-006 0.0016572218 2.8919399e-006 0.0017693569
9.0342355e-006 0.0021379797 9.4805855e-006 0.0021259687 6.3603489e-005 0.0074112741 0.9997012 -0.022281144
5495495.4954955 0.99978578 -0.025797147 7.8662772e-005 0.0078308163 2.0360933e-006 0.0019866314 -3.2346716e-007 0.0020757634
1.2816269e-006 0.002175146 3.5642763e-005 0.0036454685 -2.9181238e-006 0.0021095965 1.8380557e-006 0.0020696539
7.1364586e-005 0.007817165 0.99976778 -0.024701118 -6.0895618e-006 0.0018046226 -3.7300913e-006 0.0018761985
2.37071e-005 0.0033911308 -6.0464063e-006 0.0018566402 -6.335908e-006 0.0018416079 -4.7537342e-006 0.0017985384
6.2256033e-005 0.0016922466 4.3791166e-005 0.0015302164 0.99979925 -0.023686375 0.0001408801 0.0079381652
2.7157619e-005 0.0022853184 1.8720322e-005 0.0021678261 1.0615606e-005 0.0018034254 1.3207979e-005 0.0018244594
-1.4703437e-005 0.0021278106 -1.2894976e-005 0.0019284344 6.4699692e-005 0.0079518985 0.99935919 -0.026741039
