!Agilent Technologies,M9370A,MY54322275,A.02.50.04
!Agilent M9370A: A.02.50.04
!Date: Friday, April 06, 2018 12:58:21
!Correction: S11(Full 8 Port(1,2,3,4,5,6,7,8)) 
!S12(Full 8 Port(1,2,3,4,5,6,7,8)) 
!S13(Full 8 Port(1,2,3,4,5,6,7,8)) 
!S14(Full 8 Port(1,2,3,4,5,6,7,8)) 
!S15(Full 8 Port(1,2,3,4,5,6,7,8)) 
!S16(Full 8 Port(1,2,3,4,5,6,7,8)) 
!S17(Full 8 Port(1,2,3,4,5,6,7,8)) 
!S18(Full 8 Port(1,2,3,4,5,6,7,8)) 
!S21(Full 8 Port(1,2,3,4,5,6,7,8)) 
!S22(Full 8 Port(1,2,3,4,5,6,7,8)) 
!S23(Full 8 Port(1,2,3,4,5,6,7,8)) 
!S24(Full 8 Port(1,2,3,4,5,6,7,8)) 
!S25(Full 8 Port(1,2,3,4,5,6,7,8)) 
!S26(Full 8 Port(1,2,3,4,5,6,7,8)) 
!S27(Full 8 Port(1,2,3,4,5,6,7,8)) 
!S28(Full 8 Port(1,2,3,4,5,6,7,8)) 
!S31(Full 8 Port(1,2,3,4,5,6,7,8)) 
!S32(Full 8 Port(1,2,3,4,5,6,7,8)) 
!S33(Full 8 Port(1,2,3,4,5,6,7,8)) 
!S34(Full 8 Port(1,2,3,4,5,6,7,8)) 
!S35(Full 8 Port(1,2,3,4,5,6,7,8)) 
!S36(Full 8 Port(1,2,3,4,5,6,7,8)) 
!S37(Full 8 Port(1,2,3,4,5,6,7,8)) 
!S38(Full 8 Port(1,2,3,4,5,6,7,8)) 
!S41(Full 8 Port(1,2,3,4,5,6,7,8)) 
!S42(Full 8 Port(1,2,3,4,5,6,7,8)) 
!S43(Full 8 Port(1,2,3,4,5,6,7,8)) 
!S44(Full 8 Port(1,2,3,4,5,6,7,8)) 
!S45(Full 8 Port(1,2,3,4,5,6,7,8)) 
!S46(Full 8 Port(1,2,3,4,5,6,7,8)) 
!S47(Full 8 Port(1,2,3,4,5,6,7,8)) 
!S48(Full 8 Port(1,2,3,4,5,6,7,8)) 
!S51(Full 8 Port(1,2,3,4,5,6,7,8)) 
!S52(Full 8 Port(1,2,3,4,5,6,7,8)) 
!S53(Full 8 Port(1,2,3,4,5,6,7,8)) 
!S54(Full 8 Port(1,2,3,4,5,6,7,8)) 
!S55(Full 8 Port(1,2,3,4,5,6,7,8)) 
!S56(Full 8 Port(1,2,3,4,5,6,7,8)) 
!S57(Full 8 Port(1,2,3,4,5,6,7,8)) 
!S58(Full 8 Port(1,2,3,4,5,6,7,8)) 
!S61(Full 8 Port(1,2,3,4,5,6,7,8)) 
!S62(Full 8 Port(1,2,3,4,5,6,7,8)) 
!S63(Full 8 Port(1,2,3,4,5,6,7,8)) 
!S64(Full 8 Port(1,2,3,4,5,6,7,8)) 
!S65(Full 8 Port(1,2,3,4,5,6,7,8)) 
!S66(Full 8 Port(1,2,3,4,5,6,7,8)) 
!S67(Full 8 Port(1,2,3,4,5,6,7,8)) 
!S68(Full 8 Port(1,2,3,4,5,6,7,8)) 
!S71(Full 8 Port(1,2,3,4,5,6,7,8)) 
!S72(Full 8 Port(1,2,3,4,5,6,7,8)) 
!S73(Full 8 Port(1,2,3,4,5,6,7,8)) 
!S74(Full 8 Port(1,2,3,4,5,6,7,8)) 
!S75(Full 8 Port(1,2,3,4,5,6,7,8)) 
!S76(Full 8 Port(1,2,3,4,5,6,7,8)) 
!S77(Full 8 Port(1,2,3,4,5,6,7,8)) 
!S78(Full 8 Port(1,2,3,4,5,6,7,8)) 
!S81(Full 8 Port(1,2,3,4,5,6,7,8)) 
!S82(Full 8 Port(1,2,3,4,5,6,7,8)) 
!S83(Full 8 Port(1,2,3,4,5,6,7,8)) 
!S84(Full 8 Port(1,2,3,4,5,6,7,8)) 
!S85(Full 8 Port(1,2,3,4,5,6,7,8)) 
!S86(Full 8 Port(1,2,3,4,5,6,7,8)) 
!S87(Full 8 Port(1,2,3,4,5,6,7,8)) 
!S88(Full 8 Port(1,2,3,4,5,6,7,8)) 
!S8P File: Measurements: <S11,S12,S13,S14,S15,S16,S17,S18>,
!<S21,S22,S23,S24,S25,S26,S27,S28>,
!<S31,S32,S33,S34,S35,S36,S37,S38>,
!<S41,S42,S43,S44,S45,S46,S47,S48>,
!<S51,S52,S53,S54,S55,S56,S57,S58>,
!<S61,S62,S63,S64,S65,S66,S67,S68>,
!<S71,S72,S73,S74,S75,S76,S77,S78>,
!<S81,S82,S83,S84,S85,S86,S87,S88>:
# Hz S  RI   R 50
1000000 -0.75108504 0.095441483 0.24718662 0.005956505 0.24703676 -0.0023560519 0.24643391 -0.002175861
0.25020918 -0.0036709018 0.24783431 -0.002962596 0.24865238 -0.0018362234 0.25073937 -0.0031123338
0.24756949 0.0057843789 -0.7499339 0.090156071 0.24560834 -0.0014419791 0.24553528 -0.0012131489
0.24936831 -0.003115393 0.24633338 -0.0021318018 0.24717179 -0.00095112243 0.24681328 -0.001659563
0.24680027 -0.0021982021 0.2459233 -0.0010169579 -0.74729759 0.096479408 0.24593388 0.0055824742
0.24935326 -0.0026543129 0.24532406 -0.0017884411 0.24724478 -0.0030675454 0.24627586 -0.0033151498
0.24702358 -0.0015894595 0.24615552 -0.00035741291 0.24715945 0.0061437152 -0.74677211 0.095505215
0.24863479 -0.0021887901 0.24543852 -0.0014289904 0.24708144 -0.0023974832 0.24800235 -0.0030883502
0.25009468 -0.0033541673 0.24919671 -0.0025137479 0.24941748 -0.0024473285 0.24886742 -0.0025094822
-0.75410366 0.1045562 0.24906784 0.0035758852 0.24877408 -0.0024632113 0.24877711 -0.0028363103
0.24654524 -0.0023501054 0.24563967 -0.0014016122 0.24590564 -0.0017133742 0.24536888 -0.0018342638
0.25014177 0.0034958038 -0.74756247 0.095101148 0.2460665 -0.0013133525 0.24590531 -0.0016002891
0.24709129 -0.0014503341 0.24615201 -0.00039500819 0.24619399 -0.002842674 0.2456647 -0.002731479
0.2498045 -0.0029269797 0.24573258 -0.0014047136 -0.74738699 0.096524939 0.24641854 0.0050791507
0.24604349 -0.0022169871 0.24549235 -0.0011488895 0.24556701 -0.0032868537 0.24504386 -0.0031655608
0.24918836 -0.003283801 0.24512941 -0.0017646647 0.24704945 0.0050938767 -0.74727041 0.098648995
1499499.4994995 -0.74710357 0.024163527 0.24951911 0.007151532 0.24938045 -0.003436178 0.24920738 -0.0032949562
0.25014114 -0.0028480471 0.24907349 -0.0040027937 0.24972002 -0.0021384396 0.2494965 -0.0025708559
0.24965617 0.0071027447 -0.74716288 0.024484925 0.2490062 -0.0034044483 0.24901566 -0.0031878913
0.24987723 -0.0033077316 0.24883765 -0.0043099038 0.24953821 -0.0023566333 0.24932326 -0.0028176873
0.24937865 -0.0034495802 0.2492934 -0.0033223855 -0.74688864 0.024392212 0.24964283 0.0079897577
0.2501781 -0.0015239154 0.24913391 -0.0030300855 0.24958424 -0.0042045778 0.249302 -0.004210155
0.24945199 -0.0033284915 0.24941741 -0.003113457 0.25012413 0.0080639226 -0.7469238 0.024465853
0.2500498 -0.0017237159 0.24924189 -0.0033014095 0.24969552 -0.0041318624 0.2494649 -0.0041283928
0.25026152 -0.0030174467 0.25010493 -0.0033734166 0.25027505 -0.0016191371 0.25011849 -0.0018023961
-0.75026548 0.020902555 0.25048578 0.006869772 0.25060818 -0.0018661726 0.25039664 -0.0017352281
0.24910624 -0.0041440865 0.24902694 -0.004353554 0.24914655 -0.0031134684 0.24899428 -0.0033775207
0.25057134 0.0069604991 -0.74709612 0.024592247 0.24945161 -0.002412464 0.24930575 -0.0022984804
0.24963894 -0.0023236799 0.24953403 -0.0023953838 0.24947527 -0.0043059592 0.24932031 -0.004232768
0.25039542 -0.0018239296 0.24941467 -0.0024124356 -0.74775606 0.02193157 0.24983631 0.0080618383
0.24907607 -0.0027384772 0.24910131 -0.0028203104 0.24907167 -0.0042751487 0.24892399 -0.0041843755
0.25000364 -0.0016602264 0.2490295 -0.0022518274 0.25011006 0.0081850346 -0.74801028 0.022140397
1998998.998999 -0.74608219 0.030756896 0.24983491 0.0095677748 0.24927512 -0.0045769201 0.24915279 -0.0044402475
0.2494428 -0.0048055728 0.24897808 -0.0053212349 0.24967115 -0.0029437782 0.24939075 -0.0035294159
0.24987495 0.0094431601 -0.74620628 0.030775903 0.2489966 -0.0044435812 0.2489724 -0.0042022821
0.24916127 -0.0053115166 0.24875455 -0.0056459066 0.24950038 -0.0031484796 0.24922444 -0.0037703747
0.24933849 -0.0045802798 0.24928392 -0.0042652702 -0.74581558 0.031024007 0.25002158 0.010509386
0.249524 -0.003007801 0.24909516 -0.0039872988 0.24949135 -0.0056551672 0.2491709 -0.0056724083
0.24946342 -0.0043893815 0.24941142 -0.0039591477 0.25038984 0.010665949 -0.74605346 0.030986626
0.24947523 -0.0032259014 0.24919808 -0.0043187463 0.2496103 -0.005530633 0.24932633 -0.0055348189
0.24992104 -0.0049028643 0.24976198 -0.0052283453 0.24991834 -0.0030470018 0.24979669 -0.0033445805
-0.74809837 0.03015466 0.25049174 0.0081849471 0.25027111 -0.003461157 0.25001886 -0.0032948765
0.24905431 -0.0052314722 0.24900763 -0.0053807236 0.24907862 -0.0038728677 0.24895783 -0.0042741555
0.25019729 0.0083773257 -0.7459895 0.030912045 0.24944673 -0.003025031 0.24923742 -0.002886913
0.24960271 -0.0031424235 0.24952868 -0.0031442109 0.24933697 -0.0057943952 0.24922717 -0.0057341019
0.24970725 -0.0035012579 0.24936865 -0.0032598982 -0.74677956 0.028099794 0.2501626 0.010485037
0.24910569 -0.0035804992 0.24911861 -0.0036110315 0.24896735 -0.0056598196 0.24886687 -0.0055788378
0.24935506 -0.0031907116 0.24902125 -0.0029536225 0.25038159 0.010719656 -0.74694252 0.02833703
2498498.4984985 -0.74558169 0.037378307 0.25033247 0.010392204 0.2493737 -0.0071990178 0.24922128 -0.0070330296
0.24934648 -0.0079312641 0.249107 -0.0081506418 0.24975559 -0.0051615685 0.24941586 -0.0058559403
0.25030285 0.010302434 -0.74572998 0.037156831 0.24913166 -0.0069295545 0.24905558 -0.0066411952
0.24904114 -0.0084523708 0.2489236 -0.0084701292 0.24958698 -0.0053282282 0.24925897 -0.0060720681
0.24942413 -0.0073031322 0.24940702 -0.0069114366 -0.74575281 0.037737779 0.25055429 0.011446398
0.2494683 -0.0057398472 0.24923445 -0.0065549742 0.24950917 -0.0086095873 0.2491876 -0.0086028008
0.2494058 -0.0068934425 0.24939723 -0.0063544782 0.25075498 0.011834432 -0.74514735 0.037256967
0.24916644 -0.005815329 0.24917689 -0.0067927088 0.24948421 -0.0082742628 0.2492201 -0.0082517024
0.24900459 -0.0079934364 0.24886687 -0.008347054 0.2490533 -0.005588274 0.2488983 -0.0059829527
-0.74482942 0.038163129 0.25000373 0.0082374876 0.24926308 -0.0061410842 0.24903402 -0.0058986316
0.24907498 -0.0080173425 0.24907708 -0.0081789382 0.2491542 -0.0062334067 0.24899636 -0.0067611947
0.25042981 0.0084917974 -0.74539971 0.037579458 0.24950315 -0.005227224 0.24925405 -0.0050113439
0.24968064 -0.0055786795 0.24964681 -0.0055784718 0.24934879 -0.0088388352 0.2492153 -0.0087846946
0.2495964 -0.0064395485 0.24948378 -0.0057276292 -0.74630022 0.034297016 0.25060385 0.011384645
0.24923368 -0.0060682078 0.24927504 -0.0061162785 0.24903892 -0.0086205946 0.24891286 -0.008544283
0.24930325 -0.0060029449 0.24919932 -0.0052977223 0.25084338 0.01167644 -0.74635351 0.034531191
2997997.997998 -0.74478 0.043265868 0.25056943 0.012879113 0.24924859 -0.0081508886 0.24915038 -0.0080127418
0.24916938 -0.0090307919 0.24892825 -0.0092791254 0.24964856 -0.0057371701 0.24933262 -0.0066914074
0.25054339 0.012745543 -0.7449438 0.04304672 0.2490477 -0.0078366874 0.24900308 -0.0075464034
0.24885008 -0.0096400557 0.24876507 -0.0096752597 0.2495002 -0.0059429207 0.24919292 -0.0069580618
0.24931158 -0.008285515 0.24930124 -0.0077976743 -0.74475735 0.043866966 0.2509397 0.014054733
0.24934408 -0.0063816304 0.24911229 -0.0073470576 0.24933767 -0.009858829 0.24905163 -0.00997175
0.24931562 -0.0078276731 0.24931471 -0.0071658986 0.25108913 0.014489207 -0.74463713 0.043351758
0.24902777 -0.006505114 0.24906643 -0.007664239 0.24933147 -0.0094869388 0.24911059 -0.0095852017
0.24909051 -0.0094297715 0.24892834 -0.0098404307 0.24917881 -0.0065949047 0.24906471 -0.0070684771
-0.74470139 0.045250889 0.25045398 0.0099832248 0.24933206 -0.007226693 0.24917248 -0.0070662424
0.24896833 -0.0089861313 0.24898309 -0.0091880234 0.24908616 -0.0069081653 0.24897042 -0.0075412123
0.25063401 0.010736018 -0.74457389 0.043219097 0.24943854 -0.0056750551 0.24923597 -0.0055546467
0.2495738 -0.0062087472 0.24955119 -0.0062101842 0.24916664 -0.010151808 0.24908136 -0.010092224
0.24942867 -0.0072207646 0.2493507 -0.0063730194 -0.74548423 0.039588075 0.25093105 0.013882542
0.24908926 -0.0067194598 0.24912746 -0.0067821564 0.24882139 -0.0098265447 0.24874522 -0.0097373463
0.24910754 -0.0066303224 0.24903704 -0.0057888096 0.25103378 0.014417582 -0.745516 0.04011463
3497497.4974975 -0.74431634 0.049191296 0.25100926 0.014931373 0.24924982 -0.0095063746 0.24908556 -0.0093192598
0.24916764 -0.010590206 0.24891457 -0.010804285 0.24970497 -0.0066893138 0.24929757 -0.0078243893
0.25089514 0.014801279 -0.74430764 0.048892643 0.24900663 -0.009108549 0.24888557 -0.0087432815
0.24875845 -0.011246584 0.24872214 -0.011246411 0.24949454 -0.0069064386 0.24909846 -0.008109306
0.24930622 -0.009678605 0.24932051 -0.0090626264 -0.74417335 0.049765348 0.25133327 0.016289549
0.24935818 -0.0074956995 0.24912156 -0.0085860118 0.24927725 -0.01147638 0.2489502 -0.011618739
0.2492093 -0.0090546291 0.24924555 -0.0082316967 0.25143242 0.016880618 -0.74358779 0.048954919
0.24914962 -0.0075633903 0.24897105 -0.0088632861 0.2491744 -0.010955375 0.24885754 -0.011071384
0.24875048 -0.010124861 0.24857211 -0.010549796 0.24886462 -0.006794075 0.24866687 -0.0073425523
-0.74297291 0.049364597 0.25045243 0.01241377 0.24911393 -0.0075582196 0.24881373 -0.0073528327
0.24888872 -0.010468525 0.2489261 -0.010673103 0.24903977 -0.008027615 0.24883947 -0.0087628281
0.2509596 0.012375547 -0.74374145 0.049152464 0.24942087 -0.006613398 0.24914938 -0.0064573181
0.24960682 -0.007368546 0.24960749 -0.0073219389 0.24909754 -0.011887103 0.24894188 -0.011817059
0.24944277 -0.0085644824 0.24937789 -0.0075429217 -0.74504387 0.04508397 0.25133598 0.015977724
0.2491165 -0.007877809 0.24917236 -0.0079073654 0.24876234 -0.011432019 0.24861212 -0.011327842
0.24912483 -0.0077937995 0.24907912 -0.0067819632 0.25145566 0.016696295 -0.74483955 0.045585845
3996996.996997 -0.74357271 0.055265442 0.25138253 0.017372208 0.24912579 -0.010444317 0.24898142 -0.010253858
0.24906595 -0.011678348 0.24875014 -0.011973753 0.24963817 -0.0072536529 0.24925695 -0.0084640104
0.25125548 0.017261738 -0.74362475 0.054861628 0.24889635 -0.0099499961 0.24879594 -0.0095539894
0.24863167 -0.01236726 0.24857022 -0.012440144 0.24943829 -0.007459511 0.24906747 -0.0087569375
0.24918284 -0.010669203 0.24921054 -0.010009348 -0.74306148 0.055817351 0.25167716 0.018885138
0.24924636 -0.0081192972 0.2489499 -0.0094094509 0.24905311 -0.012677689 0.24877034 -0.012796664
0.24920642 -0.0099903867 0.24925594 -0.0091005499 0.25186491 0.01951674 -0.7428894 0.05513395
0.24915379 -0.0082307272 0.24890575 -0.0097572887 0.24906689 -0.012121366 0.24879725 -0.012212471
0.24862105 -0.011689412 0.24842791 -0.012179306 0.24874382 -0.0078471471 0.24855098 -0.0084823444
-0.74188739 0.056984302 0.25073448 0.013982521 0.24898177 -0.0086932611 0.24873187 -0.0084469644
0.24886073 -0.011315511 0.24891329 -0.011581725 0.24900241 -0.0084959501 0.24881241 -0.0093485126
0.25130504 0.014772691 -0.74294502 0.054618366 0.24941957 -0.0068593263 0.24919285 -0.0066741505
0.24958034 -0.0079079289 0.24958655 -0.0079230964 0.24891055 -0.013078188 0.24877185 -0.013015255
0.24935953 -0.009240617 0.2492808 -0.0081217792 -0.74422342 0.050184283 0.25172672 0.018693369
0.24914241 -0.008478771 0.2492075 -0.0085815275 0.24864954 -0.012553249 0.24851787 -0.01244636
0.24912772 -0.008359341 0.24905807 -0.007245115 0.25183928 0.019494144 -0.74429953 0.050679192
4496496.4964965 -0.74289572 0.062222939 0.25194755 0.019290086 0.24923865 -0.011988104 0.24910568 -0.01172729
0.24918513 -0.013271497 0.24882647 -0.013699755 0.24984784 -0.0083480356 0.24957882 -0.0097176507
0.25185603 0.019241495 -0.74288362 0.061534822 0.24903581 -0.011342444 0.24894001 -0.010857686
0.24872832 -0.013947778 0.24865499 -0.01414669 0.24964774 -0.0085040536 0.24939246 -0.0099710608
0.2492224 -0.0121898 0.24923272 -0.011417271 -0.74240172 0.062763713 0.25236708 0.020984482
0.24939147 -0.0092537766 0.24905071 -0.010810304 0.2490945 -0.01446774 0.24894986 -0.014583568
0.24926262 -0.011177384 0.2492978 -0.010141818 0.25251779 0.02195237 -0.74221909 0.061271805
0.24930963 -0.0091251992 0.24900623 -0.010951987 0.24912949 -0.013591361 0.24899438 -0.013675356
0.24924465 -0.012355288 0.24899589 -0.012862213 0.24946135 -0.0079498282 0.24926244 -0.0086472947
-0.74287355 0.061407283 0.25180498 0.016497102 0.24970202 -0.0090057524 0.24959759 -0.0086637437
0.24890465 -0.012896554 0.24893913 -0.013174079 0.24915484 -0.0096650114 0.2489481 -0.010606208
0.25190976 0.016459152 -0.74230343 0.061671119 0.24961872 -0.0079294778 0.24954024 -0.0076529561
0.24972466 -0.009225456 0.2497061 -0.0092248823 0.24897166 -0.014987338 0.24883616 -0.014894741
0.24953906 -0.010624011 0.24945739 -0.0094752284 -0.74387777 0.056927603 0.2526083 0.020664344
0.24922289 -0.0097714243 0.24926208 -0.0098681282 0.24867187 -0.014297247 0.24854763 -0.014161846
0.24926624 -0.009540434 0.24919522 -0.0084037036 0.25249413 0.021588393 -0.74412078 0.05715118
4995995.995996 -0.74215078 0.068283819 0.25246876 0.021689052 0.24917583 -0.01294693 0.24905197 -0.012681925
0.24925804 -0.014362547 0.24874344 -0.014808393 0.2498716 -0.0088575883 0.24952532 -0.010366186
0.25237834 0.021730227 -0.74217635 0.067623734 0.24899235 -0.012203407 0.24891032 -0.011680313
0.2487846 -0.015067467 0.24859101 -0.015283997 0.24968231 -0.0090051852 0.24935196 -0.010616745
0.24919623 -0.013193307 0.24921104 -0.012430452 -0.74127841 0.069021083 0.25286102 0.023483487
0.24948326 -0.009949469 0.2489817 -0.011664871 0.24894498 -0.015683314 0.24874523 -0.01583701
0.24935968 -0.012045708 0.24940632 -0.010991753 0.25309509 0.024594136 -0.74137318 0.06757357
0.2495178 -0.0097800745 0.24904904 -0.011791526 0.24911298 -0.014689665 0.24892169 -0.014803768
0.24880946 -0.013254853 0.24852897 -0.013925368 0.24900754 -0.0084672468 0.24881071 -0.0092066946
-0.74056131 0.067825735 0.25177681 0.018585734 0.24924543 -0.0095701329 0.2490997 -0.0092209363
0.24898905 -0.013633684 0.24902278 -0.014082409 0.24921407 -0.010153634 0.24900725 -0.01117087
0.25251833 0.018809201 -0.74145967 0.067152128 0.24972546 -0.0081633134 0.24959838 -0.0078812633
0.24978846 -0.0097848456 0.24977174 -0.0098375119 0.24883229 -0.016209178 0.24870658 -0.016088311
0.24964727 -0.011359667 0.24945383 -0.0100561 -0.74302906 0.062066145 0.2530376 0.023297967
0.24936147 -0.010291328 0.2494005 -0.010457749 0.24863473 -0.015359837 0.24851736 -0.015189764
0.24947654 -0.010066402 0.24929778 -0.0087779667 0.25302783 0.02446302 -0.74330229 0.062176317
5495495.4954955 -0.74149525 0.074445575 0.25315061 0.024095684 0.24932536 -0.013890578 0.24916458 -0.013603252
0.24916802 -0.015373045 0.24880911 -0.016039351 0.25012419 -0.0095896591 0.24966791 -0.011039867
0.2530072 0.024172951 -0.74155939 0.073719628 0.24914916 -0.013047436 0.24901937 -0.012481597
0.2486563 -0.016107282 0.24865131 -0.016545951 0.2499308 -0.0097219814 0.24948902 -0.011298651
0.24933429 -0.014323664 0.24937876 -0.013474924 -0.74084753 0.075432338 0.25364184 0.025916321
0.24950068 -0.01064762 0.24915427 -0.012692947 0.24910109 -0.017140126 0.24880822 -0.017172094
0.24951451 -0.012661346 0.24959306 -0.011493199 0.25384688 0.027575359 -0.74066252 0.072983973
0.24955414 -0.01006646 0.24920769 -0.012437185 0.24931456 -0.015652474 0.2490363 -0.015639454
0.24997337 -0.01427851 0.24971345 -0.014942642 0.25030503 -0.0088537876 0.25003421 -0.0097813942
-0.74150574 0.073660918 0.25341463 0.020869248 0.25028241 -0.01009209 0.25015017 -0.0096658655
0.24918406 -0.014839345 0.24924278 -0.015285734 0.24952991 -0.010892466 0.24924837 -0.012114499
0.25304633 0.020930097 -0.74095035 0.073639914 0.2500779 -0.008744726 0.24987666 -0.0083886208
0.24994092 -0.010701507 0.24994132 -0.010790385 0.24888965 -0.017712411 0.24870813 -0.01765196
0.24958505 -0.012311826 0.24960205 -0.011010832 -0.74259752 0.068355292 0.2537168 0.025684442
0.24953365 -0.011214775 0.24959144 -0.011425296 0.24873458 -0.016737802 0.24856123 -0.016621385
0.24945945 -0.010844645 0.24949165 -0.0095656952 0.25379407 0.026886145 -0.74260664 0.068075009
5994994.994995 -0.74084854 0.080869719 0.25388309 0.026473492 0.24946259 -0.014906654 0.24928653 -0.014653373
0.2496279 -0.016502626 0.24894789 -0.017162755 0.25038081 -0.010191424 0.24997978 -0.011791836
0.25380042 0.026752509 -0.74083334 0.079653725 0.24931803 -0.013818498 0.24918695 -0.013255219
0.24912305 -0.017118188 0.24883865 -0.017565111 0.25022319 -0.010175339 0.24983163 -0.011912703
0.24937768 -0.015380756 0.24938507 -0.014414332 -0.73964751 0.081602782 0.25429541 0.028397633
0.24989903 -0.011290041 0.24922501 -0.013522364 0.2490612 -0.018404301 0.24884509 -0.0184213
0.2498977 -0.013461283 0.24993584 -0.012146949 0.25477839 0.030427558 -0.74006242 0.079123527
0.25029105 -0.010549556 0.24959502 -0.013137364 0.24963115 -0.016679684 0.24942772 -0.016657051
0.24975346 -0.014581205 0.24942242 -0.015229367 0.2500844 -0.0086570177 0.24980611 -0.0096176928
-0.73969352 0.077448189 0.25359699 0.023648284 0.25001022 -0.0099721113 0.24999388 -0.0094919885
0.24943399 -0.01559888 0.24944147 -0.01602936 0.24977797 -0.011275514 0.24948646 -0.012565141
0.25408795 0.023491504 -0.74026591 0.078991458 0.25040102 -0.0089043565 0.25029549 -0.0085037481
0.25019246 -0.01134568 0.25014809 -0.011280993 0.24892962 -0.018864134 0.24874811 -0.018771319
0.25009882 -0.012946497 0.24983491 -0.011567456 -0.74204153 0.073493533 0.25457188 0.028413218
