!Agilent Technologies,M9370A,MY54322275,A.02.50.04
!Agilent M9370A: A.02.50.04
!Date: Friday, April 06, 2018 10:57:07
!Correction: S11(Full 8 Port(1,2,3,4,5,6,7,8)) 
!S12(Full 8 Port(1,2,3,4,5,6,7,8)) 
!S13(Full 8 Port(1,2,3,4,5,6,7,8)) 
!S14(Full 8 Port(1,2,3,4,5,6,7,8)) 
!S15(Full 8 Port(1,2,3,4,5,6,7,8)) 
!S16(Full 8 Port(1,2,3,4,5,6,7,8)) 
!S17(Full 8 Port(1,2,3,4,5,6,7,8)) 
!S18(Full 8 Port(1,2,3,4,5,6,7,8)) 
!S21(Full 8 Port(1,2,3,4,5,6,7,8)) 
!S22(Full 8 Port(1,2,3,4,5,6,7,8)) 
!S23(Full 8 Port(1,2,3,4,5,6,7,8)) 
!S24(Full 8 Port(1,2,3,4,5,6,7,8)) 
!S25(Full 8 Port(1,2,3,4,5,6,7,8)) 
!S26(Full 8 Port(1,2,3,4,5,6,7,8)) 
!S27(Full 8 Port(1,2,3,4,5,6,7,8)) 
!S28(Full 8 Port(1,2,3,4,5,6,7,8)) 
!S31(Full 8 Port(1,2,3,4,5,6,7,8)) 
!S32(Full 8 Port(1,2,3,4,5,6,7,8)) 
!S33(Full 8 Port(1,2,3,4,5,6,7,8)) 
!S34(Full 8 Port(1,2,3,4,5,6,7,8)) 
!S35(Full 8 Port(1,2,3,4,5,6,7,8)) 
!S36(Full 8 Port(1,2,3,4,5,6,7,8)) 
!S37(Full 8 Port(1,2,3,4,5,6,7,8)) 
!S38(Full 8 Port(1,2,3,4,5,6,7,8)) 
!S41(Full 8 Port(1,2,3,4,5,6,7,8)) 
!S42(Full 8 Port(1,2,3,4,5,6,7,8)) 
!S43(Full 8 Port(1,2,3,4,5,6,7,8)) 
!S44(Full 8 Port(1,2,3,4,5,6,7,8)) 
!S45(Full 8 Port(1,2,3,4,5,6,7,8)) 
!S46(Full 8 Port(1,2,3,4,5,6,7,8)) 
!S47(Full 8 Port(1,2,3,4,5,6,7,8)) 
!S48(Full 8 Port(1,2,3,4,5,6,7,8)) 
!S51(Full 8 Port(1,2,3,4,5,6,7,8)) 
!S52(Full 8 Port(1,2,3,4,5,6,7,8)) 
!S53(Full 8 Port(1,2,3,4,5,6,7,8)) 
!S54(Full 8 Port(1,2,3,4,5,6,7,8)) 
!S55(Full 8 Port(1,2,3,4,5,6,7,8)) 
!S56(Full 8 Port(1,2,3,4,5,6,7,8)) 
!S57(Full 8 Port(1,2,3,4,5,6,7,8)) 
!S58(Full 8 Port(1,2,3,4,5,6,7,8)) 
!S61(Full 8 Port(1,2,3,4,5,6,7,8)) 
!S62(Full 8 Port(1,2,3,4,5,6,7,8)) 
!S63(Full 8 Port(1,2,3,4,5,6,7,8)) 
!S64(Full 8 Port(1,2,3,4,5,6,7,8)) 
!S65(Full 8 Port(1,2,3,4,5,6,7,8)) 
!S66(Full 8 Port(1,2,3,4,5,6,7,8)) 
!S67(Full 8 Port(1,2,3,4,5,6,7,8)) 
!S68(Full 8 Port(1,2,3,4,5,6,7,8)) 
!S71(Full 8 Port(1,2,3,4,5,6,7,8)) 
!S72(Full 8 Port(1,2,3,4,5,6,7,8)) 
!S73(Full 8 Port(1,2,3,4,5,6,7,8)) 
!S74(Full 8 Port(1,2,3,4,5,6,7,8)) 
!S75(Full 8 Port(1,2,3,4,5,6,7,8)) 
!S76(Full 8 Port(1,2,3,4,5,6,7,8)) 
!S77(Full 8 Port(1,2,3,4,5,6,7,8)) 
!S78(Full 8 Port(1,2,3,4,5,6,7,8)) 
!S81(Full 8 Port(1,2,3,4,5,6,7,8)) 
!S82(Full 8 Port(1,2,3,4,5,6,7,8)) 
!S83(Full 8 Port(1,2,3,4,5,6,7,8)) 
!S84(Full 8 Port(1,2,3,4,5,6,7,8)) 
!S85(Full 8 Port(1,2,3,4,5,6,7,8)) 
!S86(Full 8 Port(1,2,3,4,5,6,7,8)) 
!S87(Full 8 Port(1,2,3,4,5,6,7,8)) 
!S88(Full 8 Port(1,2,3,4,5,6,7,8)) 
!S8P File: Measurements: <S11,S12,S13,S14,S15,S16,S17,S18>,
!<S21,S22,S23,S24,S25,S26,S27,S28>,
!<S31,S32,S33,S34,S35,S36,S37,S38>,
!<S41,S42,S43,S44,S45,S46,S47,S48>,
!<S51,S52,S53,S54,S55,S56,S57,S58>,
!<S61,S62,S63,S64,S65,S66,S67,S68>,
!<S71,S72,S73,S74,S75,S76,S77,S78>,
!<S81,S82,S83,S84,S85,S86,S87,S88>:
# Hz S  RI   R 50
1000000 0.25264177 0.054537795 0.24578163 0.0079178596 0.080834679 0.0040730597 0.080716074 0.0040927827
0.08077915 0.0041645174 0.081076242 0.0041892948 0.08120247 0.0043530264 0.081968591 0.0041104304
0.24558693 0.0078510307 0.25149578 0.053049523 0.080782607 0.0041376832 0.080667481 0.0041808253
0.080772035 0.0041370215 0.080837578 0.0042022173 0.080970973 0.004373088 0.080925047 0.0042120321
0.080732323 0.004104136 0.080682866 0.0042265216 0.25176209 0.056523442 0.24477969 0.0078567825
0.080645524 0.0041558393 0.080363318 0.0041490467 0.080930158 0.0040647588 0.080677405 0.0040091565
0.080832534 0.0042322478 0.080791123 0.0043674246 0.2452329 0.0082378732 0.25166383 0.056181956
0.080630317 0.0042364853 0.080436662 0.0042155012 0.080907509 0.0041962019 0.081276864 0.0040734732
0.080758572 0.0042949663 0.080722213 0.0043191761 0.080634907 0.0042739203 0.080573343 0.0042484617
0.25360578 0.060160365 0.24444146 0.0070228479 0.08034113 0.0042483858 0.080380842 0.0041811839
0.080689892 0.0043794527 0.080641687 0.0044277408 0.0805832 0.0042883325 0.080518067 0.0042404328
0.2451459 0.0071260356 0.25106895 0.055736229 0.080613151 0.0044289008 0.080522165 0.0043794652
0.080645852 0.0043094847 0.080557711 0.0043984023 0.080506079 0.0040276749 0.080443159 0.0040252078
0.080573224 0.0040682349 0.080287121 0.0042534745 0.25193164 0.057932202 0.24457745 0.0079296408
0.080684111 0.0042025703 0.080598079 0.0042980839 0.080543108 0.0040206811 0.080479577 0.0040160753
0.080612525 0.0040871236 0.08032839 0.0042735357 0.24488616 0.0082761506 0.25131455 0.058114093
1499499.4994995 0.25126976 0.0058450648 0.24989259 0.0020884979 0.083221793 0.00035341206 0.083201602 0.00040563464
0.083234191 0.00085982768 0.083132915 0.00062507729 0.083270475 0.00065437885 0.08322034 0.00054730871
0.24981233 0.0020351289 0.25112325 0.00536827 0.083201438 0.00035494703 0.08317972 0.00042511424
0.083201699 0.00072270742 0.083102658 0.0005151002 0.083253309 0.00058918836 0.083204858 0.00047604149
0.083188325 0.00033779253 0.083194509 0.00037153659 0.25111675 0.0064062146 0.24988239 0.0024342737
0.083224759 0.00082532759 0.083114482 0.00048959028 0.083222017 0.00020434026 0.083152495 0.00023694911
0.083213001 0.00038564304 0.083234631 0.00043880555 0.24998699 0.0024623899 0.2509672 0.0060808952
0.083264694 0.0008012504 0.083151475 0.00043924514 0.083263367 0.00022618858 0.083204634 0.00025225049
0.083265349 0.00081135798 0.08325737 0.00070511393 0.083241731 0.00080720749 0.083241001 0.00078680296
0.25189447 0.0071223308 0.24994026 0.0018791795 0.083318308 0.00062439108 0.083258711 0.00069251301
0.083164945 0.00061050663 0.083177365 0.00052874174 0.083146483 0.00049629359 0.083144844 0.00044712823
0.24988303 0.0020160598 0.2508457 0.0056432979 0.083226696 0.00060758553 0.083171427 0.00067691534
0.083172731 0.00058863393 0.083160646 0.00056734448 0.083122715 0.0001776189 0.083119884 0.00020033642
0.083162673 0.00063282542 0.083078325 0.00057992333 0.25089759 0.0062023825 0.24983339 0.0025614689
0.083200864 0.00050411286 0.083193719 0.00048464586 0.083157346 0.00023751856 0.083155468 0.00025145343
0.083198816 0.0007249405 0.08311861 0.00067598751 0.25004023 0.002712073 0.25069857 0.0061136154
1998998.998999 0.25125554 0.0064122672 0.24986579 0.0026296501 0.083238393 0.0003753379 0.083233468 0.00043166225
0.083216675 0.00090338959 0.083172992 0.00077699334 0.083295017 0.00075573014 0.083230764 0.00060038862
0.24977945 0.0025096678 0.25106767 0.005988901 0.083209343 0.00040261084 0.083203465 0.00048313441
0.083169967 0.00074311084 0.083133169 0.00064806634 0.083272383 0.00068575848 0.083208591 0.00052955333
0.083229259 0.00036897871 0.083235867 0.00044711004 0.25108719 0.0071056215 0.2498886 0.0029323921
0.083204769 0.00086304854 0.083167344 0.00059449382 0.08325991 0.00016748921 0.083171412 0.00019779903
0.083269715 0.00044205421 0.08327508 0.00054920372 0.24998787 0.003049833 0.25098872 0.0066422001
0.08324445 0.00085369346 0.083203845 0.00054224214 0.083299316 0.00020722518 0.083219796 0.00022966512
0.08335238 0.00088424183 0.08333838 0.00078565348 0.083318286 0.00087583356 0.083326519 0.0008370289
0.25188702 0.0070672962 0.25008136 0.00195742 0.083396733 0.00061148783 0.083329082 0.00069383997
0.083201677 0.00081707415 0.083219074 0.00074493804 0.083179921 0.00065696402 0.083186373 0.00058198581
0.24970903 0.0021818343 0.25085771 0.0063858563 0.083264522 0.00078854704 0.083189748 0.00086468033
0.083207518 0.00070457876 0.083200917 0.00069815503 0.083151028 0.00014436402 0.083155558 0.00015793013
0.083150335 0.00059507886 0.083130866 0.00071045116 0.25090933 0.0068888133 0.24978076 0.0030264328
0.083230369 0.00060233986 0.083225563 0.000597779 0.083179235 0.00022980732 0.083184376 0.00023764659
0.083179608 0.00073044369 0.083164521 0.00084379874 0.25002402 0.0032713995 0.25060087 0.0065744896
2498498.4984985 0.25138626 0.0028569419 0.25011238 0.0012896393 0.083361104 -0.00033127019 0.083341599 -0.00028039381
0.08333981 0.00023994119 0.083319664 0.0001786776 0.083412357 0.00012721636 0.083327353 -6.7035471e-005
0.24999405 0.0012006145 0.25123245 0.0025308842 0.083323352 -0.0002636172 0.083304927 -0.00017999114
0.083271526 8.4230312e-005 0.083289035 4.8105197e-005 0.083378837 7.5039286e-005 0.083297446 -0.00011845235
0.083345182 -0.00037119145 0.083359152 -0.00025786247 0.25093219 0.0034437936 0.25013795 0.0015009439
0.083329402 0.00016271503 0.08330965 -7.8566016e-005 0.083371721 -0.00064161589 0.083284743 -0.00059787085
0.083335631 -0.00021404526 0.083349414 -6.5542823e-005 0.25013784 0.0018656602 0.25097629 0.0030806633
0.083266407 0.00021624178 0.083292104 -8.1665028e-005 0.08336179 -0.00052848272 0.083289623 -0.00049009849
0.083196752 0.00023253533 0.083185092 0.00013005696 0.083170123 0.00022386285 0.083162487 0.00016341543
0.25109398 0.0029883496 0.24952099 0.00020232977 0.083201915 -0.00011877194 0.083138078 -8.1565204e-006
0.083303072 0.00023432043 0.0833278 0.00016103854 0.08329007 3.7921407e-005 0.083278008 -6.710209e-005
0.24988553 0.00045198793 0.25103673 0.0027278629 0.083360344 0.00018403077 0.083280303 0.0002910512
0.083326802 3.7262504e-005 0.083328903 3.9713814e-005 0.083276987 -0.00066466542 0.083265632 -0.0006603105
0.083266504 -0.0001858399 0.083272904 4.4923552e-005 0.25100085 0.0031376916 0.24997194 0.0015829867
0.083344691 -8.9012072e-005 0.083353065 -8.3123807e-005 0.083302647 -0.00055992545 0.083294757 -0.00055920711
0.083297499 -1.9360681e-005 0.083310165 0.00021932757 0.25026593 0.0018602554 0.25065205 0.002661
2997997.997998 0.25142613 0.0037688767 0.25008926 0.0020254692 0.08337225 -0.00024070205 0.083371595 -0.0001818875
0.083342493 0.00045456894 0.083320208 0.00037562821 0.083413929 0.00030273217 0.083342671 3.0054051e-005
0.24998142 0.0018974679 0.25127903 0.0034353449 0.083335742 -0.00016073239 0.083335347 -6.2692197e-005
0.083273798 0.00026931774 0.083289571 0.00021492751 0.083382942 0.00023817935 0.083313778 -3.2485033e-005
0.083361782 -0.00028572406 0.083372675 -0.00014332563 0.25126398 0.0045372546 0.25021434 0.0022217431
0.083336093 0.00036411959 0.08331681 6.6956949e-005 0.083379358 -0.00060549047 0.083304644 -0.00059783173
0.083359577 -0.00010258133 0.083370283 7.9979829e-005 0.25019446 0.0026305693 0.25116578 0.0039511062
0.083260886 0.00042078845 0.083306625 6.0026898e-005 0.083371773 -0.00047949899 0.083320506 -0.00048088635
0.083284914 0.00033875482 0.083264738 0.00022177832 0.083261393 0.00032138053 0.083268948 0.00023951454
0.25138834 0.0035771944 0.24972083 0.00040461464 0.083274871 -9.1874383e-005 0.083229788 3.932591e-006
0.0833119 0.00048504936 0.083338626 0.0003998398 0.083307222 0.0002379584 0.083313331 0.00010669492
0.24987186 0.0011372817 0.25111827 0.0037544041 0.08336588 0.00041689293 0.083302461 0.0005032472
0.083334714 0.00021348952 0.083337784 0.00022191048 0.083286881 -0.00063590315 0.08329273 -0.00063744414
0.083269179 -4.4736611e-005 0.083269335 0.00022371195 0.25105244 0.0042056926 0.24999239 0.002234061
0.083327956 8.3708423e-005 0.083335102 9.109691e-005 0.083290428 -0.00048857008 0.083300784 -0.00049576361
0.083277732 0.00017269858 0.083287142 0.00044935386 0.25017542 0.0027609018 0.25064465 0.0034770886
3497497.4974975 0.25151253 0.003519567 0.25026956 0.0022400396 0.083446003 -0.00035784571 0.083424442 -0.00029166701
0.083425082 0.00042869718 0.083399735 0.00036755449 0.083493814 0.00029004965 0.083398901 -2.4914665e-005
0.25009072 0.0021207181 0.25133559 0.0031795942 0.083390184 -0.00025132109 0.083364807 -0.00014195959
0.083324283 0.00022348938 0.083353668 0.00018965859 0.083439164 0.00022307463 0.083348125 -9.2036367e-005
0.083434783 -0.00040117404 0.083451174 -0.00024062587 0.25137949 0.0044144238 0.25029212 0.002463972
0.083406366 0.00032626925 0.083394088 5.6570019e-007 0.083446734 -0.00078147033 0.083361097 -0.00076882832
0.083396763 -0.00015687443 0.083415568 5.0459075e-005 0.2502569 0.0030352797 0.25105637 0.0037986478
0.083363444 0.00042267289 0.083350554 2.5237727e-005 0.083409332 -0.00059958769 0.083324678 -0.0006003438
0.083230428 0.00062690803 0.08320713 0.0004770979 0.083202712 0.00060160941 0.083183631 0.00051295722
0.25107163 0.0040189517 0.24948676 0.0011835584 0.083252005 0.00012808964 0.083158843 0.0002121967
0.083353877 0.00052007282 0.083392896 0.00039126183 0.08335121 0.00022697968 0.083328515 7.0673363e-005
0.24994184 0.0011231473 0.25115475 0.003457637 0.083411604 0.00042900929 0.08332371 0.00051355787
0.08341483 0.0001644502 0.083429128 0.00015860649 0.083360955 -0.00083662948 0.083340995 -0.00083044643
0.083345696 -0.00017674884 0.083354726 0.00016442411 0.25114584 0.0039576101 0.25010511 0.0023871209
0.083400153 3.6856167e-005 0.083412774 2.706415e-005 0.083353668 -0.00064216933 0.083339207 -0.00064239267
0.08334408 0.00010170857 0.083360508 0.00044783406 0.25032398 0.0030736919 0.25063694 0.0031395403
3996996.996997 0.25160867 0.004345471 0.2503525 0.0029453344 0.083469167 -0.00026107664 0.083456293 -0.0001770934
0.083467223 0.00063858199 0.083424106 0.00055924174 0.083525933 0.0004899918 0.08344388 0.00014240011
0.25017285 0.0028403341 0.25142595 0.004044272 0.083412759 -0.00012166954 0.08339756 4.3571299e-006
0.083361425 0.00042517958 0.083384223 0.00036312002 0.083473384 0.00042811286 0.083391599 7.6006174e-005
0.083457381 -0.00033329314 0.083478935 -0.00013427151 0.25139359 0.005326828 0.25029036 0.0031845469
0.083428405 0.00051081122 0.083398364 0.0001367753 0.083453566 -0.00074557407 0.08338172 -0.00072349346
0.083465211 -6.1040635e-005 0.083489388 0.00019665576 0.25035557 0.0037958217 0.25119001 0.0046094982
0.08342541 0.00061755884 0.083400875 0.00016058008 0.083458029 -0.00054536643 0.083389871 -0.00053429144
0.083282016 0.00066400704 0.083255596 0.00053688092 0.083235554 0.00066130428 0.083221748 0.00055136468
0.25110781 0.0043536564 0.24949756 0.0012283762 0.083278805 0.00012961531 0.083208814 0.00024671704
0.083414763 0.00080000208 0.083454005 0.00069034909 0.083394565 0.00048828236 0.083381221 0.000301227
0.25005007 0.0019493209 0.25125104 0.0045475638 0.083450757 0.00073719153 0.08338353 0.00083976716
0.08346349 0.00033951947 0.083476461 0.00036060688 0.083383217 -0.00078743667 0.083373308 -0.00077598193
0.083387949 -2.499209e-005 0.083383933 0.00035779632 0.25119281 0.0050256304 0.25018248 0.0032801135
0.083457008 0.00019982265 0.083474077 0.00021938515 0.083389826 -0.00055526575 0.08338666 -0.00055727747
0.083402723 0.00030606592 0.083405487 0.0006889301 0.2504071 0.0040377229 0.25077748 0.0041079819
4496496.4964965 0.25200069 0.0044056391 0.25056952 0.0030889069 0.083583415 -0.0003733976 0.083573483 -0.00027476082
0.083593138 0.00064571149 0.083538286 0.00051306788 0.083655074 0.0004426791 0.083621129 6.8254318e-005
0.25042242 0.0030466388 0.25176036 0.0041514477 0.083532058 -0.00019251366 0.083516203 -4.5922126e-005
0.083481826 0.00043316861 0.083508871 0.00032001868 0.0836 0.00039806447 0.083566062 2.5929201e-005
0.08354345 -0.00045952186 0.083556212 -0.00024719135 0.25183061 0.0055050007 0.25055316 0.0033691816
0.083533838 0.00049767928 0.083502702 3.5559853e-005 0.08355841 -0.00094884966 0.083534174 -0.00090321689
0.083561741 -6.7056222e-005 0.083576784 0.00020562804 0.25062066 0.0042992393 0.25160733 0.0049763909
0.083538987 0.00070171762 0.083509773 0.00014817651 0.083575435 -0.00063851388 0.083553456 -0.00060700171
0.083579481 0.0010400199 0.083535716 0.0008656049 0.083543234 0.0010219036 0.083526678 0.00091233919
0.25210428 0.0054485737 0.25030497 0.0021146252 0.08359421 0.00039532321 0.083573893 0.00054774916
0.083526589 0.00084814196 0.083562091 0.00069070741 0.083523847 0.00047625386 0.083509184 0.00027951694
0.25036052 0.002054767 0.25168785 0.004534774 0.083590865 0.00073041068 0.083570816 0.00087251118
0.083581194 0.00026858406 0.083585009 0.00026679534 0.083506733 -0.0010013944 0.083498023 -0.00099429861
0.083522044 -0.00013698208 0.083513848 0.00025239153 0.25168777 0.0049805944 0.25069034 0.0033482059
0.083545491 0.00014636238 0.083558828 0.00014398716 0.083493918 -0.00070871064 0.083484538 -0.00071055302
0.083512768 0.00026931963 0.083513953 0.00065530516 0.25068921 0.0042335112 0.25135076 0.0040873541
4995995.995996 0.25221625 0.0052202032 0.25076917 0.0037456797 0.083656564 -0.00029724938 0.083654724 -0.00019558099
0.083715707 0.00082973158 0.083624467 0.00069118466 0.083741844 0.0006622799 0.083685055 0.00021167149
0.25063625 0.0037978201 0.25197229 0.0049248068 0.083610751 -8.2963532e-005 0.083604105 7.6949371e-005
0.08360301 0.00060872774 0.083596833 0.00048517724 0.083691955 0.00062220747 0.083636917 0.00017524503
0.083627552 -0.00040110387 0.083638236 -0.000178185 0.25191069 0.0063221934 0.25064838 0.0039892271
0.083631173 0.00064754108 0.083563611 0.00014429074 0.083617494 -0.00091990444 0.083577834 -0.00089250947
0.083701774 4.6852852e-005 0.083715595 0.00034428967 0.25082573 0.0050555631 0.25182751 0.005735436
0.083690211 0.00089341443 0.083628409 0.00028226367 0.083689868 -0.00055944669 0.083651446 -0.00054716616
0.083562732 0.0012917934 0.083515123 0.0010898021 0.083500825 0.0012467607 0.083489634 0.0011288259
0.25187653 0.0062876465 0.24997616 0.002680769 0.083554581 0.00059481681 0.083516881 0.00074441195
0.083662555 0.0011612272 0.083704486 0.00096961122 0.083634347 0.00072832103 0.083626345 0.00051176082
0.2506713 0.0028251579 0.25190225 0.0056001195 0.083709486 0.0010530654 0.083675705 0.0011847873
0.083681047 0.00045816362 0.083688192 0.00044159329 0.083576456 -0.00098246441 0.083574206 -0.00097080268
0.083634175 -1.9563236e-005 0.083592512 0.00042629504 0.25181562 0.0060054474 0.25077021 0.0041549229
0.083673902 0.00035725342 0.08368516 0.00034198386 0.083586715 -0.00061881845 0.083588667 -0.00061715336
0.083652377 0.0004675161 0.083621077 0.00091796933 0.25089508 0.0052787927 0.25150412 0.0050639347
5495495.4954955 0.25263986 0.0058973832 0.25107875 0.0044008968 0.083812878 -0.00023164118 0.083794124 -0.00011982727
0.083792455 0.0010266934 0.083764188 0.00087417703 0.08391352 0.00077339407 0.08381924 0.00032934762
0.25091174 0.0044759056 0.25237584 0.0055964096 0.083757766 1.6867039e-005 0.08373896 0.00019013397
0.083671391 0.00080171129 0.083742417 0.00065298699 0.083859153 0.00074803235 0.083768927 0.00030255498
0.083760425 -0.00039596256 0.08378344 -0.00015637522 0.25243971 0.0069980826 0.25097063 0.0045452849
0.083705932 0.00079181604 0.083703861 0.00021263292 0.083781295 -0.00099377637 0.083704986 -0.00091547961
0.083853818 0.00023715799 0.083878219 0.00055822119 0.25118834 0.0061260602 0.25223497 0.0067446805
0.083791107 0.0012002796 0.083782837 0.00050229434 0.08388491 -0.00046191196 0.083812542 -0.00039863703
0.084092587 0.0015421693 0.084058546 0.0013220755 0.084047273 0.0015300387 0.084016211 0.0013839264
0.25309327 0.0072329883 0.25129843 0.0033238537 0.084017977 0.0007518279 0.083984278 0.00098106882
0.083861016 0.0013423451 0.083914123 0.0011259576 0.083850957 0.00088770466 0.083824053 0.00063924678
0.25088921 0.0033675707 0.25244248 0.0061497549 0.083927102 0.0011933754 0.083863407 0.0014033159
0.083820462 0.00049574324 0.083833531 0.0004848977 0.083721258 -0.0010534878 0.08369913 -0.0010495865
0.083700739 2.6959851e-005 0.083729923 0.0004871501 0.25228432 0.0064271973 0.25104356 0.0046717552
0.08381629 0.00040508379 0.083834857 0.00038734151 0.083743289 -0.00064112275 0.083724506 -0.00065133232
0.083730698 0.00057604403 0.083766155 0.0010416593 0.25126323 0.0058134636 0.25188556 0.0055779172
5994994.994995 0.25307316 0.0066294852 0.25143582 0.00502139 0.083977699 -0.0001627328 0.0839599 -5.723902e-005
0.084066965 0.0012038943 0.083948828 0.0010101562 0.084102295 0.00092562393 0.084033519 0.00045743203
0.2513417 0.0052972515 0.25274533 0.0064786072 0.083939627 0.00017017883 0.083920769 0.00034490877
0.083953664 0.0010272658 0.083944112 0.00083183532 0.084064819 0.0009541529 0.083999582 0.00048851303
0.083889373 -0.00035182011 0.083889797 -7.9302634e-005 0.25262839 0.0078693209 0.25115794 0.0051659057
0.083917946 0.00096380035 0.083829917 0.0002943837 0.083903216 -0.00099809212 0.083850026 -0.0009039474
0.084115788 0.00037986346 0.084125094 0.00073469698 0.25167426 0.0070792944 0.25274402 0.0076426701
