!Agilent Technologies,M9370A,MY54322275,A.02.50.04
!Agilent M9370A: A.02.50.04
!Date: Friday, April 06, 2018 10:52:14
!Correction: S11(Full 8 Port(1,2,3,4,5,6,7,8)) 
!S12(Full 8 Port(1,2,3,4,5,6,7,8)) 
!S13(Full 8 Port(1,2,3,4,5,6,7,8)) 
!S14(Full 8 Port(1,2,3,4,5,6,7,8)) 
!S15(Full 8 Port(1,2,3,4,5,6,7,8)) 
!S16(Full 8 Port(1,2,3,4,5,6,7,8)) 
!S17(Full 8 Port(1,2,3,4,5,6,7,8)) 
!S18(Full 8 Port(1,2,3,4,5,6,7,8)) 
!S21(Full 8 Port(1,2,3,4,5,6,7,8)) 
!S22(Full 8 Port(1,2,3,4,5,6,7,8)) 
!S23(Full 8 Port(1,2,3,4,5,6,7,8)) 
!S24(Full 8 Port(1,2,3,4,5,6,7,8)) 
!S25(Full 8 Port(1,2,3,4,5,6,7,8)) 
!S26(Full 8 Port(1,2,3,4,5,6,7,8)) 
!S27(Full 8 Port(1,2,3,4,5,6,7,8)) 
!S28(Full 8 Port(1,2,3,4,5,6,7,8)) 
!S31(Full 8 Port(1,2,3,4,5,6,7,8)) 
!S32(Full 8 Port(1,2,3,4,5,6,7,8)) 
!S33(Full 8 Port(1,2,3,4,5,6,7,8)) 
!S34(Full 8 Port(1,2,3,4,5,6,7,8)) 
!S35(Full 8 Port(1,2,3,4,5,6,7,8)) 
!S36(Full 8 Port(1,2,3,4,5,6,7,8)) 
!S37(Full 8 Port(1,2,3,4,5,6,7,8)) 
!S38(Full 8 Port(1,2,3,4,5,6,7,8)) 
!S41(Full 8 Port(1,2,3,4,5,6,7,8)) 
!S42(Full 8 Port(1,2,3,4,5,6,7,8)) 
!S43(Full 8 Port(1,2,3,4,5,6,7,8)) 
!S44(Full 8 Port(1,2,3,4,5,6,7,8)) 
!S45(Full 8 Port(1,2,3,4,5,6,7,8)) 
!S46(Full 8 Port(1,2,3,4,5,6,7,8)) 
!S47(Full 8 Port(1,2,3,4,5,6,7,8)) 
!S48(Full 8 Port(1,2,3,4,5,6,7,8)) 
!S51(Full 8 Port(1,2,3,4,5,6,7,8)) 
!S52(Full 8 Port(1,2,3,4,5,6,7,8)) 
!S53(Full 8 Port(1,2,3,4,5,6,7,8)) 
!S54(Full 8 Port(1,2,3,4,5,6,7,8)) 
!S55(Full 8 Port(1,2,3,4,5,6,7,8)) 
!S56(Full 8 Port(1,2,3,4,5,6,7,8)) 
!S57(Full 8 Port(1,2,3,4,5,6,7,8)) 
!S58(Full 8 Port(1,2,3,4,5,6,7,8)) 
!S61(Full 8 Port(1,2,3,4,5,6,7,8)) 
!S62(Full 8 Port(1,2,3,4,5,6,7,8)) 
!S63(Full 8 Port(1,2,3,4,5,6,7,8)) 
!S64(Full 8 Port(1,2,3,4,5,6,7,8)) 
!S65(Full 8 Port(1,2,3,4,5,6,7,8)) 
!S66(Full 8 Port(1,2,3,4,5,6,7,8)) 
!S67(Full 8 Port(1,2,3,4,5,6,7,8)) 
!S68(Full 8 Port(1,2,3,4,5,6,7,8)) 
!S71(Full 8 Port(1,2,3,4,5,6,7,8)) 
!S72(Full 8 Port(1,2,3,4,5,6,7,8)) 
!S73(Full 8 Port(1,2,3,4,5,6,7,8)) 
!S74(Full 8 Port(1,2,3,4,5,6,7,8)) 
!S75(Full 8 Port(1,2,3,4,5,6,7,8)) 
!S76(Full 8 Port(1,2,3,4,5,6,7,8)) 
!S77(Full 8 Port(1,2,3,4,5,6,7,8)) 
!S78(Full 8 Port(1,2,3,4,5,6,7,8)) 
!S81(Full 8 Port(1,2,3,4,5,6,7,8)) 
!S82(Full 8 Port(1,2,3,4,5,6,7,8)) 
!S83(Full 8 Port(1,2,3,4,5,6,7,8)) 
!S84(Full 8 Port(1,2,3,4,5,6,7,8)) 
!S85(Full 8 Port(1,2,3,4,5,6,7,8)) 
!S86(Full 8 Port(1,2,3,4,5,6,7,8)) 
!S87(Full 8 Port(1,2,3,4,5,6,7,8)) 
!S88(Full 8 Port(1,2,3,4,5,6,7,8)) 
!S8P File: Measurements: <S11,S12,S13,S14,S15,S16,S17,S18>,
!<S21,S22,S23,S24,S25,S26,S27,S28>,
!<S31,S32,S33,S34,S35,S36,S37,S38>,
!<S41,S42,S43,S44,S45,S46,S47,S48>,
!<S51,S52,S53,S54,S55,S56,S57,S58>,
!<S61,S62,S63,S64,S65,S66,S67,S68>,
!<S71,S72,S73,S74,S75,S76,S77,S78>,
!<S81,S82,S83,S84,S85,S86,S87,S88>:
# Hz S  RI   R 50
1000000 0.25385305 0.054598436 0.24525425 0.0073719653 0.080706932 0.004241738 0.080548905 0.0041897534
0.080717064 0.0041005462 0.080974095 0.0042549772 0.081072994 0.0044074114 0.081829436 0.0041935346
0.24503963 0.0073057194 0.25246251 0.052964061 0.080693625 0.0043076491 0.080547072 0.0042787977
0.080759287 0.0042552846 0.080773421 0.0042028306 0.080871828 0.004423996 0.080831811 0.0042998348
0.080609851 0.0042738253 0.080604285 0.004398684 0.25304428 0.056387659 0.244073 0.0070790411
0.080604151 0.0041846209 0.080268107 0.0041962257 0.080806494 0.0043062111 0.080552794 0.0041940738
0.080667563 0.004330196 0.080677994 0.0044645867 0.24451393 0.0074575669 0.25316298 0.056172088
0.08055158 0.0043431427 0.08030618 0.0042747022 0.080744661 0.0043837791 0.08111266 0.004211742
0.080700427 0.0042310464 0.080716632 0.0044341008 0.080593988 0.0043079187 0.080493011 0.0043562902
0.25426531 0.05996697 0.24405621 0.0067476998 0.080280885 0.0043886942 0.080323495 0.0042387182
0.080587253 0.0044418764 0.080586143 0.0044271704 0.080489859 0.0043395413 0.080390781 0.0043048034
0.24475922 0.0068468954 0.2520186 0.05554175 0.080516264 0.0046068863 0.080426343 0.0044010524
0.080545403 0.0043781376 0.080497421 0.004456948 0.08040718 0.004276576 0.080307119 0.0042232582
0.080542766 0.0042223777 0.080219649 0.0044420986 0.2531541 0.057526417 0.2439654 0.0073534292
0.080583021 0.0042903298 0.080542028 0.0043920949 0.080449462 0.0042178011 0.080352485 0.0041660871
0.080584183 0.0041552261 0.080266386 0.0043036765 0.24429283 0.0076970602 0.2525191 0.058016118
1499499.4994995 0.25265405 0.0057368851 0.24928328 0.0013165625 0.083081678 0.00063429441 0.083011605 0.00058120739
0.083156638 0.00077846425 0.083024174 0.00074625009 0.083131298 0.00074818509 0.083068796 0.00068916014
0.24918576 0.0012686345 0.25221175 0.0051312726 0.083109863 0.00063173578 0.083042644 0.00059446087
0.083184183 0.00089854526 0.083031423 0.00053263729 0.083144978 0.0006651716 0.083101027 0.00061550393
0.08305119 0.00061651139 0.083107777 0.00064421108 0.2525582 0.0060159657 0.24905269 0.0013207988
0.083178505 0.00087565347 0.083010674 0.00057293824 0.083095372 0.00057897432 0.083019152 0.00054186309
0.08302056 0.00055286475 0.083109848 0.00059885893 0.24915521 0.0013475936 0.25268084 0.0058804159
0.083165534 0.00097648462 0.083004698 0.00054788141 0.083086267 0.00052293611 0.08302632 0.00048288199
0.083191656 0.0007321444 0.083253577 0.00088220142 0.083195321 0.00085786206 0.083148308 0.00096202048
0.25265151 0.0067282403 0.24950625 0.0014862319 0.083261378 0.00083651108 0.083195411 0.00079099159
0.083054505 0.00072462304 0.083115064 0.00053675106 0.083045259 0.00057594985 0.083004028 0.00055522646
0.24945156 0.0016133119 0.25186953 0.0052525201 0.083132841 0.00087213266 0.083069801 0.00071434415
0.083063625 0.00070075726 0.083092697 0.0006640607 0.083019502 0.0005671258 0.082969002 0.00051881303
0.083129548 0.00086313626 0.083010733 0.00087143929 0.25223014 0.0055213701 0.24914657 0.0017016279
0.083084472 0.00066401844 0.083133727 0.00063589477 0.083054267 0.00055158231 0.083013043 0.00050128222
0.083163641 0.00083689927 0.083053313 0.00073358422 0.24936618 0.0018448828 0.25202817 0.005840499
1998998.998999 0.25276515 0.0061267652 0.24919432 0.0016669147 0.08308588 0.0007743818 0.083021417 0.00069084187
0.083127856 0.00080999598 0.083055347 0.00093750726 0.083150692 0.00088998419 0.083072066 0.00080067257
0.24909209 0.0015458545 0.252244 0.0055806208 0.083109058 0.00077929406 0.083058327 0.00070944428
0.083151996 0.0009840799 0.083060175 0.00065700366 0.083165936 0.00079136336 0.083104894 0.00071392057
0.083077691 0.00075673155 0.083140165 0.00082219607 0.25264716 0.0064490563 0.24897675 0.0015290251
0.083151966 0.00094443857 0.083055548 0.00071473321 0.083126515 0.00066972035 0.083035029 0.00061003969
0.083057389 0.00069781393 0.083137184 0.00077639066 0.24906756 0.0016460563 0.2528533 0.006213848
0.083136357 0.0010946847 0.083047986 0.00069333555 0.083108805 0.00061314629 0.083033994 0.00055395393
0.083265767 0.00078729808 0.083332367 0.0010226622 0.083268814 0.0009599622 0.083222151 0.0010873593
0.25270286 0.006472325 0.24962205 0.001458507 0.083338395 0.00089957344 0.083257861 0.0008303838
0.083086081 0.00097779022 0.083152309 0.00075677357 0.083069064 0.0007863912 0.083031394 0.00074092182
0.24925411 0.0016759316 0.25193632 0.0058005624 0.083168618 0.0011446971 0.083092108 0.00092096609
0.083089627 0.00085760246 0.083129324 0.00082724245 0.083042696 0.00067316589 0.082997195 0.0005982471
0.083112404 0.00090824068 0.08305905 0.0010924035 0.25231993 0.0059202556 0.24905416 0.0019268343
0.08310058 0.00082601787 0.083161674 0.00080557045 0.083069399 0.00067024637 0.083031803 0.00058999204
0.083143704 0.00089102751 0.083094157 0.00092389551 0.24930596 0.00215328 0.25202015 0.0061160382
2498498.4984985 0.25299326 0.0023624303 0.24938791 0.00014207506 0.083203621 0.00017155799 0.083119042 6.9155372e-005
0.083237909 0.00013753715 0.083205022 0.00038239086 0.083259702 0.0003045777 0.083162315 0.00021470212
0.2492508 5.6741585e-005 0.25247172 0.0019317847 0.083225921 0.00021353943 0.083153404 0.00012199119
0.083261564 0.0003834448 0.083210632 6.2115614e-005 0.083270513 0.00021032643 0.083192751 0.00013208512
0.083194412 0.00012767334 0.083270706 0.00021159118 0.25258139 0.0024912201 0.24914429 -0.00017363959
0.0832735 0.00026627301 0.083198033 6.4202504e-005 0.083241396 -4.7010162e-006 0.08314801 -6.0647413e-005
0.0831175 0.00012232224 0.083202757 0.00022262742 0.24913879 0.00018602435 0.25296408 0.0023901598
0.083149187 0.00053263892 0.083131656 0.00011172915 0.083168291 -3.9974288e-006 0.08309412 -6.811737e-005
0.083101071 0.00012597875 0.083181113 0.00042119788 0.083117098 0.00033875922 0.083050311 0.00047707793
0.2519421 0.00217481 0.24904265 -0.00039427949 0.083145954 0.00024100688 0.083072446 0.00016575998
0.083184287 0.00044537615 0.083260909 0.00017621939 0.083177723 0.00020777503 0.083119564 0.00013258008
0.24940424 -0.00014705348 0.25214803 0.0019275586 0.083266445 0.0006246767 0.083174832 0.00035747094
0.083199516 0.00024746321 0.083254233 0.0001990733 0.08316806 4.0738801e-006 0.083102264 -0.00010311455
0.083233662 0.00020671477 0.083204985 0.00051848544 0.2524569 0.0018544744 0.24919395 0.00025088107
0.083211452 0.00021048283 0.083282143 0.00017716433 0.083192602 3.0316723e-006 0.083133869 -0.00010785266
0.083255678 0.00018878949 0.083233558 0.00031358004 0.24950087 0.00050479319 0.25213531 0.0019889576
2997997.997998 0.25311527 0.0030614557 0.24931799 0.00069536705 0.08320792 0.00036972991 0.083139993 0.00024623654
0.083235502 0.00033525605 0.083197869 0.00063522928 0.083254628 0.00052618125 0.083174385 0.00038050365
0.24919608 0.00057201437 0.25256982 0.0026485298 0.083233781 0.00041441855 0.083175041 0.0002992099
0.08326529 0.00062074396 0.083213881 0.00024123132 0.083273642 0.00040931258 0.083207354 0.00027552311
0.083204225 0.00032818632 0.083280601 0.0004233151 0.25299034 0.0032922435 0.24915828 0.0002742495
0.083281882 0.00048603903 0.083202712 0.00025549679 0.083250061 0.00015376302 0.083169043 4.4256329e-005
0.083126359 0.0003177966 0.083216973 0.00043415377 0.24913467 0.00068005332 0.2532635 0.0029929103
0.083141327 0.0008015132 0.083137155 0.00029969474 0.083177157 0.0001518381 0.083118446 3.385287e-005
0.083180614 0.00022842409 0.083265468 0.00057260395 0.083205976 0.00045183959 0.08315105 0.0006393654
0.25226882 0.002547465 0.24922392 -0.00028997223 0.083217606 0.00034480024 0.083163179 0.00021237679
0.083194964 0.00075031264 0.083271571 0.00041600139 0.083190575 0.00043543146 0.083151735 0.00036447216
0.24937932 0.00043355353 0.25225279 0.0027452232 0.083274543 0.00095146976 0.083200261 0.00058817206
0.0832045 0.00047149268 0.083261564 0.00041796576 0.083179191 0.00015998288 0.083127119 4.0451974e-005
0.083235577 0.00042268223 0.083207674 0.00079843425 0.25255692 0.002609374 0.24918039 0.00066163053
0.08318913 0.00045477509 0.083267391 0.00041075697 0.083178736 0.00018009025 0.083127812 5.615826e-005
0.083233304 0.00042029328 0.083211377 0.00057162525 0.24937744 0.0011615927 0.25217754 0.0025999441
3497497.4974975 0.2532686 0.0025939329 0.2494555 0.00072826381 0.083278388 0.00037793146 0.083179258 0.00023570616
0.083309367 0.00029727537 0.083278283 0.00067547744 0.08333388 0.00055186352 0.083227195 0.00037630703
0.24926114 0.00061029306 0.25266984 0.0021915238 0.083288431 0.00042934084 0.083195254 0.00030503966
0.083322346 0.00063290866 0.083280571 0.00022273378 0.083329871 0.00041885042 0.083241172 0.00025524676
0.083270639 0.00032696265 0.083357729 0.00042906066 0.25316569 0.0028720754 0.24917486 0.00025469327
0.083346821 0.00047105894 0.083278678 0.00023328897 0.083321646 0.00011517909 0.08322423 -9.0187723e-006
0.083155766 0.00035060543 0.083256111 0.00047803065 0.24913786 0.00081773062 0.25323936 0.0025615164
0.083236188 0.00087626127 0.083176591 0.00032122046 0.083210155 0.00014634758 0.083114497 1.3097265e-005
0.083123602 0.00049580762 0.083212122 0.00089725072 0.083147742 0.00075632869 0.083061062 0.00097339001
0.25197241 0.0027738132 0.24897775 0.00038869315 0.08319629 0.00062516902 0.083092391 0.00046668435
0.083238527 0.00081993517 0.083320394 0.00043091536 0.083235145 0.00045359606 0.083162427 0.00036673932
0.24942994 0.00031905976 0.25230291 0.00224033 0.083320573 0.0010471479 0.083218627 0.00061766681
0.083279498 0.00046311386 0.083348565 0.0003952728 0.083255008 0.0001058484 0.083170786 -4.1328534e-005
0.083314523 0.00036154187 0.083291814 0.00083408569 0.25268281 0.0020450109 0.24925949 0.00058178778
0.083254434 0.00047249309 0.083340757 0.00040929706 0.083243206 0.00015640771 0.083160751 6.5169179e-006
0.083301298 0.00039096572 0.083282091 0.00059887295 0.24949305 0.0012409497 0.25221354 0.0020479003
3996996.996997 0.25342375 0.0032025748 0.24950349 0.0012562887 0.083299495 0.0005832499 0.083205029 0.00042201564
0.083348744 0.00048944209 0.083305024 0.00092326902 0.083357655 0.00078144099 0.083269715 0.000598563
0.24930146 0.0011603046 0.25280476 0.0028568537 0.083313227 0.00065299525 0.083227336 0.0005077903
0.083364382 0.00088589254 0.08330784 0.00041637942 0.083359532 0.00063945539 0.083285064 0.00047040283
0.083293751 0.00051001203 0.083388396 0.00063615286 0.25322905 0.0034787001 0.24912058 0.00071013841
0.083365023 0.00067922502 0.083283521 0.0003985753 0.0833233 0.00027726521 0.083246499 0.00013989328
0.083216272 0.00053825544 0.083320946 0.00068875577 0.24918585 0.0013158534 0.25345173 0.0030931516
0.08329758 0.0011444528 0.083221301 0.00050296908 0.083254233 0.00031008694 0.083176777 0.00016880402
0.083167829 0.00054990023 0.083269477 0.0010066773 0.083175667 0.00084046088 0.083097354 0.0011104331
0.25202349 0.002885889 0.24897484 0.00033307137 0.083230279 0.00070249254 0.083140612 0.00053960923
0.083295479 0.0011737007 0.083385989 0.00072752719 0.083274685 0.00075014384 0.083206899 0.00066849979
0.24953544 0.0010428218 0.25241768 0.0031280548 0.083366163 0.0014426534 0.083281882 0.00096633512
0.083320893 0.00070757663 0.083397031 0.00062843651 0.083280697 0.00029460798 0.083199084 0.00013993423
0.083358973 0.00059929874 0.083322756 0.0011248237 0.25275806 0.0027993342 0.24931198 0.0012425283
0.083309621 0.00072697672 0.083402596 0.00065633573 0.083278283 0.00035969916 0.083203651 0.00020436083
0.083358757 0.0006330249 0.083322875 0.00086468644 0.2495459 0.0019720804 0.2523886 0.002809217
4496496.4964965 0.2538625 0.0030392143 0.2496834 0.0012238034 0.083411664 0.00058233034 0.083318837 0.00041686243
0.083466835 0.00051235734 0.083427235 0.00093172467 0.083483391 0.00079422473 0.083442405 0.00059870631
0.24951787 0.0011917528 0.25316799 0.0027619537 0.083431467 0.0006837952 0.083340481 0.00053628749
0.083488442 0.00097931817 0.083432257 0.00038290612 0.083489649 0.00065659051 0.083463438 0.00047211736
0.083378188 0.00049077527 0.083464935 0.00062008837 0.25371173 0.0033495435 0.2493286 0.00063681742
0.083466627 0.00070672057 0.083385803 0.00034165045 0.083433896 0.00021299407 0.083400719 7.8787947e-005
0.083305314 0.0006107447 0.08340694 0.00077129365 0.24939997 0.0015581052 0.25393707 0.0031653761
0.083407715 0.0013185544 0.083333835 0.00054055796 0.083367936 0.00034445341 0.083339751 0.0001981618
0.083455719 0.00089224195 0.083550714 0.0014041926 0.083480991 0.0012448039 0.083400108 0.0015252127
0.25303683 0.0037605951 0.24976751 0.0011118227 0.083546385 0.0010384208 0.083505154 0.00087801676
0.083412148 0.0012465632 0.083493404 0.00074075151 0.083405934 0.00079650676 0.083333373 0.00068006443
0.24982639 0.0010436602 0.25285858 0.0028974202 0.083507925 0.0015235087 0.083465472 0.0010122127
0.083434746 0.00066362653 0.083507121 0.00057247718 0.083411746 0.00022144357 0.083327219 4.9477978e-005
0.08349596 0.00057286455 0.083458096 0.0011179229 0.25326583 0.0024253307 0.24978249 0.0010769644
0.083397366 0.00072249165 0.083483823 0.00064002321 0.083381362 0.00033727885 0.083303012 0.00015427142
0.083468862 0.00065303687 0.083430886 0.00086290453 0.24980156 0.0019334581 0.2529918 0.0025656279
4995995.995996 0.25411841 0.0036178154 0.24984731 0.001705368 0.08348605 0.00076293951 0.083393104 0.00058059051
0.083589107 0.00068630988 0.083509475 0.0011558183 0.083569147 0.0010183807 0.083502471 0.00079047162
0.24969757 0.0017584743 0.25340718 0.0033298614 0.083510466 0.00088370231 0.083423384 0.00072245882
0.083619244 0.0012134063 0.083518863 0.00055348995 0.083578974 0.00087245682 0.083531477 0.0006572092
0.083458602 0.00066564931 0.083549149 0.00078790233 0.25383022 0.0038537781 0.24937244 0.00099717674
0.08356563 0.00089134439 0.083446264 0.00048568705 0.083498187 0.00035343389 0.083443545 0.00018791843
0.083434902 0.00082056265 0.083540283 0.00097489217 0.24955803 0.0020485814 0.2542204 0.003631603
0.083556965 0.0015917928 0.083447233 0.00072645477 0.083485194 0.00051745196 0.083432131 0.00033866445
0.083441459 0.0011360837 0.083536439 0.0016874365 0.083435841 0.001498452 0.083362035 0.0018348398
0.25281808 0.0043828599 0.24943073 0.001579761 0.083508909 0.0013086282 0.083449997 0.0011203153
0.083549879 0.0016136505 0.083635636 0.0010303588 0.083519787 0.0010847049 0.083449923 0.00097511336
0.25012746 0.0017095017 0.25308481 0.0037515482 0.083627701 0.0019283958 0.083568782 0.0013552294
0.083532713 0.00091045431 0.083607771 0.00077884772 0.083481647 0.00038148445 0.083399221 0.00019591575
0.083613135 0.0007791337 0.083537877 0.001392634 0.25341666 0.0031257095 0.24984121 0.00164673
0.083518259 0.0010094621 0.083610728 0.00089418137 0.083478443 0.00055077893 0.083401754 0.00035428238
0.083609879 0.00090540486 0.083537705 0.0011466157 0.24998124 0.0027489155 0.25317198 0.0033310177
5495495.4954955 0.25457749 0.0040658927 0.25013408 0.0021780678 0.083638616 0.00096373993 0.083529055 0.0007417766
0.083664961 0.00086862495 0.083654836 0.0013574784 0.083736278 0.0011908516 0.083638221 0.0010017302
0.24994513 0.0022605271 0.25382841 0.00379218 0.083662271 0.0011028434 0.083554342 0.00090485421
0.083689839 0.0014591329 0.083664298 0.00070430082 0.083747111 0.0010413346 0.08366657 0.00086692482
0.083595559 0.00078320393 0.083697133 0.00092362554 0.25439438 0.0042184219 0.24964882 0.0012922081
0.083639659 0.0010550346 0.083589569 0.00056776602 0.083663769 0.00042200083 0.083574027 0.00028274584
0.083587289 0.0010925416 0.083697639 0.0012751841 0.24987575 0.002857279 0.2546896 0.0043495717
0.083650507 0.0019621437 0.083600298 0.0009733208 0.083678409 0.00074082206 0.0835912 0.00059413206
0.083966546 0.0013837049 0.084079728 0.0019959866 0.083982736 0.0017827337 0.083882272 0.0021544762
0.25403851 0.0050987094 0.25073802 0.0021092033 0.083973221 0.0015453676 0.083914421 0.0013801212
0.083752565 0.0018449121 0.083847515 0.0012092575 0.08373598 0.0012593219 0.083643034 0.0011424675
0.2503317 0.0021529195 0.25362504 0.0040898067 0.08384832 0.0021690214 0.083759025 0.0015730283
0.083666556 0.0010061914 0.083754487 0.0008796755 0.083634757 0.00044415426 0.083531141 0.00024785812
0.083682165 0.00089698186 0.083682902 0.0015365172 0.25389528 0.0032247726 0.25009289 0.0019283175
0.083659925 0.0011367027 0.08376091 0.0010244949 0.083636276 0.00064079982 0.083532609 0.00043664171
0.08368542 0.0010537774 0.083681643 0.0012893442 0.25031909 0.003042141 0.25357667 0.003623727
5994994.994995 0.25504467 0.0045718192 0.25045946 0.0026277872 0.083803818 0.0011300409 0.083690777 0.00088395603
0.083941132 0.0010554414 0.083846204 0.0015533612 0.08392255 0.0013884166 0.083851375 0.0011910998
0.25034875 0.0029076952 0.25421375 0.0044667688 0.083842099 0.0013403421 0.08373072 0.0011237094
0.083979294 0.0017571482 0.083869547 0.00089939049 0.083956413 0.0012783463 0.08389286 0.0011013745
0.083720498 0.00094298256 0.083811902 0.0010876394 0.25461027 0.0047829198 0.24979432 0.0016577333
0.083850786 0.0012588555 0.083718278 0.00069267116 0.083792344 0.00054479536 0.083723783 0.00042205697
0.083840005 0.001324559 0.083939545 0.0015086725 0.25033483 0.0035502848 0.25524405 0.0049469601
