!Agilent Technologies,M9370A,MY54322275,A.02.50.04
!Agilent M9370A: A.02.50.04
!Date: Friday, April 06, 2018 14:58:52
!Correction: S11(Full 8 Port(1,2,3,4,5,6,7,8)) 
!S12(Full 8 Port(1,2,3,4,5,6,7,8)) 
!S13(Full 8 Port(1,2,3,4,5,6,7,8)) 
!S14(Full 8 Port(1,2,3,4,5,6,7,8)) 
!S15(Full 8 Port(1,2,3,4,5,6,7,8)) 
!S16(Full 8 Port(1,2,3,4,5,6,7,8)) 
!S17(Full 8 Port(1,2,3,4,5,6,7,8)) 
!S18(Full 8 Port(1,2,3,4,5,6,7,8)) 
!S21(Full 8 Port(1,2,3,4,5,6,7,8)) 
!S22(Full 8 Port(1,2,3,4,5,6,7,8)) 
!S23(Full 8 Port(1,2,3,4,5,6,7,8)) 
!S24(Full 8 Port(1,2,3,4,5,6,7,8)) 
!S25(Full 8 Port(1,2,3,4,5,6,7,8)) 
!S26(Full 8 Port(1,2,3,4,5,6,7,8)) 
!S27(Full 8 Port(1,2,3,4,5,6,7,8)) 
!S28(Full 8 Port(1,2,3,4,5,6,7,8)) 
!S31(Full 8 Port(1,2,3,4,5,6,7,8)) 
!S32(Full 8 Port(1,2,3,4,5,6,7,8)) 
!S33(Full 8 Port(1,2,3,4,5,6,7,8)) 
!S34(Full 8 Port(1,2,3,4,5,6,7,8)) 
!S35(Full 8 Port(1,2,3,4,5,6,7,8)) 
!S36(Full 8 Port(1,2,3,4,5,6,7,8)) 
!S37(Full 8 Port(1,2,3,4,5,6,7,8)) 
!S38(Full 8 Port(1,2,3,4,5,6,7,8)) 
!S41(Full 8 Port(1,2,3,4,5,6,7,8)) 
!S42(Full 8 Port(1,2,3,4,5,6,7,8)) 
!S43(Full 8 Port(1,2,3,4,5,6,7,8)) 
!S44(Full 8 Port(1,2,3,4,5,6,7,8)) 
!S45(Full 8 Port(1,2,3,4,5,6,7,8)) 
!S46(Full 8 Port(1,2,3,4,5,6,7,8)) 
!S47(Full 8 Port(1,2,3,4,5,6,7,8)) 
!S48(Full 8 Port(1,2,3,4,5,6,7,8)) 
!S51(Full 8 Port(1,2,3,4,5,6,7,8)) 
!S52(Full 8 Port(1,2,3,4,5,6,7,8)) 
!S53(Full 8 Port(1,2,3,4,5,6,7,8)) 
!S54(Full 8 Port(1,2,3,4,5,6,7,8)) 
!S55(Full 8 Port(1,2,3,4,5,6,7,8)) 
!S56(Full 8 Port(1,2,3,4,5,6,7,8)) 
!S57(Full 8 Port(1,2,3,4,5,6,7,8)) 
!S58(Full 8 Port(1,2,3,4,5,6,7,8)) 
!S61(Full 8 Port(1,2,3,4,5,6,7,8)) 
!S62(Full 8 Port(1,2,3,4,5,6,7,8)) 
!S63(Full 8 Port(1,2,3,4,5,6,7,8)) 
!S64(Full 8 Port(1,2,3,4,5,6,7,8)) 
!S65(Full 8 Port(1,2,3,4,5,6,7,8)) 
!S66(Full 8 Port(1,2,3,4,5,6,7,8)) 
!S67(Full 8 Port(1,2,3,4,5,6,7,8)) 
!S68(Full 8 Port(1,2,3,4,5,6,7,8)) 
!S71(Full 8 Port(1,2,3,4,5,6,7,8)) 
!S72(Full 8 Port(1,2,3,4,5,6,7,8)) 
!S73(Full 8 Port(1,2,3,4,5,6,7,8)) 
!S74(Full 8 Port(1,2,3,4,5,6,7,8)) 
!S75(Full 8 Port(1,2,3,4,5,6,7,8)) 
!S76(Full 8 Port(1,2,3,4,5,6,7,8)) 
!S77(Full 8 Port(1,2,3,4,5,6,7,8)) 
!S78(Full 8 Port(1,2,3,4,5,6,7,8)) 
!S81(Full 8 Port(1,2,3,4,5,6,7,8)) 
!S82(Full 8 Port(1,2,3,4,5,6,7,8)) 
!S83(Full 8 Port(1,2,3,4,5,6,7,8)) 
!S84(Full 8 Port(1,2,3,4,5,6,7,8)) 
!S85(Full 8 Port(1,2,3,4,5,6,7,8)) 
!S86(Full 8 Port(1,2,3,4,5,6,7,8)) 
!S87(Full 8 Port(1,2,3,4,5,6,7,8)) 
!S88(Full 8 Port(1,2,3,4,5,6,7,8)) 
!S8P File: Measurements: <S11,S12,S13,S14,S15,S16,S17,S18>,
!<S21,S22,S23,S24,S25,S26,S27,S28>,
!<S31,S32,S33,S34,S35,S36,S37,S38>,
!<S41,S42,S43,S44,S45,S46,S47,S48>,
!<S51,S52,S53,S54,S55,S56,S57,S58>,
!<S61,S62,S63,S64,S65,S66,S67,S68>,
!<S71,S72,S73,S74,S75,S76,S77,S78>,
!<S81,S82,S83,S84,S85,S86,S87,S88>:
# Hz S  RI   R 50
1000000 -0.74453562 0.093319058 0.24608505 0.0024065441 0.2461205 -0.0012219583 0.24549314 -0.0013004452
0.24930848 -0.0025827722 0.24693914 -0.001638209 0.24764536 -0.0013161822 0.2496966 -0.002257158
0.24650872 0.0022341283 -0.744973 0.087411217 0.24492708 -0.00025159839 0.24490471 -0.00025834277
0.24879967 -0.0015807219 0.2456858 -0.00084391906 0.24636924 -0.00047759039 0.24603523 -0.00079279701
0.24591178 -0.0011071732 0.24529806 0.00015309434 -0.74114788 0.094437391 0.24473488 0.0016981749
0.24855994 -0.0020002648 0.24443014 -0.0012075204 0.2463401 -0.0019440468 0.24536447 -0.002078067
0.24609853 -0.0007396377 0.24553101 0.00057622732 0.24596216 0.0022375074 -0.7406407 0.094140105
0.24781644 -0.0014492131 0.24456166 -0.00077505573 0.24615602 -0.0014771185 0.24706674 -0.0020643454
0.24928334 -0.0023174244 0.24869949 -0.0010214288 0.2486725 -0.0018083182 0.24813795 -0.0017980367
-0.74840051 0.10214545 0.24797809 0.0007173855 0.24791317 -0.0018645051 0.24786687 -0.0022268756
0.24571387 -0.001082994 0.2450482 -0.00015184883 0.24504732 -0.0011317298 0.2445388 -0.0011953013
0.24904728 0.0006527091 -0.74151713 0.092816249 0.24515855 -0.00067471311 0.24501027 -0.00097737869
0.24621297 -0.00097552268 0.24546914 4.5203844e-005 0.24538018 -0.001726345 0.24484983 -0.0018204035
0.24896401 -0.0023070897 0.24491052 -0.00075499242 -0.74099064 0.095893785 0.245125 0.0014301651
0.24508908 -0.0014368363 0.24482074 -0.00033380694 0.2447252 -0.0020807988 0.24420385 -0.0021827233
0.24829805 -0.0026796299 0.24427281 -0.0011664793 0.24576253 0.0014079474 -0.74070024 0.097134732
1499499.4994995 -0.73994905 0.018354382 0.24849831 0.0022822532 0.24831018 -0.0013951252 0.24811471 -0.001581608
0.24911952 -0.00091734825 0.24805214 -0.0017872163 0.24866229 -0.00089269225 0.24837032 -0.00098238932
0.24865645 0.0022217887 -0.74183792 0.017897306 0.24823241 -0.0012873105 0.24827629 -0.001394658
0.24922724 -0.00074868754 0.24809517 -0.0021489658 0.24871255 -0.001176653 0.24848275 -0.001211022
0.24834742 -0.0014553306 0.24856125 -0.001202357 -0.74019617 0.018688161 0.24850416 0.0026462253
0.24930507 -0.00022404199 0.24813873 -0.0018455654 0.24860536 -0.002037453 0.24828358 -0.0020098407
0.24838078 -0.0016450199 0.24869055 -0.0013287612 0.24897271 0.002721318 -0.74023896 0.01965343
0.2491463 -0.00025619043 0.24826197 -0.0019840978 0.24870433 -0.0022137738 0.2484405 -0.0022128322
0.24932744 -0.0011587298 0.24953045 -0.00085735542 0.2494497 -0.00036557144 0.24928981 -0.00039412559
-0.74423259 0.014994797 0.24952754 0.0029372247 0.2497229 -0.00051358499 0.24944319 -0.00050488091
0.24814615 -0.0019504715 0.2483466 -0.0021874544 0.24818175 -0.0019316255 0.24805444 -0.0020792815
0.24960274 0.0030585174 -0.74066758 0.018900758 0.24851021 -0.0010205429 0.24834487 -0.0010779658
0.24869102 -0.0011293382 0.24881649 -0.001253475 0.24857776 -0.0021459565 0.24841753 -0.002346664
0.2495251 -0.00046040394 0.24854526 -0.0010261583 -0.74124151 0.017566733 0.24870269 0.0031490251
0.2480343 -0.0012144351 0.24836375 -0.0012580315 0.24811749 -0.0021079744 0.24797185 -0.0023318727
0.24906701 -0.00044974839 0.2481066 -0.0010846101 0.24897596 0.0032345864 -0.74113655 0.017303957
1998998.998999 -0.73846602 0.021168977 0.24861208 0.0033305218 0.24815649 -0.0015723848 0.24798802 -0.0018756574
0.24839588 -0.0020231067 0.24793905 -0.0021233519 0.24858169 -0.00098960183 0.24822421 -0.0011583297
0.2486743 0.0031928474 -0.74067181 0.02046578 0.24820818 -0.0013745315 0.24820079 -0.0016002449
0.24855559 -0.0017536531 0.24801755 -0.0025630116 0.24868335 -0.0013159246 0.24839357 -0.0014293663
0.24824591 -0.0016313002 0.24852757 -0.0012322573 -0.73873687 0.021607654 0.2486304 0.0036757542
0.24861972 -0.0010828219 0.24805512 -0.0021704384 0.24852368 -0.0024609249 0.24815229 -0.0024966775
0.24831736 -0.0018326495 0.24865837 -0.0013558129 0.24899179 0.0038499925 -0.73894131 0.022701701
0.24854116 -0.0010521285 0.24818555 -0.0023098893 0.24862033 -0.0026454516 0.24829088 -0.0027253723
0.2489513 -0.0021775304 0.24922147 -0.0017054572 0.24906391 -0.0011115575 0.2489305 -0.001215808
-0.74188501 0.020664802 0.24939828 0.0031503318 0.24940315 -0.0013823917 0.24906427 -0.0014423503
0.24806075 -0.0020848019 0.2483201 -0.0023269574 0.24806601 -0.0020306909 0.24797559 -0.0023041328
0.24909236 0.003388887 -0.73930758 0.021786487 0.24850953 -0.00090388185 0.24826157 -0.0010605893
0.24861923 -0.0012363514 0.24881029 -0.0013502204 0.24845029 -0.0026029428 0.24831837 -0.0029020438
0.24886064 -0.0014298719 0.24850312 -0.0011454124 -0.74011487 0.020240327 0.24886732 0.0042476491
0.24802813 -0.0012789338 0.24838017 -0.0013170008 0.24800825 -0.002508186 0.24789584 -0.0028393471
0.24842522 -0.0013663173 0.24808188 -0.0011754663 0.24908906 0.0044355327 -0.73985195 0.02019855
2498498.4984985 -0.73768771 0.024061317 0.24887908 0.0027841739 0.24822876 -0.0032336351 0.2480236 -0.0036093988
0.24830487 -0.004225343 0.24808076 -0.003984028 0.24864988 -0.0025448147 0.24824817 -0.0027233355
0.24886675 0.0026783606 -0.74011624 0.023216853 0.2483613 -0.0029310549 0.24828893 -0.0032229614
0.24850418 -0.0038402656 0.24821624 -0.0044835326 0.24878542 -0.0029034046 0.24845256 -0.003018108
0.24830966 -0.0034216391 0.24866593 -0.0029312649 -0.73845118 0.024678828 0.24887958 0.0031379291
0.24856168 -0.0031316907 0.24817796 -0.0041184444 0.248579 -0.004424368 0.24820746 -0.0044605704
0.24822751 -0.0034831027 0.24864298 -0.0029105803 0.24908343 0.0035470999 -0.7377938 0.025579425
0.24823506 -0.0028906092 0.24815814 -0.0041152793 0.24852869 -0.0044745873 0.24820754 -0.0045609535
0.24803275 -0.0043932302 0.24838598 -0.0038306531 0.24818173 -0.003060451 0.24802457 -0.0031692872
-0.73859942 0.025255831 0.24874738 0.0021045131 0.24843052 -0.0033869238 0.24810857 -0.0034467352
0.24809022 -0.0038979044 0.24841917 -0.0042175963 0.24812067 -0.0038098418 0.24800494 -0.0041394169
0.24916354 0.0024007503 -0.73861307 0.025117945 0.24858989 -0.0024105136 0.24828188 -0.0025944628
0.24868515 -0.0029892717 0.24894519 -0.0031626842 0.24850664 -0.0046489188 0.24834594 -0.0050362274
0.24878736 -0.003639898 0.24863666 -0.0029214856 -0.73958933 0.023175346 0.24911255 0.0038007176
0.24814714 -0.003005449 0.24855632 -0.0031086931 0.2481048 -0.0045116278 0.24796468 -0.0049473993
0.24839029 -0.0035385226 0.24825606 -0.0029373819 0.24934977 0.0040341662 -0.7391659 0.023216864
2997997.997998 -0.7366935 0.026333313 0.24888112 0.0038943924 0.24810059 -0.0032777425 0.24794662 -0.0037534637
0.24813807 -0.0044609527 0.2479306 -0.0041490872 0.24854118 -0.0024572818 0.2481692 -0.0027961549
0.24887016 0.0037354904 -0.7393257 0.025599038 0.24829656 -0.0029522728 0.24824904 -0.0033304747
0.24838601 -0.0040381048 0.24811073 -0.0047861561 0.2487265 -0.0029205654 0.24842623 -0.0031940197
0.2481976 -0.0034835008 0.24858496 -0.0029033511 -0.73731142 0.027260646 0.24897829 0.0042634513
0.24843091 -0.0031367468 0.24805488 -0.0043060025 0.24846284 -0.0046947482 0.24812125 -0.0048804032
0.24812415 -0.0035865305 0.24857415 -0.0029085844 0.24913105 0.0047216797 -0.73711485 0.028381247
0.24809815 -0.0028645582 0.24804942 -0.0043337401 0.24842964 -0.0047829142 0.24814816 -0.0050283875
0.24812284 -0.0049829232 0.24851699 -0.0043177195 0.24830085 -0.0034062716 0.24818793 -0.0035277868
-0.73846197 0.028992621 0.24901548 0.002731523 0.24853332 -0.0038081298 0.24826954 -0.0040062503
0.24800274 -0.0039377213 0.24835716 -0.004332318 0.24804291 -0.0038447182 0.24797773 -0.0042482545
0.24921031 0.0035271503 -0.73774576 0.027524792 0.24854749 -0.0021865999 0.2482733 -0.0025351162
0.24857153 -0.0029736497 0.2488706 -0.003188953 0.24838206 -0.0049785892 0.24826571 -0.0054443255
0.24865751 -0.0037537138 0.24853547 -0.0028853726 -0.73877454 0.025361191 0.24923772 0.0049303295
0.24799557 -0.0029324172 0.24843237 -0.003072842 0.24793281 -0.0047662277 0.24783331 -0.005282579
0.24821781 -0.0035837425 0.24810483 -0.0028537184 0.24934296 0.0054052952 -0.73830611 0.025754305
3497497.4974975 -0.73613662 0.028657187 0.24907124 0.0045718485 0.24812777 -0.0037059914 0.24789439 -0.0042480929
0.24817474 -0.0051567266 0.24797125 -0.0047658039 0.24860737 -0.002765954 0.24815774 -0.0031931342
0.24896231 0.0044161566 -0.738765 0.02796251 0.24830145 -0.0033193999 0.24816306 -0.0037549885
0.2483879 -0.0046658297 0.24812764 -0.0055051683 0.24875273 -0.0033079509 0.24837407 -0.0036641015
0.24820866 -0.0039496231 0.24864659 -0.0033175291 -0.7366823 0.029646493 0.24906085 0.0050269025
0.24846286 -0.003616123 0.24807057 -0.0049395873 0.24848074 -0.0053538228 0.24808693 -0.0055969269
0.24803014 -0.0039777886 0.24852675 -0.0032349431 0.24917378 0.005649846 -0.73598379 0.030730899
0.24823838 -0.0032182706 0.24797398 -0.004885247 0.24834003 -0.0053700577 0.24795401 -0.005676094
0.24778275 -0.0048326314 0.24822392 -0.0040681143 0.24797508 -0.0029524544 0.24778841 -0.003128039
-0.73677129 0.029852577 0.24885197 0.0040370142 0.24834074 -0.0034685265 0.24793163 -0.0037736215
0.24796619 -0.0044817389 0.24836081 -0.0049481192 0.24800621 -0.0043192268 0.24785809 -0.0048319991
0.24935099 0.0040506902 -0.73695719 0.030261358 0.24856108 -0.0024394067 0.24820136 -0.0029227554
0.24861354 -0.0034615991 0.24895824 -0.0037606226 0.24839169 -0.0057584061 0.2481958 -0.0063043796
0.24872492 -0.0044306098 0.24860013 -0.0033893308 -0.73841196 0.027813112 0.24941109 0.0056614014
0.24803235 -0.0033334924 0.24851206 -0.0035551158 0.24793734 -0.0054394421 0.2477522 -0.0060443664
0.24827129 -0.0041591916 0.24815381 -0.0032840008 0.24953485 0.0063099382 -0.73767012 0.02822049
3996996.996997 -0.73538727 0.031140536 0.24917206 0.0056426576 0.24803989 -0.00373275 0.2478186 -0.0043405276
0.24811774 -0.0053635635 0.24788436 -0.0049422286 0.24855748 -0.0026526111 0.24814616 -0.0031128239
0.24905169 0.0055038496 -0.73823231 0.030471601 0.24824984 -0.0032713022 0.24811213 -0.0037664608
0.24836162 -0.0047910749 0.2480544 -0.0057721143 0.24872683 -0.0032595848 0.24838647 -0.0036428557
0.24812497 -0.0040202439 0.24859987 -0.0033083693 -0.73561722 0.032217409 0.24908037 0.0061582094
0.24836358 -0.0036142406 0.24793191 -0.0051380019 0.2483485 -0.0056069563 0.24799447 -0.0058537088
0.24804631 -0.0040757414 0.24858066 -0.0032395131 0.24927713 0.0068336246 -0.73529291 0.03366876
0.24826951 -0.0031841476 0.24794176 -0.0051105898 0.24831301 -0.005652193 0.24796526 -0.005979191
0.24771078 -0.0055384282 0.24819145 -0.0047163097 0.2478672 -0.0033777598 0.24769875 -0.0035765658
-0.73585355 0.034203477 0.24891628 0.0044972543 0.24826244 -0.0039861086 0.24789351 -0.0042769532
0.24799557 -0.0043938085 0.24841496 -0.0049718055 0.24798217 -0.0041910391 0.24784914 -0.0047784075
0.24951079 0.0053173285 -0.73625326 0.032565795 0.24858637 -0.0020623847 0.24826634 -0.0025576232
0.24859956 -0.0033924533 0.24898697 -0.0037364059 0.24829596 -0.0059972713 0.24811231 -0.0066070426
0.24870294 -0.0044576963 0.24854715 -0.0033046526 -0.73771262 0.029939659 0.24956965 0.0070060589
0.24808267 -0.0032361667 0.24859585 -0.0035041235 0.24790092 -0.0056269248 0.24772291 -0.0063020173
0.24831145 -0.0041433019 0.24816178 -0.0031751648 0.24968131 0.0077263815 -0.73723131 0.030355481
4496496.4964965 -0.73482764 0.03450413 0.24942662 0.0061870692 0.24823391 -0.0042747469 0.24799946 -0.0049149846
0.24831749 -0.0061295978 0.24806283 -0.005725882 0.24879465 -0.0031519034 0.24851835 -0.0036215147
0.24932703 0.0061073564 -0.73773324 0.03371352 0.24847043 -0.0037000554 0.24831483 -0.0042140479
0.24858624 -0.0054316735 0.2482435 -0.0065983371 0.24898362 -0.0037809922 0.24877754 -0.0041676355
0.24823163 -0.0046230201 0.24871241 -0.0038721631 -0.73512191 0.035670489 0.24938951 0.006797465
0.24854667 -0.0041510505 0.24807097 -0.0059621837 0.24851753 -0.0064620366 0.24829377 -0.0066948682
0.24814875 -0.0044283369 0.24867973 -0.0035409145 0.24958137 0.0078005539 -0.73469174 0.036560491
0.2484584 -0.0034106367 0.24807808 -0.0056764227 0.24847777 -0.0062595117 0.24826096 -0.0065783747
0.2483777 -0.0052818358 0.24886322 -0.0043760925 0.24859846 -0.0029065898 0.24842356 -0.0030286049
-0.73698002 0.03531944 0.24978617 0.0058542234 0.24903186 -0.0035790971 0.24880151 -0.0039046491
0.24813384 -0.0049894718 0.24854173 -0.0056634792 0.24816918 -0.004817666 0.24802659 -0.0053853807
0.24988388 0.0058676177 -0.73581499 0.03645603 0.24884187 -0.0024127564 0.24864601 -0.002969001
0.24877718 -0.0040394538 0.24916521 -0.0044747177 0.24849144 -0.0069540986 0.24829486 -0.0076108058
0.24895351 -0.005250142 0.24878944 -0.0040263459 -0.73758441 0.033695098 0.25015563 0.0075853337
0.24820758 -0.0037716066 0.24870902 -0.0041209641 0.2480413 -0.0064402511 0.2478462 -0.0071799546
0.24850157 -0.0048038573 0.24833909 -0.0037865099 0.25004804 0.0084391162 -0.73724198 0.033855535
4995995.995996 -0.73425102 0.036983319 0.24963553 0.007216766 0.24823837 -0.0043386715 0.2480121 -0.0050594127
0.24847023 -0.0063865189 0.24808453 -0.0059302081 0.24885309 -0.0030338306 0.24851809 -0.0036018302
0.24954616 0.0072296169 -0.73729718 0.036374837 0.24850917 -0.0036804026 0.24835648 -0.0042688651
0.24877368 -0.0056039905 0.24828817 -0.0068814456 0.24907367 -0.0037262731 0.24880585 -0.0041956487
0.24828473 -0.0046969182 0.24877971 -0.0039481958 -0.73420352 0.038481388 0.24950893 0.0078530079
0.24866991 -0.0042781811 0.24804857 -0.0062238495 0.24850293 -0.0067493608 0.24821977 -0.0070458101
0.24830677 -0.004451884 0.24885534 -0.0035499684 0.24978977 0.00898684 -0.7340157 0.039633892
0.24871042 -0.0034260051 0.24817236 -0.005874875 0.24857053 -0.0065008677 0.24829079 -0.0068865423
0.24802665 -0.0053969086 0.24852966 -0.0044552642 0.2481751 -0.0027596608 0.24802485 -0.0028845975
-0.73497659 0.038568627 0.24953501 0.0068456782 0.24865584 -0.0035172158 0.24837215 -0.003904351
0.24831161 -0.0048582884 0.24872579 -0.0056688306 0.2482594 -0.0046597063 0.24813119 -0.0052805711
0.25027242 0.0070831436 -0.73518443 0.038796552 0.24899924 -0.0019978215 0.24874705 -0.0026421002
0.2488879 -0.0039614132 0.24928209 -0.0045397524 0.24848261 -0.0072412542 0.2482875 -0.0079715773
0.24912974 -0.0054039545 0.24884124 -0.0039854278 -0.7369746 0.035906199 0.25031078 0.0088443821
0.24839039 -0.0035637205 0.24890916 -0.0040442222 0.24810667 -0.0065774531 0.24791449 -0.007392454
0.24875873 -0.0048094532 0.24847008 -0.0036172522 0.25031617 0.0099353176 -0.73662883 0.035973217
5495495.4954955 -0.7338419 0.039559461 0.24997737 0.0082453415 0.24847633 -0.0043760622 0.24819346 -0.0051559843
0.24847201 -0.0065639019 0.24826442 -0.006193981 0.2491594 -0.0030569395 0.24872899 -0.0035192845
0.24984607 0.0082968166 -0.73701882 0.039056864 0.24876565 -0.0036512236 0.24854779 -0.0042807837
0.24878787 -0.0056997132 0.24848033 -0.0072393487 0.24938975 -0.0038128912 0.24901704 -0.0041676471
0.2485173 -0.0049482929 0.24905902 -0.0041449778 -0.7340461 0.041416448 0.2498851 0.0088390615
0.24872814 -0.0043738298 0.24827446 -0.0066430643 0.24881394 -0.0072520417 0.24842606 -0.007440866
0.24851383 -0.0042782733 0.24910648 -0.0032992959 0.25017363 0.010509102 -0.73349726 0.041813362
0.24877785 -0.0030381086 0.24837288 -0.0058607594 0.24889755 -0.006579353 0.24851593 -0.0068700691
0.24930151 -0.0054501933 0.24985796 -0.0045177019 0.2495162 -0.0025601832 0.24930738 -0.0027258561
-0.73622215 0.041124146 0.25092673 0.007945409 0.24977577 -0.0035328409 0.24949543 -0.0037223846
0.24862723 -0.0050533568 0.24906763 -0.0060441839 0.24862188 -0.0048502283 0.24843208 -0.0055624568
0.25054303 0.0080678938 -0.73497552 0.042140044 0.24941485 -0.0020682444 0.24907736 -0.0025389327
0.24909152 -0.0042756409 0.24952197 -0.0049325167 0.24869384 -0.0078039877 0.24843082 -0.0086276354
0.24914104 -0.00572555 0.24905188 -0.0042986744 -0.73686558 0.039280944 0.25067642 0.009848454
0.24862184 -0.0037959276 0.24917147 -0.0043393499 0.24834502 -0.0070272665 0.24808922 -0.0079406472
0.24879573 -0.0050330348 0.24870469 -0.0038402833 0.25077021 0.010972004 -0.73620927 0.03896359
5994994.994995 -0.73351294 0.042412356 0.25034589 0.0092544099 0.24871078 -0.0044203806 0.24840778 -0.0053771297
0.24903573 -0.0068260068 0.24853249 -0.0064540268 0.2494735 -0.003008029 0.24910133 -0.003498062
0.25029269 0.0095117493 -0.73670405 0.04158343 0.24904326 -0.0034841918 0.2488199 -0.0042694388
0.24940318 -0.0057320772 0.24879286 -0.0074421717 0.249751 -0.003694522 0.24944395 -0.0040648859
0.24867642 -0.0050379871 0.24918249 -0.0042118928 -0.7331962 0.044160817 0.25012785 0.0098866913
0.24917251 -0.0043777563 0.24840002 -0.0069251671 0.24895225 -0.0075841402 0.24862641 -0.0077787861
0.24896985 -0.0041801399 0.24952149 -0.0031615142 0.25068966 0.011910534 -0.73320538 0.044704374
0.24954611 -0.0027955661 0.24880186 -0.0059519527 0.24934921 -0.0067322361 0.24903104 -0.0070336829
0.24918471 -0.0048747198 0.24971342 -0.0038769727 0.24934363 -0.0016604564 0.24914387 -0.0019246899
-0.73470306 0.041808419 0.25089946 0.0095985793 0.24958888 -0.0028047757 0.24941301 -0.0029964696
0.24899645 -0.0048228223 0.24938676 -0.0059185005 0.24891864 -0.0045413845 0.24873142 -0.0053938823
