!Agilent Technologies,M9370A,MY54322275,A.02.50.04
!Agilent M9370A: A.02.50.04
!Date: Friday, April 06, 2018 11:14:38
!Correction: S11(Full 8 Port(1,2,3,4,5,6,7,8)) 
!S12(Full 8 Port(1,2,3,4,5,6,7,8)) 
!S13(Full 8 Port(1,2,3,4,5,6,7,8)) 
!S14(Full 8 Port(1,2,3,4,5,6,7,8)) 
!S15(Full 8 Port(1,2,3,4,5,6,7,8)) 
!S16(Full 8 Port(1,2,3,4,5,6,7,8)) 
!S17(Full 8 Port(1,2,3,4,5,6,7,8)) 
!S18(Full 8 Port(1,2,3,4,5,6,7,8)) 
!S21(Full 8 Port(1,2,3,4,5,6,7,8)) 
!S22(Full 8 Port(1,2,3,4,5,6,7,8)) 
!S23(Full 8 Port(1,2,3,4,5,6,7,8)) 
!S24(Full 8 Port(1,2,3,4,5,6,7,8)) 
!S25(Full 8 Port(1,2,3,4,5,6,7,8)) 
!S26(Full 8 Port(1,2,3,4,5,6,7,8)) 
!S27(Full 8 Port(1,2,3,4,5,6,7,8)) 
!S28(Full 8 Port(1,2,3,4,5,6,7,8)) 
!S31(Full 8 Port(1,2,3,4,5,6,7,8)) 
!S32(Full 8 Port(1,2,3,4,5,6,7,8)) 
!S33(Full 8 Port(1,2,3,4,5,6,7,8)) 
!S34(Full 8 Port(1,2,3,4,5,6,7,8)) 
!S35(Full 8 Port(1,2,3,4,5,6,7,8)) 
!S36(Full 8 Port(1,2,3,4,5,6,7,8)) 
!S37(Full 8 Port(1,2,3,4,5,6,7,8)) 
!S38(Full 8 Port(1,2,3,4,5,6,7,8)) 
!S41(Full 8 Port(1,2,3,4,5,6,7,8)) 
!S42(Full 8 Port(1,2,3,4,5,6,7,8)) 
!S43(Full 8 Port(1,2,3,4,5,6,7,8)) 
!S44(Full 8 Port(1,2,3,4,5,6,7,8)) 
!S45(Full 8 Port(1,2,3,4,5,6,7,8)) 
!S46(Full 8 Port(1,2,3,4,5,6,7,8)) 
!S47(Full 8 Port(1,2,3,4,5,6,7,8)) 
!S48(Full 8 Port(1,2,3,4,5,6,7,8)) 
!S51(Full 8 Port(1,2,3,4,5,6,7,8)) 
!S52(Full 8 Port(1,2,3,4,5,6,7,8)) 
!S53(Full 8 Port(1,2,3,4,5,6,7,8)) 
!S54(Full 8 Port(1,2,3,4,5,6,7,8)) 
!S55(Full 8 Port(1,2,3,4,5,6,7,8)) 
!S56(Full 8 Port(1,2,3,4,5,6,7,8)) 
!S57(Full 8 Port(1,2,3,4,5,6,7,8)) 
!S58(Full 8 Port(1,2,3,4,5,6,7,8)) 
!S61(Full 8 Port(1,2,3,4,5,6,7,8)) 
!S62(Full 8 Port(1,2,3,4,5,6,7,8)) 
!S63(Full 8 Port(1,2,3,4,5,6,7,8)) 
!S64(Full 8 Port(1,2,3,4,5,6,7,8)) 
!S65(Full 8 Port(1,2,3,4,5,6,7,8)) 
!S66(Full 8 Port(1,2,3,4,5,6,7,8)) 
!S67(Full 8 Port(1,2,3,4,5,6,7,8)) 
!S68(Full 8 Port(1,2,3,4,5,6,7,8)) 
!S71(Full 8 Port(1,2,3,4,5,6,7,8)) 
!S72(Full 8 Port(1,2,3,4,5,6,7,8)) 
!S73(Full 8 Port(1,2,3,4,5,6,7,8)) 
!S74(Full 8 Port(1,2,3,4,5,6,7,8)) 
!S75(Full 8 Port(1,2,3,4,5,6,7,8)) 
!S76(Full 8 Port(1,2,3,4,5,6,7,8)) 
!S77(Full 8 Port(1,2,3,4,5,6,7,8)) 
!S78(Full 8 Port(1,2,3,4,5,6,7,8)) 
!S81(Full 8 Port(1,2,3,4,5,6,7,8)) 
!S82(Full 8 Port(1,2,3,4,5,6,7,8)) 
!S83(Full 8 Port(1,2,3,4,5,6,7,8)) 
!S84(Full 8 Port(1,2,3,4,5,6,7,8)) 
!S85(Full 8 Port(1,2,3,4,5,6,7,8)) 
!S86(Full 8 Port(1,2,3,4,5,6,7,8)) 
!S87(Full 8 Port(1,2,3,4,5,6,7,8)) 
!S88(Full 8 Port(1,2,3,4,5,6,7,8)) 
!S8P File: Measurements: <S11,S12,S13,S14,S15,S16,S17,S18>,
!<S21,S22,S23,S24,S25,S26,S27,S28>,
!<S31,S32,S33,S34,S35,S36,S37,S38>,
!<S41,S42,S43,S44,S45,S46,S47,S48>,
!<S51,S52,S53,S54,S55,S56,S57,S58>,
!<S61,S62,S63,S64,S65,S66,S67,S68>,
!<S71,S72,S73,S74,S75,S76,S77,S78>,
!<S81,S82,S83,S84,S85,S86,S87,S88>:
# Hz S  RI   R 50
1000000 0.9820928 0.081813209 -0.00018551579 0.0028673983 -2.3215272e-005 0.00028634313 -2.3451092e-005 0.00035836385
-5.107445e-005 0.00084133632 -5.2094267e-005 0.00083876017 -3.0832231e-005 0.00044956509 -3.0384201e-005 0.00041924932
-0.00018657962 0.0028613096 0.9830426 0.078880787 -2.4131687e-005 0.00034872774 -2.7075643e-005 0.00041735318
-4.9999089e-005 0.00079729367 -3.9531722e-005 0.00076751923 -2.9028573e-005 0.0004407434 -2.783289e-005 0.00042796231
-2.023699e-005 0.00028866096 -2.1377657e-005 0.00034364377 0.98010319 0.08452557 -0.00020010653 0.0030281956
-4.0072613e-005 0.00060725748 -3.3835706e-005 0.00049465959 -1.2139748e-005 0.00016067835 -1.9498953e-005 0.00026022585
-2.7104845e-005 0.00035904138 -2.8434208e-005 0.00041623483 -0.00020322815 0.0030272903 0.98057961 0.084050342
-4.6810674e-005 0.00063344708 -3.3400229e-005 0.00050277251 -1.6164982e-005 0.00019103923 -2.0462834e-005 0.00026717244
-5.2828531e-005 0.00084064278 -5.4568718e-005 0.00079674803 -3.9290695e-005 0.00060796179 -4.1537165e-005 0.00062840444
0.97437614 0.086288348 -0.00015277383 0.0022986552 -2.2945758e-005 0.00036301036 -3.1852669e-005 0.00046615218
-5.5646688e-005 0.00083404564 -4.7226553e-005 0.00076611235 -3.498514e-005 0.00049290061 -3.1928004e-005 0.00050372066
-0.0001531676 0.0023014841 0.98138469 0.082012385 -3.8248581e-005 0.00050833094 -3.9919625e-005 0.00061646057
-2.9019871e-005 0.00044601393 -2.7693322e-005 0.00043667818 -9.0214389e-006 0.00016235473 -1.4883675e-005 0.00018835273
-2.4386081e-005 0.0003633078 -3.4464185e-005 0.00050370104 0.97906744 0.087604754 -0.00019023303 0.0027325803
-2.869896e-005 0.00041334133 -2.7421302e-005 0.00042533176 -1.808532e-005 0.0002581579 -1.7821385e-005 0.00026805984
-3.4338165e-005 0.00046629756 -3.9491431e-005 0.00061883812 -0.00019200268 0.0027365065 0.97871399 0.087173596
1499499.4994995 0.99878818 -0.0006589946 2.3273595e-005 0.004457362 -2.9744228e-006 0.0004468906 -1.7956813e-006 0.00056035171
9.5171845e-006 0.0013232196 4.923425e-006 0.0013018181 -5.9286566e-007 0.00070141093 -6.7100979e-007 0.00064872717
2.3242801e-005 0.0044505163 0.999053 -0.0017536378 -1.2705663e-006 0.00053924677 8.0667087e-007 0.00064857485
5.255104e-006 0.0012474585 1.1532546e-005 0.001185496 6.7133237e-007 0.00068675296 -4.6291234e-008 0.00066373631
-9.3086311e-007 0.00044824989 -5.1221645e-007 0.00053983345 0.99880624 0.0010814186 1.9970381e-005 0.004720171
1.5885328e-006 0.00096104591 6.2241967e-009 0.00076825114 2.8494654e-007 0.00025228722 -3.1269562e-007 0.00040525911
7.4771776e-007 0.00055889663 -1.0004111e-006 0.00064657803 2.0599939e-005 0.0047181728 0.99905694 0.00024283721
-6.9147052e-007 0.00099436857 2.7183821e-006 0.0007847629 -2.776681e-006 0.00029518976 -3.2516814e-007 0.00041585846
1.087918e-005 0.0013206606 4.5215857e-006 0.0012471246 2.0901391e-006 0.00095647731 -9.6582824e-007 0.00099537626
0.99978381 0.0019094014 1.4316217e-005 0.0036137414 -1.1746243e-006 0.00057297142 2.9150988e-006 0.00073596934
6.4080596e-006 0.0013019189 7.8641542e-006 0.0011877035 7.4094493e-007 0.00076819822 2.2861511e-006 0.00078050524
1.3557405e-005 0.0036137772 0.9988879 -0.00095708919 -1.6822885e-006 0.00079358829 1.7054788e-006 0.00096268579
2.1636849e-006 0.00069854676 1.9457666e-006 0.00068386766 -8.6473938e-007 0.00025198021 -9.8647081e-007 0.00029696824
-2.9381332e-007 0.00057206076 -1.1019612e-006 0.00079089036 0.99863774 0.0019993943 1.2907101e-005 0.0042701717
2.8203426e-006 0.00064825686 -1.0837761e-006 0.00066450535 -1.2153583e-006 0.00040342181 -1.7162758e-006 0.00041658158
-2.0836505e-006 0.00073522434 8.0066172e-007 0.00096215087 1.0881934e-005 0.0042768144 0.99879366 0.001654826
1998998.998999 0.99882996 -0.0033396753 3.5315599e-005 0.0059387754 -4.0019167e-006 0.00059738429 -6.0050382e-007 0.0007445208
1.2851504e-005 0.0017589276 7.8586245e-006 0.0017304714 -1.9344093e-006 0.00093488861 1.6359725e-007 0.00086184387
3.7098434e-005 0.0059284987 0.99903464 -0.0041663912 -1.5665038e-006 0.00071810454 -1.7187281e-006 0.00086285826
5.7173984e-006 0.0016615554 1.1531761e-005 0.0015802964 -6.1956081e-007 0.00091196754 1.0872436e-006 0.00088229531
-1.8162415e-006 0.00059831236 -1.5141266e-006 0.00071737735 0.99879217 -0.0011678126 3.5147674e-005 0.0062901047
4.2377874e-006 0.0012757744 2.5381205e-006 0.0010246778 -4.2310439e-006 0.00033706118 -2.3993241e-006 0.00053820247
-3.4780414e-006 0.00074714801 -1.931156e-006 0.00086025853 3.0658601e-005 0.0062903673 0.99932754 -0.0023408614
-3.3975564e-006 0.0013269047 2.460356e-006 0.0010434524 -2.5947998e-006 0.00039536404 -6.8394559e-007 0.00055408524
1.4930923e-005 0.001763529 3.774996e-006 0.0016657356 7.7143602e-007 0.0012764598 -2.9451196e-006 0.0013289154
1.0012083 -0.0021087881 2.187905e-005 0.0048236898 -4.7714502e-006 0.00076802546 -1.6339575e-006 0.00097909628
5.3797689e-006 0.0017301488 1.1129853e-005 0.0015792046 -1.2235075e-006 0.0010225552 1.3707811e-006 0.001041963
1.9550274e-005 0.0048164716 0.99879581 -0.0033636307 -5.7626512e-006 0.0010550709 2.038171e-006 0.0012818592
-7.008029e-007 0.00093121972 1.9811417e-007 0.0009103773 -8.2835334e-007 0.00033641385 -4.2577253e-007 0.00039806796
-2.3441069e-006 0.00076421583 -5.3792505e-006 0.0010525939 0.99877697 -5.1469349e-005 2.1998014e-005 0.005686787
8.7116797e-007 0.00086491089 -1.9295899e-007 0.00088655209 -1.3174518e-006 0.0005363989 -2.7325229e-006 0.00055376434
-2.8674086e-007 0.0009774107 3.7701463e-006 0.0012807134 1.6262689e-005 0.0056976997 0.99871814 -0.00095407624
2498498.4984985 0.99967313 -0.016902566 0.00012631415 0.0074263876 -2.6080963e-007 0.00074842508 6.7268388e-006 0.00093474594
4.0423649e-005 0.0022005993 2.9278175e-005 0.0021669595 9.4212055e-006 0.0011697253 1.0899102e-005 0.0010795795
0.00012889778 0.0074114222 0.99988151 -0.017305674 6.5036202e-006 0.0009030017 1.1859211e-005 0.0010757236
3.0114195e-005 0.0020823921 3.7677746e-005 0.0019707729 1.1984289e-005 0.0011420655 1.1141709e-005 0.0011050634
-1.673299e-006 0.00074667408 6.1648893e-006 0.00089873525 0.99943835 -0.0147944 0.00013570052 0.0078705335
2.1672706e-005 0.0015958273 1.4226455e-005 0.0012784718 -1.7691818e-006 0.00042487556 3.0076881e-006 0.00067290332
4.4728658e-006 0.00093221024 7.9890951e-006 0.0010793104 0.00012633756 0.0078613991 0.99970412 -0.015716789
1.5090754e-005 0.0016571389 1.4670518e-005 0.0013020816 1.0937318e-007 0.00049712695 1.9205334e-006 0.00069491257
3.7771813e-005 0.0021928416 2.7221178e-005 0.0020804671 2.1124313e-005 0.0015911928 1.8493321e-005 0.0016576048
0.99908584 -0.017153086 9.8991986e-005 0.00601647 7.7453442e-006 0.00095741358 1.1640883e-005 0.0012238381
2.8479186e-005 0.0021639017 3.3450611e-005 0.0019745631 9.1612319e-006 0.0012824123 1.3033485e-005 0.001304407
9.4704163e-005 0.0060248272 0.99974149 -0.01731899 7.2559378e-006 0.0013180237 1.9502881e-005 0.0016022298
1.2746187e-005 0.0011657054 9.6866588e-006 0.0011405024 -1.0893978e-006 0.0004196993 2.0934049e-006 0.00049398956
8.6384198e-006 0.0009562386 1.155486e-005 0.001314464 0.99958581 -0.013744495 0.00011131942 0.007112273
7.2863972e-006 0.0010781471 1.1082369e-005 0.0011061071 7.0247879e-006 0.000673517 2.0322593e-006 0.00069691666
9.5420191e-006 0.00122741 1.7919236e-005 0.0016039493 0.00010540393 0.0071229106 0.99942583 -0.015104775
2997997.997998 0.99943584 -0.01882153 0.00015046129 0.008903102 -3.1789255e-006 0.00089579757 5.9452477e-006 0.001121757
4.1819236e-005 0.0026341658 3.2077045e-005 0.0025936954 8.2704073e-006 0.0014011391 6.3287794e-006 0.0012934447
0.00015700888 0.0088873804 0.99968559 -0.019270502 5.6598319e-006 0.001079522 8.4574531e-006 0.0012932901
3.1634681e-005 0.002496152 3.7039397e-005 0.0023645954 1.0115477e-005 0.0013715846 1.2916846e-005 0.0013266834
-1.6148566e-006 0.0008953808 7.5362946e-006 0.001078487 0.99959356 -0.016234061 0.00016738877 0.0094396025
2.5553874e-005 0.0019149936 1.3112753e-005 0.0015347229 -1.342829e-006 0.00050534739 7.7757531e-006 0.0008073207
4.8569063e-006 0.001118584 7.8221155e-006 0.0012945012 0.00014756354 0.0094306711 1.0001007 -0.017824657
1.6259524e-005 0.0019897444 1.3056449e-005 0.0015620256 -7.9407485e-008 0.00059487391 5.2396717e-006 0.00083194516
4.6277091e-005 0.0026314547 3.3075528e-005 0.0024933938 2.0793112e-005 0.0019111419 1.9771596e-005 0.0019891709
1.0000643 -0.020854903 0.00012971069 0.0072211106 6.1662226e-006 0.0011458541 9.3292902e-006 0.0014680329
2.8676464e-005 0.0025949436 3.2445696e-005 0.0023661773 8.2986635e-006 0.0015351548 1.4558489e-005 0.0015618027
0.00010774545 0.0072243689 0.99960965 -0.018991839 4.205519e-006 0.0015815787 1.908999e-005 0.0019197614
9.8434066e-006 0.0013986181 9.4742281e-006 0.0013678422 -3.4830696e-006 0.00050532952 -1.9784686e-006 0.00059665338
8.7107956e-006 0.0011478493 5.4704469e-006 0.0015766035 0.9993431 -0.014819487 0.00013750898 0.0085284468
5.3477575e-006 0.001291573 1.2920446e-005 0.0013252829 3.5621335e-006 0.00080517167 2.3329671e-006 0.00083238137
1.1933613e-005 0.0014687661 2.2943468e-005 0.0019202232 0.0001190233 0.0085433023 0.999116 -0.016975278
3497497.4974975 0.99956053 -0.023848813 0.00021083839 0.010393634 -1.0732666e-006 0.0010453518 8.1999233e-006 0.0013064984
5.9543385e-005 0.0030737119 4.5632838e-005 0.0030277795 1.3115994e-005 0.0016341022 1.0064055e-005 0.0015100392
0.00021498729 0.010373154 0.99961889 -0.024269348 5.2811738e-006 0.0012563686 1.2653397e-005 0.0015070095
4.3840726e-005 0.0029118361 4.8424095e-005 0.0027569423 1.0496053e-005 0.0015982275 1.5273927e-005 0.0015431051
-7.334562e-007 0.0010457691 8.6724795e-006 0.0012601631 0.99973631 -0.020699967 0.00023146273 0.01101069
3.0339363e-005 0.0022331218 1.8202698e-005 0.0017906541 -3.1041611e-006 0.0005918942 5.8474989e-006 0.00094089092
4.6886844e-006 0.0013067652 9.2656055e-006 0.0015050445 0.00020315795 0.011005293 0.99943805 -0.022463055
2.3379109e-005 0.0023222957 1.9560914e-005 0.0018227706 -2.6999605e-006 0.00069707725 4.4823082e-006 0.00096932153
4.764153e-005 0.0030627644 3.4483448e-005 0.0029050575 2.3053057e-005 0.0022256381 1.7144559e-005 0.0023157531
0.99856085 -0.023896379 0.00015142244 0.0084165819 4.9702062e-006 0.0013356109 1.2482548e-005 0.0017092063
3.8220362e-005 0.003025996 4.0242965e-005 0.0027607149 1.2157956e-005 0.0017889555 1.5134598e-005 0.0018212596
0.00015261567 0.0084319813 0.99948114 -0.024356911 8.54885e-006 0.0018455152 2.7825175e-005 0.0022383339
1.2419855e-005 0.0016306203 1.5981483e-005 0.0015951172 -5.41594e-006 0.00059045973 -2.0251741e-007 0.0006957443
1.0976825e-005 0.0013377013 1.3250273e-005 0.0018417543 0.99951345 -0.019471215 0.00019757317 0.0099520581
1.1755148e-005 0.0015086875 1.1304579e-005 0.0015466685 7.9464235e-006 0.00094082684 4.5582228e-006 0.00097222341
1.565186e-005 0.0017131587 3.0548243e-005 0.002242317 0.00016570644 0.0099690603 0.99896228 -0.021933567
3996996.996997 0.99937546 -0.026623551 0.00024529366 0.011877311 -5.9333993e-006 0.0011958557 8.2903744e-006 0.0014960407
6.1345156e-005 0.0035107911 4.7862966e-005 0.0034613882 1.1830889e-005 0.0018677118 6.929858e-006 0.0017231908
0.00024962871 0.011854319 0.99953401 -0.026974237 5.6702261e-006 0.001435952 1.5479434e-005 0.0017209299
4.6238616e-005 0.0033290647 5.3674543e-005 0.0031488847 1.1706121e-005 0.0018274756 1.1608853e-005 0.001765392
-5.199056e-006 0.0011965826 1.4593043e-006 0.0014379352 0.99920952 -0.022934368 0.00027027572 0.012581085
3.4199613e-005 0.0025494013 1.7685536e-005 0.0020447972 -4.6081727e-006 0.00067775248 4.9541945e-006 0.0010727216
4.8682764e-006 0.001493793 7.4434906e-006 0.0017220456 0.00023396402 0.012577492 0.99944204 -0.025413761
2.263348e-005 0.0026580303 1.8688846e-005 0.0020811062 -5.217199e-006 0.00079500553 8.5318106e-007 0.00110747
6.0514703e-005 0.0034978304 3.9126182e-005 0.0033199871 2.896106e-005 0.0025448729 2.4639887e-005 0.0026486497
0.99795949 -0.029282521 0.00019268555 0.0096189054 4.2694219e-006 0.0015289993 1.6744094e-005 0.0019534484
3.422637e-005 0.0034579684 4.1097239e-005 0.003150291 8.1739772e-006 0.0020477236 1.1606235e-005 0.0020828813
0.00016846626 0.0096372711 0.99928701 -0.026528558 2.1532958e-006 0.0021088221 2.4485134e-005 0.002558192
1.3242462e-005 0.0018629673 1.1823317e-005 0.0018238153 -7.8887733e-006 0.00067582302 -2.9723064e-006 0.0007918764
6.0652746e-006 0.0015266631 1.1008829e-005 0.0021087036 0.99916989 -0.020973664 0.00021606997 0.011377716
7.5824855e-006 0.0017259865 1.3601273e-005 0.001764852 4.5590155e-006 0.0010757608 3.7448031e-006 0.001108314
1.2632907e-005 0.0019606259 3.213765e-005 0.0025614514 0.00018299598 0.011395671 0.99905109 -0.023730854
4496496.4964965 0.99934977 -0.031283986 0.00031676094 0.013370294 -2.9871005e-006 0.0013510607 7.4981999e-006 0.0016840022
7.6572855e-005 0.0039534592 6.5110762e-005 0.0038991852 1.2945068e-005 0.0021055734 1.2557139e-005 0.0019421241
0.00031602511 0.013346503 0.99930412 -0.031411435 6.4040464e-006 0.0016192392 1.5789912e-005 0.0019402689
5.6937639e-005 0.003747917 6.3191219e-005 0.0035459159 1.4200529e-005 0.0020580043 1.891061e-005 0.0019882228
-4.9076179e-006 0.0013475718 8.9255564e-006 0.0016178483 0.99939698 -0.027108874 0.00035068323 0.014159185
4.176352e-005 0.0028703762 2.3335439e-005 0.0023043929 -6.8907048e-006 0.00076138083 8.9019368e-006 0.0012093371
4.5929191e-006 0.0016807463 8.1896942e-006 0.0019418269 0.00029183013 0.014161063 0.99943995 -0.028905809
2.8445742e-005 0.0029934028 1.8193823e-005 0.0023428164 -4.9782502e-006 0.00089715311 1.6747473e-006 0.0012475532
5.5790042e-005 0.003947827 3.7394373e-005 0.0037495927 2.6698292e-005 0.0028726698 1.7976179e-005 0.0029893871
0.99998528 -0.030747792 0.00020589028 0.010860447 -8.7060778e-007 0.0017260078 9.1814163e-006 0.0022088364
4.5736084e-005 0.0038946755 4.7412082e-005 0.0035466773 1.2387053e-005 0.0023019454 1.4024732e-005 0.0023456432
0.00021360032 0.010857865 0.99925947 -0.031668842 3.3342747e-006 0.0023784093 3.3624739e-005 0.0028854345
1.9100709e-005 0.0020978609 1.4803362e-005 0.0020528673 -5.7403336e-006 0.00076042814 -3.021413e-006 0.00089804118
7.8868688e-006 0.0017210892 1.7577075e-005 0.0023731706 0.99955553 -0.025579676 0.00028816055 0.012818539
1.2206214e-005 0.0019415934 1.4488558e-005 0.0019868521 6.0639873e-006 0.0012107014 3.4594377e-006 0.0012460864
1.6669854e-005 0.0022078503 3.9463932e-005 0.0028824625 0.00023942714 0.012832477 0.99970835 -0.028318018
4995995.995996 0.99914646 -0.034410719 0.00036328097 0.014867974 -1.0749682e-005 0.0014985621 6.7303117e-006 0.0018712926
8.2700062e-005 0.0043930835 6.3921485e-005 0.0043330491 8.2723072e-006 0.0023421275 1.2833149e-005 0.0021589051
0.00035242198 0.014843173 0.99916375 -0.034701087 3.3546337e-006 0.0017998222 1.7031371e-005 0.0021564248
6.2170635e-005 0.0041658399 6.4439402e-005 0.003939548 9.7610682e-006 0.0022871366 1.5223767e-005 0.0022075004
-7.4399286e-006 0.0014988956 6.8016529e-006 0.0017998666 0.99878836 -0.02992768 0.00040465395 0.015735878
4.5504305e-005 0.0031906529 2.5562686e-005 0.0025614656 -1.0276793e-005 0.00084634015 7.4665518e-006 0.0013469126
-1.0518307e-006 0.0018707096 7.8429093e-006 0.0021596437 0.00032998779 0.015748076 0.99915361 -0.032510567
2.9339684e-005 0.0033301583 1.5626323e-005 0.0026069756 -1.2167796e-005 0.00099513284 1.8180979e-006 0.001388885
5.5397228e-005 0.0043868311 3.2459422e-005 0.0041644122 2.4308061e-005 0.0031877041 2.0494748e-005 0.0033244269
0.99731088 -0.03489621 0.00023184468 0.012059271 -8.4514868e-006 0.0019158231 7.7391396e-006 0.0024512962
4.1647356e-005 0.0043320893 4.3456115e-005 0.003945794 4.0433797e-006 0.0025627043 1.2359635e-005 0.0026085174
0.00023146364 0.012083421 0.998873 -0.034234215 -3.9653369e-006 0.0026435056 2.8164797e-005 0.0032107371
1.4954122e-005 0.0023322478 1.5236928e-005 0.0022828714 -9.3732915e-006 0.00084313907 -3.2247992e-006 0.00099490525
4.9905666e-006 0.0019169544 1.9864669e-005 0.0026398068 0.99910653 -0.027346993 0.0003229265 0.014249521
6.7689657e-006 0.0021583091 1.2507146e-005 0.0022097642 5.1851221e-006 0.0013475046 1.7523005e-006 0.0013885215
1.6557029e-005 0.0024548881 4.1189618e-005 0.00320818 0.00025465834 0.014269205 0.99930811 -0.030303508
5495495.4954955 0.99907905 -0.038140275 0.00041613023 0.016376911 -1.3392378e-005 0.0016545409 5.245357e-006 0.0020630779
8.7279892e-005 0.0048364745 7.3004121e-005 0.0047720131 8.9866317e-006 0.0025775677 9.1420807e-006 0.0023790132
0.00040547087 0.016350374 0.99902523 -0.038507987 -2.1964072e-006 0.0019862801 1.2116916e-005 0.0023764146
6.0005896e-005 0.0045862743 7.1986731e-005 0.0043405439 7.0359602e-006 0.0025176001 1.1527703e-005 0.0024361347
-1.1171833e-005 0.0016516513 4.7132125e-006 0.0019845201 0.99926782 -0.033364005 0.00047484558 0.01733337
5.028275e-005 0.0035129914 2.8115108e-005 0.0028205868 -1.255943e-005 0.00093336555 7.3807173e-006 0.0014822554
-4.961692e-006 0.0020630981 4.7195103e-006 0.0023781986 0.00035371294 0.017355226 0.99888581 -0.035275392
2.6729185e-005 0.0036641147 1.3062587e-005 0.0028718892 -1.4398917e-005 0.0011018241 -2.822145e-006 0.0015308378
