!Keysight Technologies,M9370A,MY54322275,A.12.60.03
!Date: Wednesday, May 01, 2019 16:12:18
!Correction: S11(Off) 
!S12(Off) 
!S13(Off) 
!S14(Off) 
!S15(Off) 
!S16(Off) 
!S17(Off) 
!S18(Off) 
!S21(Off) 
!S22(Off) 
!S23(Off) 
!S24(Off) 
!S25(Off) 
!S26(Off) 
!S27(Off) 
!S28(Off) 
!S31(Off) 
!S32(Off) 
!S33(Off) 
!S34(Off) 
!S35(Off) 
!S36(Off) 
!S37(Off) 
!S38(Off) 
!S41(Off) 
!S42(Off) 
!S43(Off) 
!S44(Off) 
!S45(Off) 
!S46(Off) 
!S47(Off) 
!S48(Off) 
!S51(Off) 
!S52(Off) 
!S53(Off) 
!S54(Off) 
!S55(Off) 
!S56(Off) 
!S57(Off) 
!S58(Off) 
!S61(Off) 
!S62(Off) 
!S63(Off) 
!S64(Off) 
!S65(Off) 
!S66(Off) 
!S67(Off) 
!S68(Off) 
!S71(Off) 
!S72(Off) 
!S73(Off) 
!S74(Off) 
!S75(Off) 
!S76(Off) 
!S77(Off) 
!S78(Off) 
!S81(Off) 
!S82(Off) 
!S83(Off) 
!S84(Off) 
!S85(Off) 
!S86(Off) 
!S87(Off) 
!S88(Off) 
!S8P File: Measurements: <S11,S12,S13,S14,S15,S16,S17,S18>,
!<S21,S22,S23,S24,S25,S26,S27,S28>,
!<S31,S32,S33,S34,S35,S36,S37,S38>,
!<S41,S42,S43,S44,S45,S46,S47,S48>,
!<S51,S52,S53,S54,S55,S56,S57,S58>,
!<S61,S62,S63,S64,S65,S66,S67,S68>,
!<S71,S72,S73,S74,S75,S76,S77,S78>,
!<S81,S82,S83,S84,S85,S86,S87,S88>:
# Hz S  RI   R 50
300000 0.22691774 -0.29810512 0.25818831 -0.039734751 7.071068e-011 7.071068e-011 7.071068e-011 7.071068e-011
7.071068e-011 7.071068e-011 7.071068e-011 7.071068e-011 7.071068e-011 7.071068e-011 7.071068e-011 7.071068e-011
0.25933167 -0.039562251 0.23529522 -0.29604188 7.071068e-011 7.071068e-011 7.071068e-011 7.071068e-011
7.071068e-011 7.071068e-011 7.071068e-011 7.071068e-011 7.071068e-011 7.071068e-011 7.071068e-011 7.071068e-011
7.071068e-011 7.071068e-011 7.071068e-011 7.071068e-011 0.22180569 -0.30932873 0.25903657 -0.040738255
7.071068e-011 7.071068e-011 7.071068e-011 7.071068e-011 7.071068e-011 7.071068e-011 7.071068e-011 7.071068e-011
7.071068e-011 7.071068e-011 7.071068e-011 7.071068e-011 0.25952235 -0.040302414 0.22952823 -0.30787948
7.071068e-011 7.071068e-011 7.071068e-011 7.071068e-011 7.071068e-011 7.071068e-011 7.071068e-011 7.071068e-011
7.071068e-011 7.071068e-011 7.071068e-011 7.071068e-011 7.071068e-011 7.071068e-011 7.071068e-011 7.071068e-011
0.2119702 -0.32386896 0.261471 -0.038324434 7.071068e-011 7.071068e-011 7.071068e-011 7.071068e-011
7.071068e-011 7.071068e-011 7.071068e-011 7.071068e-011 7.071068e-011 7.071068e-011 7.071068e-011 7.071068e-011
0.26135549 -0.037810437 0.22807288 -0.31225964 7.071068e-011 7.071068e-011 7.071068e-011 7.071068e-011
7.071068e-011 7.071068e-011 7.071068e-011 7.071068e-011 7.071068e-011 7.071068e-011 7.071068e-011 7.071068e-011
7.071068e-011 7.071068e-011 7.071068e-011 7.071068e-011 0.22560222 -0.31858444 0.26083648 -0.040590189
7.071068e-011 7.071068e-011 7.071068e-011 7.071068e-011 7.071068e-011 7.071068e-011 7.071068e-011 7.071068e-011
7.071068e-011 7.071068e-011 7.071068e-011 7.071068e-011 0.26069272 -0.040532652 0.22435349 -0.32052737
397000 0.23842269 -0.23283958 0.25359628 -0.039879978 7.071068e-011 7.071068e-011 7.071068e-011 7.071068e-011
7.071068e-011 7.071068e-011 7.071068e-011 7.071068e-011 7.071068e-011 7.071068e-011 7.071068e-011 7.071068e-011
0.25485268 -0.039735008 0.24707547 -0.23233464 7.071068e-011 7.071068e-011 7.071068e-011 7.071068e-011
7.071068e-011 7.071068e-011 7.071068e-011 7.071068e-011 7.071068e-011 7.071068e-011 7.071068e-011 7.071068e-011
7.071068e-011 7.071068e-011 7.071068e-011 7.071068e-011 0.23469883 -0.2418903 0.25405157 -0.041078001
7.071068e-011 7.071068e-011 7.071068e-011 7.071068e-011 7.071068e-011 7.071068e-011 7.071068e-011 7.071068e-011
7.071068e-011 7.071068e-011 7.071068e-011 7.071068e-011 0.2546832 -0.040700231 0.24214792 -0.24066129
7.071068e-011 7.071068e-011 7.071068e-011 7.071068e-011 7.071068e-011 7.071068e-011 7.071068e-011 7.071068e-011
7.071068e-011 7.071068e-011 7.071068e-011 7.071068e-011 7.071068e-011 7.071068e-011 7.071068e-011 7.071068e-011
0.22487882 -0.25169942 0.25656486 -0.039650176 7.071068e-011 7.071068e-011 7.071068e-011 7.071068e-011
7.071068e-011 7.071068e-011 7.071068e-011 7.071068e-011 7.071068e-011 7.071068e-011 7.071068e-011 7.071068e-011
0.25657105 -0.039098967 0.24146675 -0.24474119 7.071068e-011 7.071068e-011 7.071068e-011 7.071068e-011
7.071068e-011 7.071068e-011 7.071068e-011 7.071068e-011 7.071068e-011 7.071068e-011 7.071068e-011 7.071068e-011
7.071068e-011 7.071068e-011 7.071068e-011 7.071068e-011 0.23909642 -0.24887049 0.2556054 -0.041284785
7.071068e-011 7.071068e-011 7.071068e-011 7.071068e-011 7.071068e-011 7.071068e-011 7.071068e-011 7.071068e-011
7.071068e-011 7.071068e-011 7.071068e-011 7.071068e-011 0.25561568 -0.041203775 0.23768175 -0.25048706
494000 0.24677745 -0.18724251 0.24986255 -0.034142599 7.071068e-011 7.071068e-011 7.071068e-011 7.071068e-011
7.071068e-011 7.071068e-011 7.071068e-011 7.071068e-011 7.071068e-011 7.071068e-011 7.071068e-011 7.071068e-011
0.25111938 -0.033919722 0.2555635 -0.18747765 7.071068e-011 7.071068e-011 7.071068e-011 7.071068e-011
7.071068e-011 7.071068e-011 7.071068e-011 7.071068e-011 7.071068e-011 7.071068e-011 7.071068e-011 7.071068e-011
7.071068e-011 7.071068e-011 7.071068e-011 7.071068e-011 0.24402592 -0.19474638 0.24995357 -0.035126686
7.071068e-011 7.071068e-011 7.071068e-011 7.071068e-011 7.071068e-011 7.071068e-011 7.071068e-011 7.071068e-011
7.071068e-011 7.071068e-011 7.071068e-011 7.071068e-011 0.25063029 -0.034760863 0.25125203 -0.19339779
7.071068e-011 7.071068e-011 7.071068e-011 7.071068e-011 7.071068e-011 7.071068e-011 7.071068e-011 7.071068e-011
7.071068e-011 7.071068e-011 7.071068e-011 7.071068e-011 7.071068e-011 7.071068e-011 7.071068e-011 7.071068e-011
0.23441404 -0.20184603 0.25236952 -0.034212492 7.071068e-011 7.071068e-011 7.071068e-011 7.071068e-011
7.071068e-011 7.071068e-011 7.071068e-011 7.071068e-011 7.071068e-011 7.071068e-011 7.071068e-011 7.071068e-011
0.25242418 -0.033631012 0.2511676 -0.19734925 7.071068e-011 7.071068e-011 7.071068e-011 7.071068e-011
7.071068e-011 7.071068e-011 7.071068e-011 7.071068e-011 7.071068e-011 7.071068e-011 7.071068e-011 7.071068e-011
7.071068e-011 7.071068e-011 7.071068e-011 7.071068e-011 0.24886268 -0.20000853 0.2512747 -0.035371121
7.071068e-011 7.071068e-011 7.071068e-011 7.071068e-011 7.071068e-011 7.071068e-011 7.071068e-011 7.071068e-011
7.071068e-011 7.071068e-011 7.071068e-011 7.071068e-011 0.25131983 -0.035203312 0.24733514 -0.20147279
591000 0.2513583 -0.15718086 0.24771404 -0.030264543 7.071068e-011 7.071068e-011 7.071068e-011 7.071068e-011
7.071068e-011 7.071068e-011 7.071068e-011 7.071068e-011 7.071068e-011 7.071068e-011 7.071068e-011 7.071068e-011
0.24897808 -0.029969819 0.26025474 -0.15792955 7.071068e-011 7.071068e-011 7.071068e-011 7.071068e-011
7.071068e-011 7.071068e-011 7.071068e-011 7.071068e-011 7.071068e-011 7.071068e-011 7.071068e-011 7.071068e-011
7.071068e-011 7.071068e-011 7.071068e-011 7.071068e-011 0.2491861 -0.16371682 0.24760401 -0.031055331
7.071068e-011 7.071068e-011 7.071068e-011 7.071068e-011 7.071068e-011 7.071068e-011 7.071068e-011 7.071068e-011
7.071068e-011 7.071068e-011 7.071068e-011 7.071068e-011 0.2482945 -0.030688088 0.2562888 -0.16222981
7.071068e-011 7.071068e-011 7.071068e-011 7.071068e-011 7.071068e-011 7.071068e-011 7.071068e-011 7.071068e-011
7.071068e-011 7.071068e-011 7.071068e-011 7.071068e-011 7.071068e-011 7.071068e-011 7.071068e-011 7.071068e-011
0.23970295 -0.16913515 0.24995518 -0.030490974 7.071068e-011 7.071068e-011 7.071068e-011 7.071068e-011
7.071068e-011 7.071068e-011 7.071068e-011 7.071068e-011 7.071068e-011 7.071068e-011 7.071068e-011 7.071068e-011
0.25003105 -0.029877752 0.25653777 -0.16611651 7.071068e-011 7.071068e-011 7.071068e-011 7.071068e-011
7.071068e-011 7.071068e-011 7.071068e-011 7.071068e-011 7.071068e-011 7.071068e-011 7.071068e-011 7.071068e-011
7.071068e-011 7.071068e-011 7.071068e-011 7.071068e-011 0.25426388 -0.16777569 0.24878113 -0.031298503
7.071068e-011 7.071068e-011 7.071068e-011 7.071068e-011 7.071068e-011 7.071068e-011 7.071068e-011 7.071068e-011
7.071068e-011 7.071068e-011 7.071068e-011 7.071068e-011 0.24883828 -0.031055611 0.25267863 -0.16925603
688000 0.25447696 -0.13458835 0.24623202 -0.026412606 7.071068e-011 7.071068e-011 7.071068e-011 7.071068e-011
7.071068e-011 7.071068e-011 7.071068e-011 7.071068e-011 7.071068e-011 7.071068e-011 7.071068e-011 7.071068e-011
0.24747157 -0.02604191 0.26340103 -0.13568306 7.071068e-011 7.071068e-011 7.071068e-011 7.071068e-011
7.071068e-011 7.071068e-011 7.071068e-011 7.071068e-011 7.071068e-011 7.071068e-011 7.071068e-011 7.071068e-011
7.071068e-011 7.071068e-011 7.071068e-011 7.071068e-011 0.25271529 -0.14041397 0.24596651 -0.026978254
7.071068e-011 7.071068e-011 7.071068e-011 7.071068e-011 7.071068e-011 7.071068e-011 7.071068e-011 7.071068e-011
7.071068e-011 7.071068e-011 7.071068e-011 7.071068e-011 0.24665496 -0.026605435 0.25964671 -0.13873199
7.071068e-011 7.071068e-011 7.071068e-011 7.071068e-011 7.071068e-011 7.071068e-011 7.071068e-011 7.071068e-011
7.071068e-011 7.071068e-011 7.071068e-011 7.071068e-011 7.071068e-011 7.071068e-011 7.071068e-011 7.071068e-011
0.24330959 -0.14467126 0.24826343 -0.02665998 7.071068e-011 7.071068e-011 7.071068e-011 7.071068e-011
7.071068e-011 7.071068e-011 7.071068e-011 7.071068e-011 7.071068e-011 7.071068e-011 7.071068e-011 7.071068e-011
0.24833582 -0.02601542 0.26015386 -0.14261547 7.071068e-011 7.071068e-011 7.071068e-011 7.071068e-011
7.071068e-011 7.071068e-011 7.071068e-011 7.071068e-011 7.071068e-011 7.071068e-011 7.071068e-011 7.071068e-011
7.071068e-011 7.071068e-011 7.071068e-011 7.071068e-011 0.25795218 -0.14349428 0.24704638 -0.027180884
7.071068e-011 7.071068e-011 7.071068e-011 7.071068e-011 7.071068e-011 7.071068e-011 7.071068e-011 7.071068e-011
7.071068e-011 7.071068e-011 7.071068e-011 7.071068e-011 0.24708389 -0.026855191 0.25624198 -0.14507054
785000 0.25623944 -0.11882085 0.24535213 -0.024546392 7.071068e-011 7.071068e-011 7.071068e-011 7.071068e-011
7.071068e-011 7.071068e-011 7.071068e-011 7.071068e-011 7.071068e-011 7.071068e-011 7.071068e-011 7.071068e-011
0.24658437 -0.024106685 0.26513645 -0.12020871 7.071068e-011 7.071068e-011 7.071068e-011 7.071068e-011
7.071068e-011 7.071068e-011 7.071068e-011 7.071068e-011 7.071068e-011 7.071068e-011 7.071068e-011 7.071068e-011
7.071068e-011 7.071068e-011 7.071068e-011 7.071068e-011 0.2547529 -0.1241935 0.24500245 -0.024970705
7.071068e-011 7.071068e-011 7.071068e-011 7.071068e-011 7.071068e-011 7.071068e-011 7.071068e-011 7.071068e-011
7.071068e-011 7.071068e-011 7.071068e-011 7.071068e-011 0.24568695 -0.024574935 0.26149791 -0.12229946
7.071068e-011 7.071068e-011 7.071068e-011 7.071068e-011 7.071068e-011 7.071068e-011 7.071068e-011 7.071068e-011
7.071068e-011 7.071068e-011 7.071068e-011 7.071068e-011 7.071068e-011 7.071068e-011 7.071068e-011 7.071068e-011
0.24537578 -0.12757856 0.2472669 -0.024859842 7.071068e-011 7.071068e-011 7.071068e-011 7.071068e-011
7.071068e-011 7.071068e-011 7.071068e-011 7.071068e-011 7.071068e-011 7.071068e-011 7.071068e-011 7.071068e-011
0.24733575 -0.024167722 0.2621603 -0.12624401 7.071068e-011 7.071068e-011 7.071068e-011 7.071068e-011
7.071068e-011 7.071068e-011 7.071068e-011 7.071068e-011 7.071068e-011 7.071068e-011 7.071068e-011 7.071068e-011
7.071068e-011 7.071068e-011 7.071068e-011 7.071068e-011 0.26007664 -0.1265341 0.24602556 -0.025150029
7.071068e-011 7.071068e-011 7.071068e-011 7.071068e-011 7.071068e-011 7.071068e-011 7.071068e-011 7.071068e-011
7.071068e-011 7.071068e-011 7.071068e-011 7.071068e-011 0.2460615 -0.02475349 0.2582081 -0.1282122
882000 0.25742975 -0.10678376 0.24473611 -0.023334753 7.071068e-011 7.071068e-011 7.071068e-011 7.071068e-011
7.071068e-011 7.071068e-011 7.071068e-011 7.071068e-011 7.071068e-011 7.071068e-011 7.071068e-011 7.071068e-011
0.24596483 -0.022824228 0.26628795 -0.10843728 7.071068e-011 7.071068e-011 7.071068e-011 7.071068e-011
7.071068e-011 7.071068e-011 7.071068e-011 7.071068e-011 7.071068e-011 7.071068e-011 7.071068e-011 7.071068e-011
7.071068e-011 7.071068e-011 7.071068e-011 7.071068e-011 0.25613815 -0.11184713 0.24432388 -0.023639407
7.071068e-011 7.071068e-011 7.071068e-011 7.071068e-011 7.071068e-011 7.071068e-011 7.071068e-011 7.071068e-011
7.071068e-011 7.071068e-011 7.071068e-011 7.071068e-011 0.24500898 -0.023214391 0.26271924 -0.10974123
7.071068e-011 7.071068e-011 7.071068e-011 7.071068e-011 7.071068e-011 7.071068e-011 7.071068e-011 7.071068e-011
7.071068e-011 7.071068e-011 7.071068e-011 7.071068e-011 7.071068e-011 7.071068e-011 7.071068e-011 7.071068e-011
0.24676053 -0.11453643 0.24656145 -0.023717541 7.071068e-011 7.071068e-011 7.071068e-011 7.071068e-011
7.071068e-011 7.071068e-011 7.071068e-011 7.071068e-011 7.071068e-011 7.071068e-011 7.071068e-011 7.071068e-011
0.24663661 -0.022958668 0.26350191 -0.11379589 7.071068e-011 7.071068e-011 7.071068e-011 7.071068e-011
7.071068e-011 7.071068e-011 7.071068e-011 7.071068e-011 7.071068e-011 7.071068e-011 7.071068e-011 7.071068e-011
7.071068e-011 7.071068e-011 7.071068e-011 7.071068e-011 0.26152062 -0.11357039 0.24530765 -0.023803702
7.071068e-011 7.071068e-011 7.071068e-011 7.071068e-011 7.071068e-011 7.071068e-011 7.071068e-011 7.071068e-011
7.071068e-011 7.071068e-011 7.071068e-011 7.071068e-011 0.24535342 -0.023331864 0.25951174 -0.115387
979000 0.25826907 -0.097358435 0.24427631 -0.022584118 7.071068e-011 7.071068e-011 7.071068e-011 7.071068e-011
7.071068e-011 7.071068e-011 7.071068e-011 7.071068e-011 7.071068e-011 7.071068e-011 7.071068e-011 7.071068e-011
0.24551603 -0.022004675 0.26707542 -0.099264242 7.071068e-011 7.071068e-011 7.071068e-011 7.071068e-011
7.071068e-011 7.071068e-011 7.071068e-011 7.071068e-011 7.071068e-011 7.071068e-011 7.071068e-011 7.071068e-011
7.071068e-011 7.071068e-011 7.071068e-011 7.071068e-011 0.25712621 -0.1021996 0.24382758 -0.022789517
7.071068e-011 7.071068e-011 7.071068e-011 7.071068e-011 7.071068e-011 7.071068e-011 7.071068e-011 7.071068e-011
7.071068e-011 7.071068e-011 7.071068e-011 7.071068e-011 0.24451315 -0.022326956 0.26354569 -0.099895194
7.071068e-011 7.071068e-011 7.071068e-011 7.071068e-011 7.071068e-011 7.071068e-011 7.071068e-011 7.071068e-011
7.071068e-011 7.071068e-011 7.071068e-011 7.071068e-011 7.071068e-011 7.071068e-011 7.071068e-011 7.071068e-011
0.24773237 -0.1043217 0.24603622 -0.023030248 7.071068e-011 7.071068e-011 7.071068e-011 7.071068e-011
7.071068e-011 7.071068e-011 7.071068e-011 7.071068e-011 7.071068e-011 7.071068e-011 7.071068e-011 7.071068e-011
0.2461285 -0.02220504 0.26442707 -0.10408883 7.071068e-011 7.071068e-011 7.071068e-011 7.071068e-011
7.071068e-011 7.071068e-011 7.071068e-011 7.071068e-011 7.071068e-011 7.071068e-011 7.071068e-011 7.071068e-011
7.071068e-011 7.071068e-011 7.071068e-011 7.071068e-011 0.26254064 -0.10339288 0.24478206 -0.022942556
7.071068e-011 7.071068e-011 7.071068e-011 7.071068e-011 7.071068e-011 7.071068e-011 7.071068e-011 7.071068e-011
7.071068e-011 7.071068e-011 7.071068e-011 7.071068e-011 0.2448356 -0.02239356 0.26040205 -0.10536484
1076000 0.25873011 -0.090781331 0.24397324 -0.023034053 7.071068e-011 7.071068e-011 7.071068e-011 7.071068e-011
7.071068e-011 7.071068e-011 7.071068e-011 7.071068e-011 7.071068e-011 7.071068e-011 7.071068e-011 7.071068e-011
0.24521816 -0.022383161 0.26740566 -0.092933021 7.071068e-011 7.071068e-011 7.071068e-011 7.071068e-011
7.071068e-011 7.071068e-011 7.071068e-011 7.071068e-011 7.071068e-011 7.071068e-011 7.071068e-011 7.071068e-011
7.071068e-011 7.071068e-011 7.071068e-011 7.071068e-011 0.25761178 -0.095498726 0.24349481 -0.023196034
7.071068e-011 7.071068e-011 7.071068e-011 7.071068e-011 7.071068e-011 7.071068e-011 7.071068e-011 7.071068e-011
7.071068e-011 7.071068e-011 7.071068e-011 7.071068e-011 0.24418394 -0.022692937 0.26395613 -0.093034528
7.071068e-011 7.071068e-011 7.071068e-011 7.071068e-011 7.071068e-011 7.071068e-011 7.071068e-011 7.071068e-011
7.071068e-011 7.071068e-011 7.071068e-011 7.071068e-011 7.071068e-011 7.071068e-011 7.071068e-011 7.071068e-011
0.24823193 -0.097203523 0.24567509 -0.023664847 7.071068e-011 7.071068e-011 7.071068e-011 7.071068e-011
7.071068e-011 7.071068e-011 7.071068e-011 7.071068e-011 7.071068e-011 7.071068e-011 7.071068e-011 7.071068e-011
0.24580833 -0.022701856 0.26484582 -0.097391307 7.071068e-011 7.071068e-011 7.071068e-011 7.071068e-011
7.071068e-011 7.071068e-011 7.071068e-011 7.071068e-011 7.071068e-011 7.071068e-011 7.071068e-011 7.071068e-011
7.071068e-011 7.071068e-011 7.071068e-011 7.071068e-011 0.26311567 -0.096277535 0.24444975 -0.023351634
7.071068e-011 7.071068e-011 7.071068e-011 7.071068e-011 7.071068e-011 7.071068e-011 7.071068e-011 7.071068e-011
7.071068e-011 7.071068e-011 7.071068e-011 7.071068e-011 0.24452277 -0.022729512 0.26081774 -0.098405503
1173000 0.25902355 -0.085419558 0.24371114 -0.023576623 7.071068e-011 7.071068e-011 7.071068e-011 7.071068e-011
7.071068e-011 7.071068e-011 7.071068e-011 7.071068e-011 7.071068e-011 7.071068e-011 7.071068e-011 7.071068e-011
0.24497476 -0.022861701 0.26769155 -0.087853804 7.071068e-011 7.071068e-011 7.071068e-011 7.071068e-011
7.071068e-011 7.071068e-011 7.071068e-011 7.071068e-011 7.071068e-011 7.071068e-011 7.071068e-011 7.071068e-011
7.071068e-011 7.071068e-011 7.071068e-011 7.071068e-011 0.25797814 -0.090068698 0.24321797 -0.02369496
7.071068e-011 7.071068e-011 7.071068e-011 7.071068e-011 7.071068e-011 7.071068e-011 7.071068e-011 7.071068e-011
7.071068e-011 7.071068e-011 7.071068e-011 7.071068e-011 0.24390946 -0.023150062 0.26426432 -0.087448977
7.071068e-011 7.071068e-011 7.071068e-011 7.071068e-011 7.071068e-011 7.071068e-011 7.071068e-011 7.071068e-011
7.071068e-011 7.071068e-011 7.071068e-011 7.071068e-011 7.071068e-011 7.071068e-011 7.071068e-011 7.071068e-011
0.24856006 -0.091414914 0.24534622 -0.024386633 7.071068e-011 7.071068e-011 7.071068e-011 7.071068e-011
7.071068e-011 7.071068e-011 7.071068e-011 7.071068e-011 7.071068e-011 7.071068e-011 7.071068e-011 7.071068e-011
0.24554428 -0.023286164 0.26518261 -0.092002176 7.071068e-011 7.071068e-011 7.071068e-011 7.071068e-011
7.071068e-011 7.071068e-011 7.071068e-011 7.071068e-011 7.071068e-011 7.071068e-011 7.071068e-011 7.071068e-011
7.071068e-011 7.071068e-011 7.071068e-011 7.071068e-011 0.26350576 -0.09046644 0.24415836 -0.023867954
7.071068e-011 7.071068e-011 7.071068e-011 7.071068e-011 7.071068e-011 7.071068e-011 7.071068e-011 7.071068e-011
7.071068e-011 7.071068e-011 7.071068e-011 7.071068e-011 0.24426152 -0.023175921 0.26115793 -0.09280578
1270000 0.25931308 -0.080615655 0.24345842 -0.023841467 7.071068e-011 7.071068e-011 7.071068e-011 7.071068e-011
7.071068e-011 7.071068e-011 7.071068e-011 7.071068e-011 7.071068e-011 7.071068e-011 7.071068e-011 7.071068e-011
0.24474448 -0.023060672 0.26796553 -0.083313487 7.071068e-011 7.071068e-011 7.071068e-011 7.071068e-011
7.071068e-011 7.071068e-011 7.071068e-011 7.071068e-011 7.071068e-011 7.071068e-011 7.071068e-011 7.071068e-011
7.071068e-011 7.071068e-011 7.071068e-011 7.071068e-011 0.25833151 -0.085210286 0.24295564 -0.023903284
7.071068e-011 7.071068e-011 7.071068e-011 7.071068e-011 7.071068e-011 7.071068e-011 7.071068e-011 7.071068e-011
7.071068e-011 7.071068e-011 7.071068e-011 7.071068e-011 0.2436481 -0.023316819 0.26455992 -0.082433619
7.071068e-011 7.071068e-011 7.071068e-011 7.071068e-011 7.071068e-011 7.071068e-011 7.071068e-011 7.071068e-011
7.071068e-011 7.071068e-011 7.071068e-011 7.071068e-011 7.071068e-011 7.071068e-011 7.071068e-011 7.071068e-011
0.24888428 -0.086207114 0.245031 -0.024761844 7.071068e-011 7.071068e-011 7.071068e-011 7.071068e-011
7.071068e-011 7.071068e-011 7.071068e-011 7.071068e-011 7.071068e-011 7.071068e-011 7.071068e-011 7.071068e-011
0.24528371 -0.023554966 0.26549405 -0.087184489 7.071068e-011 7.071068e-011 7.071068e-011 7.071068e-011
7.071068e-011 7.071068e-011 7.071068e-011 7.071068e-011 7.071068e-011 7.071068e-011 7.071068e-011 7.071068e-011
7.071068e-011 7.071068e-011 7.071068e-011 7.071068e-011 0.26387751 -0.085226089 0.24387661 -0.024071159
