!Keysight Technologies,M9370A,MY54322275,A.12.60.03
!Date: Wednesday, May 01, 2019 15:41:25
!Correction: S11(Off) 
!S12(Off) 
!S13(Off) 
!S14(Off) 
!S15(Off) 
!S16(Off) 
!S17(Off) 
!S18(Off) 
!S21(Off) 
!S22(Off) 
!S23(Off) 
!S24(Off) 
!S25(Off) 
!S26(Off) 
!S27(Off) 
!S28(Off) 
!S31(Off) 
!S32(Off) 
!S33(Off) 
!S34(Off) 
!S35(Off) 
!S36(Off) 
!S37(Off) 
!S38(Off) 
!S41(Off) 
!S42(Off) 
!S43(Off) 
!S44(Off) 
!S45(Off) 
!S46(Off) 
!S47(Off) 
!S48(Off) 
!S51(Off) 
!S52(Off) 
!S53(Off) 
!S54(Off) 
!S55(Off) 
!S56(Off) 
!S57(Off) 
!S58(Off) 
!S61(Off) 
!S62(Off) 
!S63(Off) 
!S64(Off) 
!S65(Off) 
!S66(Off) 
!S67(Off) 
!S68(Off) 
!S71(Off) 
!S72(Off) 
!S73(Off) 
!S74(Off) 
!S75(Off) 
!S76(Off) 
!S77(Off) 
!S78(Off) 
!S81(Off) 
!S82(Off) 
!S83(Off) 
!S84(Off) 
!S85(Off) 
!S86(Off) 
!S87(Off) 
!S88(Off) 
!S8P File: Measurements: <S11,S12,S13,S14,S15,S16,S17,S18>,
!<S21,S22,S23,S24,S25,S26,S27,S28>,
!<S31,S32,S33,S34,S35,S36,S37,S38>,
!<S41,S42,S43,S44,S45,S46,S47,S48>,
!<S51,S52,S53,S54,S55,S56,S57,S58>,
!<S61,S62,S63,S64,S65,S66,S67,S68>,
!<S71,S72,S73,S74,S75,S76,S77,S78>,
!<S81,S82,S83,S84,S85,S86,S87,S88>:
# Hz S  RI   R 50
300000 0.22594815 -0.30354708 0.257873 -0.03777425 7.071068e-011 7.071068e-011 7.071068e-011 7.071068e-011
7.071068e-011 7.071068e-011 7.071068e-011 7.071068e-011 7.071068e-011 7.071068e-011 7.071068e-011 7.071068e-011
0.25908571 -0.037539016 0.2344086 -0.30130208 7.071068e-011 7.071068e-011 7.071068e-011 7.071068e-011
7.071068e-011 7.071068e-011 7.071068e-011 7.071068e-011 7.071068e-011 7.071068e-011 7.071068e-011 7.071068e-011
7.071068e-011 7.071068e-011 7.071068e-011 7.071068e-011 0.22060776 -0.31564602 0.25872973 -0.038259633
7.071068e-011 7.071068e-011 7.071068e-011 7.071068e-011 7.071068e-011 7.071068e-011 7.071068e-011 7.071068e-011
7.071068e-011 7.071068e-011 7.071068e-011 7.071068e-011 0.2592029 -0.037855051 0.22836488 -0.31442332
7.071068e-011 7.071068e-011 7.071068e-011 7.071068e-011 7.071068e-011 7.071068e-011 7.071068e-011 7.071068e-011
7.071068e-011 7.071068e-011 7.071068e-011 7.071068e-011 7.071068e-011 7.071068e-011 7.071068e-011 7.071068e-011
0.21112603 -0.32933581 0.26112002 -0.036399473 7.071068e-011 7.071068e-011 7.071068e-011 7.071068e-011
7.071068e-011 7.071068e-011 7.071068e-011 7.071068e-011 7.071068e-011 7.071068e-011 7.071068e-011 7.071068e-011
0.26102895 -0.035763633 0.22712594 -0.31707013 7.071068e-011 7.071068e-011 7.071068e-011 7.071068e-011
7.071068e-011 7.071068e-011 7.071068e-011 7.071068e-011 7.071068e-011 7.071068e-011 7.071068e-011 7.071068e-011
7.071068e-011 7.071068e-011 7.071068e-011 7.071068e-011 0.22468786 -0.32493797 0.2602753 -0.038547184
7.071068e-011 7.071068e-011 7.071068e-011 7.071068e-011 7.071068e-011 7.071068e-011 7.071068e-011 7.071068e-011
7.071068e-011 7.071068e-011 7.071068e-011 7.071068e-011 0.26019445 -0.038388215 0.22368224 -0.32566106
397000 0.23765893 -0.23680565 0.25328237 -0.038764477 7.071068e-011 7.071068e-011 7.071068e-011 7.071068e-011
7.071068e-011 7.071068e-011 7.071068e-011 7.071068e-011 7.071068e-011 7.071068e-011 7.071068e-011 7.071068e-011
0.25462511 -0.038560022 0.24642961 -0.23612647 7.071068e-011 7.071068e-011 7.071068e-011 7.071068e-011
7.071068e-011 7.071068e-011 7.071068e-011 7.071068e-011 7.071068e-011 7.071068e-011 7.071068e-011 7.071068e-011
7.071068e-011 7.071068e-011 7.071068e-011 7.071068e-011 0.23373376 -0.24651542 0.25375465 -0.039639905
7.071068e-011 7.071068e-011 7.071068e-011 7.071068e-011 7.071068e-011 7.071068e-011 7.071068e-011 7.071068e-011
7.071068e-011 7.071068e-011 7.071068e-011 7.071068e-011 0.25437933 -0.039275266 0.24117613 -0.24545993
7.071068e-011 7.071068e-011 7.071068e-011 7.071068e-011 7.071068e-011 7.071068e-011 7.071068e-011 7.071068e-011
7.071068e-011 7.071068e-011 7.071068e-011 7.071068e-011 7.071068e-011 7.071068e-011 7.071068e-011 7.071068e-011
0.22422165 -0.25565138 0.25621682 -0.038502306 7.071068e-011 7.071068e-011 7.071068e-011 7.071068e-011
7.071068e-011 7.071068e-011 7.071068e-011 7.071068e-011 7.071068e-011 7.071068e-011 7.071068e-011 7.071068e-011
0.25627589 -0.037845455 0.2407317 -0.24828701 7.071068e-011 7.071068e-011 7.071068e-011 7.071068e-011
7.071068e-011 7.071068e-011 7.071068e-011 7.071068e-011 7.071068e-011 7.071068e-011 7.071068e-011 7.071068e-011
7.071068e-011 7.071068e-011 7.071068e-011 7.071068e-011 0.23839279 -0.25355229 0.25504714 -0.04014612
7.071068e-011 7.071068e-011 7.071068e-011 7.071068e-011 7.071068e-011 7.071068e-011 7.071068e-011 7.071068e-011
7.071068e-011 7.071068e-011 7.071068e-011 7.071068e-011 0.25512594 -0.040022172 0.23722951 -0.25421834
494000 0.24625447 -0.19036306 0.2494702 -0.033575241 7.071068e-011 7.071068e-011 7.071068e-011 7.071068e-011
7.071068e-011 7.071068e-011 7.071068e-011 7.071068e-011 7.071068e-011 7.071068e-011 7.071068e-011 7.071068e-011
0.25083062 -0.033281945 0.25517908 -0.19046374 7.071068e-011 7.071068e-011 7.071068e-011 7.071068e-011
7.071068e-011 7.071068e-011 7.071068e-011 7.071068e-011 7.071068e-011 7.071068e-011 7.071068e-011 7.071068e-011
7.071068e-011 7.071068e-011 7.071068e-011 7.071068e-011 0.24333903 -0.19846269 0.24958229 -0.034371585
7.071068e-011 7.071068e-011 7.071068e-011 7.071068e-011 7.071068e-011 7.071068e-011 7.071068e-011 7.071068e-011
7.071068e-011 7.071068e-011 7.071068e-011 7.071068e-011 0.25027007 -0.034001272 0.25056532 -0.19725011
7.071068e-011 7.071068e-011 7.071068e-011 7.071068e-011 7.071068e-011 7.071068e-011 7.071068e-011 7.071068e-011
7.071068e-011 7.071068e-011 7.071068e-011 7.071068e-011 7.071068e-011 7.071068e-011 7.071068e-011 7.071068e-011
0.23398823 -0.20497073 0.25197098 -0.033533975 7.071068e-011 7.071068e-011 7.071068e-011 7.071068e-011
7.071068e-011 7.071068e-011 7.071068e-011 7.071068e-011 7.071068e-011 7.071068e-011 7.071068e-011 7.071068e-011
0.25207123 -0.032895766 0.25069135 -0.20018293 7.071068e-011 7.071068e-011 7.071068e-011 7.071068e-011
7.071068e-011 7.071068e-011 7.071068e-011 7.071068e-011 7.071068e-011 7.071068e-011 7.071068e-011 7.071068e-011
7.071068e-011 7.071068e-011 7.071068e-011 7.071068e-011 0.24842575 -0.20377213 0.25063479 -0.034830097
7.071068e-011 7.071068e-011 7.071068e-011 7.071068e-011 7.071068e-011 7.071068e-011 7.071068e-011 7.071068e-011
7.071068e-011 7.071068e-011 7.071068e-011 7.071068e-011 0.25075963 -0.034649331 0.24712671 -0.20442049
591000 0.25101796 -0.15981172 0.24728161 -0.030085862 7.071068e-011 7.071068e-011 7.071068e-011 7.071068e-011
7.071068e-011 7.071068e-011 7.071068e-011 7.071068e-011 7.071068e-011 7.071068e-011 7.071068e-011 7.071068e-011
0.24863167 -0.029717468 0.26006871 -0.16040109 7.071068e-011 7.071068e-011 7.071068e-011 7.071068e-011
7.071068e-011 7.071068e-011 7.071068e-011 7.071068e-011 7.071068e-011 7.071068e-011 7.071068e-011 7.071068e-011
7.071068e-011 7.071068e-011 7.071068e-011 7.071068e-011 0.24870247 -0.16689114 0.24716417 -0.030763945
7.071068e-011 7.071068e-011 7.071068e-011 7.071068e-011 7.071068e-011 7.071068e-011 7.071068e-011 7.071068e-011
7.071068e-011 7.071068e-011 7.071068e-011 7.071068e-011 0.24786885 -0.030404111 0.25581333 -0.16551296
7.071068e-011 7.071068e-011 7.071068e-011 7.071068e-011 7.071068e-011 7.071068e-011 7.071068e-011 7.071068e-011
7.071068e-011 7.071068e-011 7.071068e-011 7.071068e-011 7.071068e-011 7.071068e-011 7.071068e-011 7.071068e-011
0.23946318 -0.17176831 0.24950989 -0.030152898 7.071068e-011 7.071068e-011 7.071068e-011 7.071068e-011
7.071068e-011 7.071068e-011 7.071068e-011 7.071068e-011 7.071068e-011 7.071068e-011 7.071068e-011 7.071068e-011
0.24965224 -0.029496025 0.25621945 -0.168543 7.071068e-011 7.071068e-011 7.071068e-011 7.071068e-011
7.071068e-011 7.071068e-011 7.071068e-011 7.071068e-011 7.071068e-011 7.071068e-011 7.071068e-011 7.071068e-011
7.071068e-011 7.071068e-011 7.071068e-011 7.071068e-011 0.25404426 -0.17099865 0.24809921 -0.031198693
7.071068e-011 7.071068e-011 7.071068e-011 7.071068e-011 7.071068e-011 7.071068e-011 7.071068e-011 7.071068e-011
7.071068e-011 7.071068e-011 7.071068e-011 7.071068e-011 0.24822354 -0.030947877 0.25264862 -0.17173707
688000 0.25427663 -0.13692054 0.24575569 -0.02650897 7.071068e-011 7.071068e-011 7.071068e-011 7.071068e-011
7.071068e-011 7.071068e-011 7.071068e-011 7.071068e-011 7.071068e-011 7.071068e-011 7.071068e-011 7.071068e-011
0.24707572 -0.026102124 0.26335439 -0.13782342 7.071068e-011 7.071068e-011 7.071068e-011 7.071068e-011
7.071068e-011 7.071068e-011 7.071068e-011 7.071068e-011 7.071068e-011 7.071068e-011 7.071068e-011 7.071068e-011
7.071068e-011 7.071068e-011 7.071068e-011 7.071068e-011 0.252406 -0.14326544 0.24546282 -0.027058471
7.071068e-011 7.071068e-011 7.071068e-011 7.071068e-011 7.071068e-011 7.071068e-011 7.071068e-011 7.071068e-011
7.071068e-011 7.071068e-011 7.071068e-011 7.071068e-011 0.24618305 -0.026691306 0.2593343 -0.14168954
7.071068e-011 7.071068e-011 7.071068e-011 7.071068e-011 7.071068e-011 7.071068e-011 7.071068e-011 7.071068e-011
7.071068e-011 7.071068e-011 7.071068e-011 7.071068e-011 7.071068e-011 7.071068e-011 7.071068e-011 7.071068e-011
0.24317996 -0.14701448 0.24778683 -0.026570758 7.071068e-011 7.071068e-011 7.071068e-011 7.071068e-011
7.071068e-011 7.071068e-011 7.071068e-011 7.071068e-011 7.071068e-011 7.071068e-011 7.071068e-011 7.071068e-011
0.24792247 -0.025904736 0.25995898 -0.1447982 7.071068e-011 7.071068e-011 7.071068e-011 7.071068e-011
7.071068e-011 7.071068e-011 7.071068e-011 7.071068e-011 7.071068e-011 7.071068e-011 7.071068e-011 7.071068e-011
7.071068e-011 7.071068e-011 7.071068e-011 7.071068e-011 0.2578871 -0.14641428 0.24630526 -0.027416747
7.071068e-011 7.071068e-011 7.071068e-011 7.071068e-011 7.071068e-011 7.071068e-011 7.071068e-011 7.071068e-011
7.071068e-011 7.071068e-011 7.071068e-011 7.071068e-011 0.24642599 -0.027101198 0.25638318 -0.14727978
785000 0.25612864 -0.12096803 0.24483615 -0.024887299 7.071068e-011 7.071068e-011 7.071068e-011 7.071068e-011
7.071068e-011 7.071068e-011 7.071068e-011 7.071068e-011 7.071068e-011 7.071068e-011 7.071068e-011 7.071068e-011
0.24616465 -0.024418987 0.26518622 -0.12216732 7.071068e-011 7.071068e-011 7.071068e-011 7.071068e-011
7.071068e-011 7.071068e-011 7.071068e-011 7.071068e-011 7.071068e-011 7.071068e-011 7.071068e-011 7.071068e-011
7.071068e-011 7.071068e-011 7.071068e-011 7.071068e-011 0.25454542 -0.12685844 0.24446675 -0.025350699
7.071068e-011 7.071068e-011 7.071068e-011 7.071068e-011 7.071068e-011 7.071068e-011 7.071068e-011 7.071068e-011
7.071068e-011 7.071068e-011 7.071068e-011 7.071068e-011 0.24516071 -0.024966277 0.26129538 -0.12505955
7.071068e-011 7.071068e-011 7.071068e-011 7.071068e-011 7.071068e-011 7.071068e-011 7.071068e-011 7.071068e-011
7.071068e-011 7.071068e-011 7.071068e-011 7.071068e-011 7.071068e-011 7.071068e-011 7.071068e-011 7.071068e-011
0.2453337 -0.12975408 0.24675672 -0.02498698 7.071068e-011 7.071068e-011 7.071068e-011 7.071068e-011
7.071068e-011 7.071068e-011 7.071068e-011 7.071068e-011 7.071068e-011 7.071068e-011 7.071068e-011 7.071068e-011
0.24690041 -0.024276463 0.26204622 -0.12829149 7.071068e-011 7.071068e-011 7.071068e-011 7.071068e-011
7.071068e-011 7.071068e-011 7.071068e-011 7.071068e-011 7.071068e-011 7.071068e-011 7.071068e-011 7.071068e-011
7.071068e-011 7.071068e-011 7.071068e-011 7.071068e-011 0.26012927 -0.12926199 0.24523966 -0.025678555
7.071068e-011 7.071068e-011 7.071068e-011 7.071068e-011 7.071068e-011 7.071068e-011 7.071068e-011 7.071068e-011
7.071068e-011 7.071068e-011 7.071068e-011 7.071068e-011 0.24535 -0.025277322 0.25844845 -0.13026889
882000 0.25738612 -0.10882568 0.24419226 -0.02388758 7.071068e-011 7.071068e-011 7.071068e-011 7.071068e-011
7.071068e-011 7.071068e-011 7.071068e-011 7.071068e-011 7.071068e-011 7.071068e-011 7.071068e-011 7.071068e-011
0.24551213 -0.023340652 0.26641637 -0.11027218 7.071068e-011 7.071068e-011 7.071068e-011 7.071068e-011
7.071068e-011 7.071068e-011 7.071068e-011 7.071068e-011 7.071068e-011 7.071068e-011 7.071068e-011 7.071068e-011
7.071068e-011 7.071068e-011 7.071068e-011 7.071068e-011 0.2560184 -0.11441936 0.24374324 -0.024281027
7.071068e-011 7.071068e-011 7.071068e-011 7.071068e-011 7.071068e-011 7.071068e-011 7.071068e-011 7.071068e-011
7.071068e-011 7.071068e-011 7.071068e-011 7.071068e-011 0.24446878 -0.023876142 0.26259607 -0.11241472
7.071068e-011 7.071068e-011 7.071068e-011 7.071068e-011 7.071068e-011 7.071068e-011 7.071068e-011 7.071068e-011
7.071068e-011 7.071068e-011 7.071068e-011 7.071068e-011 7.071068e-011 7.071068e-011 7.071068e-011 7.071068e-011
0.24679172 -0.1166117 0.24603094 -0.024028758 7.071068e-011 7.071068e-011 7.071068e-011 7.071068e-011
7.071068e-011 7.071068e-011 7.071068e-011 7.071068e-011 7.071068e-011 7.071068e-011 7.071068e-011 7.071068e-011
0.24617715 -0.023262205 0.2634688 -0.11576806 7.071068e-011 7.071068e-011 7.071068e-011 7.071068e-011
7.071068e-011 7.071068e-011 7.071068e-011 7.071068e-011 7.071068e-011 7.071068e-011 7.071068e-011 7.071068e-011
7.071068e-011 7.071068e-011 7.071068e-011 7.071068e-011 0.26163945 -0.11620594 0.24448122 -0.024580933
7.071068e-011 7.071068e-011 7.071068e-011 7.071068e-011 7.071068e-011 7.071068e-011 7.071068e-011 7.071068e-011
7.071068e-011 7.071068e-011 7.071068e-011 7.071068e-011 0.24458566 -0.024110734 0.25982386 -0.1173581
979000 0.25826257 -0.099344507 0.24370024 -0.023315359 7.071068e-011 7.071068e-011 7.071068e-011 7.071068e-011
7.071068e-011 7.071068e-011 7.071068e-011 7.071068e-011 7.071068e-011 7.071068e-011 7.071068e-011 7.071068e-011
0.24502517 -0.022722378 0.26726204 -0.10103139 7.071068e-011 7.071068e-011 7.071068e-011 7.071068e-011
7.071068e-011 7.071068e-011 7.071068e-011 7.071068e-011 7.071068e-011 7.071068e-011 7.071068e-011 7.071068e-011
7.071068e-011 7.071068e-011 7.071068e-011 7.071068e-011 0.25707179 -0.10473216 0.24321282 -0.023664879
7.071068e-011 7.071068e-011 7.071068e-011 7.071068e-011 7.071068e-011 7.071068e-011 7.071068e-011 7.071068e-011
7.071068e-011 7.071068e-011 7.071068e-011 7.071068e-011 0.24392748 -0.023215728 0.26347524 -0.10252017
7.071068e-011 7.071068e-011 7.071068e-011 7.071068e-011 7.071068e-011 7.071068e-011 7.071068e-011 7.071068e-011
7.071068e-011 7.071068e-011 7.071068e-011 7.071068e-011 7.071068e-011 7.071068e-011 7.071068e-011 7.071068e-011
0.24779642 -0.10633587 0.24549702 -0.023497224 7.071068e-011 7.071068e-011 7.071068e-011 7.071068e-011
7.071068e-011 7.071068e-011 7.071068e-011 7.071068e-011 7.071068e-011 7.071068e-011 7.071068e-011 7.071068e-011
0.24564175 -0.022673484 0.26441461 -0.10603293 7.071068e-011 7.071068e-011 7.071068e-011 7.071068e-011
7.071068e-011 7.071068e-011 7.071068e-011 7.071068e-011 7.071068e-011 7.071068e-011 7.071068e-011 7.071068e-011
7.071068e-011 7.071068e-011 7.071068e-011 7.071068e-011 0.26272002 -0.10598656 0.24392198 -0.023929777
7.071068e-011 7.071068e-011 7.071068e-011 7.071068e-011 7.071068e-011 7.071068e-011 7.071068e-011 7.071068e-011
7.071068e-011 7.071068e-011 7.071068e-011 7.071068e-011 0.24403405 -0.023404749 0.26078185 -0.10728966
1076000 0.25877228 -0.092744231 0.24335018 -0.023931177 7.071068e-011 7.071068e-011 7.071068e-011 7.071068e-011
7.071068e-011 7.071068e-011 7.071068e-011 7.071068e-011 7.071068e-011 7.071068e-011 7.071068e-011 7.071068e-011
0.24470557 -0.023276044 0.267652 -0.094659835 7.071068e-011 7.071068e-011 7.071068e-011 7.071068e-011
7.071068e-011 7.071068e-011 7.071068e-011 7.071068e-011 7.071068e-011 7.071068e-011 7.071068e-011 7.071068e-011
7.071068e-011 7.071068e-011 7.071068e-011 7.071068e-011 0.25757426 -0.098036662 0.24283578 -0.024276279
7.071068e-011 7.071068e-011 7.071068e-011 7.071068e-011 7.071068e-011 7.071068e-011 7.071068e-011 7.071068e-011
7.071068e-011 7.071068e-011 7.071068e-011 7.071068e-011 0.24355739 -0.023811242 0.26391205 -0.095657647
7.071068e-011 7.071068e-011 7.071068e-011 7.071068e-011 7.071068e-011 7.071068e-011 7.071068e-011 7.071068e-011
7.071068e-011 7.071068e-011 7.071068e-011 7.071068e-011 7.071068e-011 7.071068e-011 7.071068e-011 7.071068e-011
0.24833629 -0.09921065 0.2451103 -0.024287216 7.071068e-011 7.071068e-011 7.071068e-011 7.071068e-011
7.071068e-011 7.071068e-011 7.071068e-011 7.071068e-011 7.071068e-011 7.071068e-011 7.071068e-011 7.071068e-011
0.24530278 -0.023318557 0.26486373 -0.099310294 7.071068e-011 7.071068e-011 7.071068e-011 7.071068e-011
7.071068e-011 7.071068e-011 7.071068e-011 7.071068e-011 7.071068e-011 7.071068e-011 7.071068e-011 7.071068e-011
7.071068e-011 7.071068e-011 7.071068e-011 7.071068e-011 0.26332507 -0.098880291 0.24354844 -0.024547098
7.071068e-011 7.071068e-011 7.071068e-011 7.071068e-011 7.071068e-011 7.071068e-011 7.071068e-011 7.071068e-011
7.071068e-011 7.071068e-011 7.071068e-011 7.071068e-011 0.24367882 -0.023930863 0.26124328 -0.10035706
1173000 0.25909245 -0.087377153 0.2430639 -0.024626212 7.071068e-011 7.071068e-011 7.071068e-011 7.071068e-011
7.071068e-011 7.071068e-011 7.071068e-011 7.071068e-011 7.071068e-011 7.071068e-011 7.071068e-011 7.071068e-011
0.24442427 -0.023910368 0.26796606 -0.089566357 7.071068e-011 7.071068e-011 7.071068e-011 7.071068e-011
7.071068e-011 7.071068e-011 7.071068e-011 7.071068e-011 7.071068e-011 7.071068e-011 7.071068e-011 7.071068e-011
7.071068e-011 7.071068e-011 7.071068e-011 7.071068e-011 0.25798315 -0.092630669 0.24251416 -0.024977367
7.071068e-011 7.071068e-011 7.071068e-011 7.071068e-011 7.071068e-011 7.071068e-011 7.071068e-011 7.071068e-011
7.071068e-011 7.071068e-011 7.071068e-011 7.071068e-011 0.2432545 -0.024457246 0.26424903 -0.090105586
7.071068e-011 7.071068e-011 7.071068e-011 7.071068e-011 7.071068e-011 7.071068e-011 7.071068e-011 7.071068e-011
7.071068e-011 7.071068e-011 7.071068e-011 7.071068e-011 7.071068e-011 7.071068e-011 7.071068e-011 7.071068e-011
0.24868736 -0.093428493 0.24477051 -0.025134008 7.071068e-011 7.071068e-011 7.071068e-011 7.071068e-011
7.071068e-011 7.071068e-011 7.071068e-011 7.071068e-011 7.071068e-011 7.071068e-011 7.071068e-011 7.071068e-011
0.24501856 -0.024034774 0.26522237 -0.093956538 7.071068e-011 7.071068e-011 7.071068e-011 7.071068e-011
7.071068e-011 7.071068e-011 7.071068e-011 7.071068e-011 7.071068e-011 7.071068e-011 7.071068e-011 7.071068e-011
7.071068e-011 7.071068e-011 7.071068e-011 7.071068e-011 0.26374748 -0.093103886 0.24321483 -0.025252482
7.071068e-011 7.071068e-011 7.071068e-011 7.071068e-011 7.071068e-011 7.071068e-011 7.071068e-011 7.071068e-011
7.071068e-011 7.071068e-011 7.071068e-011 7.071068e-011 0.24336693 -0.024573483 0.26161969 -0.094788492
1270000 0.25939816 -0.082590923 0.24278152 -0.025051424 7.071068e-011 7.071068e-011 7.071068e-011 7.071068e-011
7.071068e-011 7.071068e-011 7.071068e-011 7.071068e-011 7.071068e-011 7.071068e-011 7.071068e-011 7.071068e-011
0.24416731 -0.02426775 0.26826677 -0.085045636 7.071068e-011 7.071068e-011 7.071068e-011 7.071068e-011
7.071068e-011 7.071068e-011 7.071068e-011 7.071068e-011 7.071068e-011 7.071068e-011 7.071068e-011 7.071068e-011
7.071068e-011 7.071068e-011 7.071068e-011 7.071068e-011 0.25835019 -0.087836213 0.24222083 -0.025357466
7.071068e-011 7.071068e-011 7.071068e-011 7.071068e-011 7.071068e-011 7.071068e-011 7.071068e-011 7.071068e-011
7.071068e-011 7.071068e-011 7.071068e-011 7.071068e-011 0.24294898 -0.024813419 0.26457456 -0.085139744
7.071068e-011 7.071068e-011 7.071068e-011 7.071068e-011 7.071068e-011 7.071068e-011 7.071068e-011 7.071068e-011
7.071068e-011 7.071068e-011 7.071068e-011 7.071068e-011 7.071068e-011 7.071068e-011 7.071068e-011 7.071068e-011
0.24903579 -0.088255055 0.24443333 -0.025634162 7.071068e-011 7.071068e-011 7.071068e-011 7.071068e-011
7.071068e-011 7.071068e-011 7.071068e-011 7.071068e-011 7.071068e-011 7.071068e-011 7.071068e-011 7.071068e-011
0.24476112 -0.024439167 0.26554883 -0.089165151 7.071068e-011 7.071068e-011 7.071068e-011 7.071068e-011
7.071068e-011 7.071068e-011 7.071068e-011 7.071068e-011 7.071068e-011 7.071068e-011 7.071068e-011 7.071068e-011
7.071068e-011 7.071068e-011 7.071068e-011 7.071068e-011 0.26413605 -0.087937273 0.24289578 -0.025625087
