!Keysight Technologies,M9370A,MY54322275,A.12.60.03
!Date: Wednesday, May 01, 2019 15:33:06
!Correction: S11(Off) 
!S12(Off) 
!S13(Off) 
!S14(Off) 
!S15(Off) 
!S16(Off) 
!S17(Off) 
!S18(Off) 
!S21(Off) 
!S22(Off) 
!S23(Off) 
!S24(Off) 
!S25(Off) 
!S26(Off) 
!S27(Off) 
!S28(Off) 
!S31(Off) 
!S32(Off) 
!S33(Off) 
!S34(Off) 
!S35(Off) 
!S36(Off) 
!S37(Off) 
!S38(Off) 
!S41(Off) 
!S42(Off) 
!S43(Off) 
!S44(Off) 
!S45(Off) 
!S46(Off) 
!S47(Off) 
!S48(Off) 
!S51(Off) 
!S52(Off) 
!S53(Off) 
!S54(Off) 
!S55(Off) 
!S56(Off) 
!S57(Off) 
!S58(Off) 
!S61(Off) 
!S62(Off) 
!S63(Off) 
!S64(Off) 
!S65(Off) 
!S66(Off) 
!S67(Off) 
!S68(Off) 
!S71(Off) 
!S72(Off) 
!S73(Off) 
!S74(Off) 
!S75(Off) 
!S76(Off) 
!S77(Off) 
!S78(Off) 
!S81(Off) 
!S82(Off) 
!S83(Off) 
!S84(Off) 
!S85(Off) 
!S86(Off) 
!S87(Off) 
!S88(Off) 
!S8P File: Measurements: <S11,S12,S13,S14,S15,S16,S17,S18>,
!<S21,S22,S23,S24,S25,S26,S27,S28>,
!<S31,S32,S33,S34,S35,S36,S37,S38>,
!<S41,S42,S43,S44,S45,S46,S47,S48>,
!<S51,S52,S53,S54,S55,S56,S57,S58>,
!<S61,S62,S63,S64,S65,S66,S67,S68>,
!<S71,S72,S73,S74,S75,S76,S77,S78>,
!<S81,S82,S83,S84,S85,S86,S87,S88>:
# Hz S  RI   R 50
2000000 0.26104257 -0.0608785 0.24175191 -0.026992774 7.071068e-011 7.071068e-011 7.071068e-011 7.071068e-011
7.071068e-011 7.071068e-011 7.071068e-011 7.071068e-011 7.071068e-011 7.071068e-011 7.071068e-011 7.071068e-011
0.24298163 -0.025732191 0.26981816 -0.065144211 7.071068e-011 7.071068e-011 7.071068e-011 7.071068e-011
7.071068e-011 7.071068e-011 7.071068e-011 7.071068e-011 7.071068e-011 7.071068e-011 7.071068e-011 7.071068e-011
7.071068e-011 7.071068e-011 7.071068e-011 7.071068e-011 0.26016423 -0.066405803 0.24097487 -0.02701935
7.071068e-011 7.071068e-011 7.071068e-011 7.071068e-011 7.071068e-011 7.071068e-011 7.071068e-011 7.071068e-011
7.071068e-011 7.071068e-011 7.071068e-011 7.071068e-011 0.24160628 -0.026184756 0.26616874 -0.062689655
7.071068e-011 7.071068e-011 7.071068e-011 7.071068e-011 7.071068e-011 7.071068e-011 7.071068e-011 7.071068e-011
7.071068e-011 7.071068e-011 7.071068e-011 7.071068e-011 7.071068e-011 7.071068e-011 7.071068e-011 7.071068e-011
0.25071359 -0.064358808 0.24280727 -0.02746959 7.071068e-011 7.071068e-011 7.071068e-011 7.071068e-011
7.071068e-011 7.071068e-011 7.071068e-011 7.071068e-011 7.071068e-011 7.071068e-011 7.071068e-011 7.071068e-011
0.24343462 -0.025990918 0.26698506 -0.068069316 7.071068e-011 7.071068e-011 7.071068e-011 7.071068e-011
7.071068e-011 7.071068e-011 7.071068e-011 7.071068e-011 7.071068e-011 7.071068e-011 7.071068e-011 7.071068e-011
7.071068e-011 7.071068e-011 7.071068e-011 7.071068e-011 0.26612911 -0.063999832 0.24173099 -0.02724155
7.071068e-011 7.071068e-011 7.071068e-011 7.071068e-011 7.071068e-011 7.071068e-011 7.071068e-011 7.071068e-011
7.071068e-011 7.071068e-011 7.071068e-011 7.071068e-011 0.24177459 -0.025928928 0.26379442 -0.06800992
2598598.5985986 0.26110926 -0.056247588 0.24071229 -0.03210634 7.071068e-011 7.071068e-011 7.071068e-011 7.071068e-011
7.071068e-011 7.071068e-011 7.071068e-011 7.071068e-011 7.071068e-011 7.071068e-011 7.071068e-011 7.071068e-011
0.24219069 -0.030401699 0.26952925 -0.061882969 7.071068e-011 7.071068e-011 7.071068e-011 7.071068e-011
7.071068e-011 7.071068e-011 7.071068e-011 7.071068e-011 7.071068e-011 7.071068e-011 7.071068e-011 7.071068e-011
7.071068e-011 7.071068e-011 7.071068e-011 7.071068e-011 0.26005939 -0.06240388 0.23985411 -0.031942349
7.071068e-011 7.071068e-011 7.071068e-011 7.071068e-011 7.071068e-011 7.071068e-011 7.071068e-011 7.071068e-011
7.071068e-011 7.071068e-011 7.071068e-011 7.071068e-011 0.24051905 -0.030729484 0.26580948 -0.057644315
7.071068e-011 7.071068e-011 7.071068e-011 7.071068e-011 7.071068e-011 7.071068e-011 7.071068e-011 7.071068e-011
7.071068e-011 7.071068e-011 7.071068e-011 7.071068e-011 7.071068e-011 7.071068e-011 7.071068e-011 7.071068e-011
0.24989595 -0.057916172 0.24064851 -0.031970862 7.071068e-011 7.071068e-011 7.071068e-011 7.071068e-011
7.071068e-011 7.071068e-011 7.071068e-011 7.071068e-011 7.071068e-011 7.071068e-011 7.071068e-011 7.071068e-011
0.24257337 -0.030916091 0.26645973 -0.06469287 7.071068e-011 7.071068e-011 7.071068e-011 7.071068e-011
7.071068e-011 7.071068e-011 7.071068e-011 7.071068e-011 7.071068e-011 7.071068e-011 7.071068e-011 7.071068e-011
7.071068e-011 7.071068e-011 7.071068e-011 7.071068e-011 0.26632306 -0.058393035 0.24070854 -0.032163847
7.071068e-011 7.071068e-011 7.071068e-011 7.071068e-011 7.071068e-011 7.071068e-011 7.071068e-011 7.071068e-011
7.071068e-011 7.071068e-011 7.071068e-011 7.071068e-011 0.24093948 -0.030544039 0.26356646 -0.064160123
3197197.1971972 0.26115823 -0.054256227 0.23974618 -0.036508214 7.071068e-011 7.071068e-011 7.071068e-011 7.071068e-011
7.071068e-011 7.071068e-011 7.071068e-011 7.071068e-011 7.071068e-011 7.071068e-011 7.071068e-011 7.071068e-011
0.2415081 -0.034478791 0.26912016 -0.061135083 7.071068e-011 7.071068e-011 7.071068e-011 7.071068e-011
7.071068e-011 7.071068e-011 7.071068e-011 7.071068e-011 7.071068e-011 7.071068e-011 7.071068e-011 7.071068e-011
7.071068e-011 7.071068e-011 7.071068e-011 7.071068e-011 0.25984764 -0.061028138 0.23891397 -0.036196064
7.071068e-011 7.071068e-011 7.071068e-011 7.071068e-011 7.071068e-011 7.071068e-011 7.071068e-011 7.071068e-011
7.071068e-011 7.071068e-011 7.071068e-011 7.071068e-011 0.23962539 -0.034707256 0.26560041 -0.05542744
7.071068e-011 7.071068e-011 7.071068e-011 7.071068e-011 7.071068e-011 7.071068e-011 7.071068e-011 7.071068e-011
7.071068e-011 7.071068e-011 7.071068e-011 7.071068e-011 7.071068e-011 7.071068e-011 7.071068e-011 7.071068e-011
0.25064799 -0.054029115 0.24008071 -0.035418805 7.071068e-011 7.071068e-011 7.071068e-011 7.071068e-011
7.071068e-011 7.071068e-011 7.071068e-011 7.071068e-011 7.071068e-011 7.071068e-011 7.071068e-011 7.071068e-011
0.24181171 -0.03506048 0.26584685 -0.064064346 7.071068e-011 7.071068e-011 7.071068e-011 7.071068e-011
7.071068e-011 7.071068e-011 7.071068e-011 7.071068e-011 7.071068e-011 7.071068e-011 7.071068e-011 7.071068e-011
7.071068e-011 7.071068e-011 7.071068e-011 7.071068e-011 0.26654521 -0.055544347 0.23983452 -0.036561403
7.071068e-011 7.071068e-011 7.071068e-011 7.071068e-011 7.071068e-011 7.071068e-011 7.071068e-011 7.071068e-011
7.071068e-011 7.071068e-011 7.071068e-011 7.071068e-011 0.24028197 -0.034348555 0.26331437 -0.06306202
3795795.7957958 0.26107952 -0.054364551 0.23874025 -0.041130051 7.071068e-011 7.071068e-011 7.071068e-011 7.071068e-011
7.071068e-011 7.071068e-011 7.071068e-011 7.071068e-011 7.071068e-011 7.071068e-011 7.071068e-011 7.071068e-011
0.2408303 -0.038846437 0.26852942 -0.062311918 7.071068e-011 7.071068e-011 7.071068e-011 7.071068e-011
7.071068e-011 7.071068e-011 7.071068e-011 7.071068e-011 7.071068e-011 7.071068e-011 7.071068e-011 7.071068e-011
7.071068e-011 7.071068e-011 7.071068e-011 7.071068e-011 0.25951952 -0.061802261 0.23795818 -0.040636748
7.071068e-011 7.071068e-011 7.071068e-011 7.071068e-011 7.071068e-011 7.071068e-011 7.071068e-011 7.071068e-011
7.071068e-011 7.071068e-011 7.071068e-011 7.071068e-011 0.23879157 -0.038821198 0.26523638 -0.055163953
7.071068e-011 7.071068e-011 7.071068e-011 7.071068e-011 7.071068e-011 7.071068e-011 7.071068e-011 7.071068e-011
7.071068e-011 7.071068e-011 7.071068e-011 7.071068e-011 7.071068e-011 7.071068e-011 7.071068e-011 7.071068e-011
0.25183338 -0.052298605 0.24018715 -0.039391275 7.071068e-011 7.071068e-011 7.071068e-011 7.071068e-011
7.071068e-011 7.071068e-011 7.071068e-011 7.071068e-011 7.071068e-011 7.071068e-011 7.071068e-011 7.071068e-011
0.24105474 -0.03932501 0.26502106 -0.065819897 7.071068e-011 7.071068e-011 7.071068e-011 7.071068e-011
7.071068e-011 7.071068e-011 7.071068e-011 7.071068e-011 7.071068e-011 7.071068e-011 7.071068e-011 7.071068e-011
7.071068e-011 7.071068e-011 7.071068e-011 7.071068e-011 0.26657847 -0.055000648 0.23880762 -0.041107815
7.071068e-011 7.071068e-011 7.071068e-011 7.071068e-011 7.071068e-011 7.071068e-011 7.071068e-011 7.071068e-011
7.071068e-011 7.071068e-011 7.071068e-011 7.071068e-011 0.23965916 -0.038544163 0.26273185 -0.064189345
4394394.3943944 0.26089147 -0.055982597 0.23767091 -0.046059623 7.071068e-011 7.071068e-011 7.071068e-011 7.071068e-011
7.071068e-011 7.071068e-011 7.071068e-011 7.071068e-011 7.071068e-011 7.071068e-011 7.071068e-011 7.071068e-011
0.24018531 -0.043579265 0.26778591 -0.064849086 7.071068e-011 7.071068e-011 7.071068e-011 7.071068e-011
7.071068e-011 7.071068e-011 7.071068e-011 7.071068e-011 7.071068e-011 7.071068e-011 7.071068e-011 7.071068e-011
7.071068e-011 7.071068e-011 7.071068e-011 7.071068e-011 0.25910577 -0.064075604 0.23704159 -0.045413334
7.071068e-011 7.071068e-011 7.071068e-011 7.071068e-011 7.071068e-011 7.071068e-011 7.071068e-011 7.071068e-011
7.071068e-011 7.071068e-011 7.071068e-011 7.071068e-011 0.23810282 -0.043126225 0.2649287 -0.056145944
7.071068e-011 7.071068e-011 7.071068e-011 7.071068e-011 7.071068e-011 7.071068e-011 7.071068e-011 7.071068e-011
7.071068e-011 7.071068e-011 7.071068e-011 7.071068e-011 7.071068e-011 7.071068e-011 7.071068e-011 7.071068e-011
0.25389442 -0.052161295 0.2411063 -0.04433924 7.071068e-011 7.071068e-011 7.071068e-011 7.071068e-011
7.071068e-011 7.071068e-011 7.071068e-011 7.071068e-011 7.071068e-011 7.071068e-011 7.071068e-011 7.071068e-011
0.24040277 -0.043898348 0.26404032 -0.069554999 7.071068e-011 7.071068e-011 7.071068e-011 7.071068e-011
7.071068e-011 7.071068e-011 7.071068e-011 7.071068e-011 7.071068e-011 7.071068e-011 7.071068e-011 7.071068e-011
7.071068e-011 7.071068e-011 7.071068e-011 7.071068e-011 0.26656505 -0.056239203 0.23794603 -0.045933466
7.071068e-011 7.071068e-011 7.071068e-011 7.071068e-011 7.071068e-011 7.071068e-011 7.071068e-011 7.071068e-011
7.071068e-011 7.071068e-011 7.071068e-011 7.071068e-011 0.23907927 -0.043316402 0.26219976 -0.066644549
4992992.992993 0.260555 -0.058309801 0.23654883 -0.050915968 7.071068e-011 7.071068e-011 7.071068e-011 7.071068e-011
7.071068e-011 7.071068e-011 7.071068e-011 7.071068e-011 7.071068e-011 7.071068e-011 7.071068e-011 7.071068e-011
0.23944251 -0.048415937 0.26693997 -0.068057276 7.071068e-011 7.071068e-011 7.071068e-011 7.071068e-011
7.071068e-011 7.071068e-011 7.071068e-011 7.071068e-011 7.071068e-011 7.071068e-011 7.071068e-011 7.071068e-011
7.071068e-011 7.071068e-011 7.071068e-011 7.071068e-011 0.2584326 -0.067120269 0.23594272 -0.050228853
7.071068e-011 7.071068e-011 7.071068e-011 7.071068e-011 7.071068e-011 7.071068e-011 7.071068e-011 7.071068e-011
7.071068e-011 7.071068e-011 7.071068e-011 7.071068e-011 0.23738098 -0.04778612 0.26454034 -0.058174353
7.071068e-011 7.071068e-011 7.071068e-011 7.071068e-011 7.071068e-011 7.071068e-011 7.071068e-011 7.071068e-011
7.071068e-011 7.071068e-011 7.071068e-011 7.071068e-011 7.071068e-011 7.071068e-011 7.071068e-011 7.071068e-011
0.25467232 -0.05384779 0.24058783 -0.050577678 7.071068e-011 7.071068e-011 7.071068e-011 7.071068e-011
7.071068e-011 7.071068e-011 7.071068e-011 7.071068e-011 7.071068e-011 7.071068e-011 7.071068e-011 7.071068e-011
0.23991022 -0.048544839 0.26283315 -0.074332811 7.071068e-011 7.071068e-011 7.071068e-011 7.071068e-011
7.071068e-011 7.071068e-011 7.071068e-011 7.071068e-011 7.071068e-011 7.071068e-011 7.071068e-011 7.071068e-011
7.071068e-011 7.071068e-011 7.071068e-011 7.071068e-011 0.26628345 -0.058102012 0.23676077 -0.050753392
7.071068e-011 7.071068e-011 7.071068e-011 7.071068e-011 7.071068e-011 7.071068e-011 7.071068e-011 7.071068e-011
7.071068e-011 7.071068e-011 7.071068e-011 7.071068e-011 0.23839387 -0.04790416 0.2613444 -0.06974443
5591591.5915916 0.26022121 -0.061037172 0.23552836 -0.055735499 7.071068e-011 7.071068e-011 7.071068e-011 7.071068e-011
7.071068e-011 7.071068e-011 7.071068e-011 7.071068e-011 7.071068e-011 7.071068e-011 7.071068e-011 7.071068e-011
0.23864378 -0.053401671 0.26606148 -0.071930073 7.071068e-011 7.071068e-011 7.071068e-011 7.071068e-011
7.071068e-011 7.071068e-011 7.071068e-011 7.071068e-011 7.071068e-011 7.071068e-011 7.071068e-011 7.071068e-011
7.071068e-011 7.071068e-011 7.071068e-011 7.071068e-011 0.25794134 -0.070746072 0.2349731 -0.055051807
7.071068e-011 7.071068e-011 7.071068e-011 7.071068e-011 7.071068e-011 7.071068e-011 7.071068e-011 7.071068e-011
7.071068e-011 7.071068e-011 7.071068e-011 7.071068e-011 0.23687208 -0.052269764 0.26426241 -0.060466357
7.071068e-011 7.071068e-011 7.071068e-011 7.071068e-011 7.071068e-011 7.071068e-011 7.071068e-011 7.071068e-011
7.071068e-011 7.071068e-011 7.071068e-011 7.071068e-011 7.071068e-011 7.071068e-011 7.071068e-011 7.071068e-011
0.25619438 -0.056134079 0.24088627 -0.057450648 7.071068e-011 7.071068e-011 7.071068e-011 7.071068e-011
7.071068e-011 7.071068e-011 7.071068e-011 7.071068e-011 7.071068e-011 7.071068e-011 7.071068e-011 7.071068e-011
0.23924078 -0.053575933 0.2614392 -0.080554321 7.071068e-011 7.071068e-011 7.071068e-011 7.071068e-011
7.071068e-011 7.071068e-011 7.071068e-011 7.071068e-011 7.071068e-011 7.071068e-011 7.071068e-011 7.071068e-011
7.071068e-011 7.071068e-011 7.071068e-011 7.071068e-011 0.26600164 -0.060940158 0.23568116 -0.055706292
7.071068e-011 7.071068e-011 7.071068e-011 7.071068e-011 7.071068e-011 7.071068e-011 7.071068e-011 7.071068e-011
7.071068e-011 7.071068e-011 7.071068e-011 7.071068e-011 0.23763393 -0.053136565 0.26038513 -0.073725753
6190190.1901902 0.26002884 -0.063890584 0.23478071 -0.060510442 7.071068e-011 7.071068e-011 7.071068e-011 7.071068e-011
7.071068e-011 7.071068e-011 7.071068e-011 7.071068e-011 7.071068e-011 7.071068e-011 7.071068e-011 7.071068e-011
0.23788589 -0.058372404 0.26529816 -0.076294228 7.071068e-011 7.071068e-011 7.071068e-011 7.071068e-011
7.071068e-011 7.071068e-011 7.071068e-011 7.071068e-011 7.071068e-011 7.071068e-011 7.071068e-011 7.071068e-011
7.071068e-011 7.071068e-011 7.071068e-011 7.071068e-011 0.25750929 -0.074552216 0.23411402 -0.05973411
7.071068e-011 7.071068e-011 7.071068e-011 7.071068e-011 7.071068e-011 7.071068e-011 7.071068e-011 7.071068e-011
7.071068e-011 7.071068e-011 7.071068e-011 7.071068e-011 0.2365472 -0.057103761 0.26418266 -0.063421905
7.071068e-011 7.071068e-011 7.071068e-011 7.071068e-011 7.071068e-011 7.071068e-011 7.071068e-011 7.071068e-011
7.071068e-011 7.071068e-011 7.071068e-011 7.071068e-011 7.071068e-011 7.071068e-011 7.071068e-011 7.071068e-011
0.25555047 -0.058298126 0.2388064 -0.064003944 7.071068e-011 7.071068e-011 7.071068e-011 7.071068e-011
7.071068e-011 7.071068e-011 7.071068e-011 7.071068e-011 7.071068e-011 7.071068e-011 7.071068e-011 7.071068e-011
0.23886372 -0.058702283 0.25993541 -0.087401487 7.071068e-011 7.071068e-011 7.071068e-011 7.071068e-011
7.071068e-011 7.071068e-011 7.071068e-011 7.071068e-011 7.071068e-011 7.071068e-011 7.071068e-011 7.071068e-011
7.071068e-011 7.071068e-011 7.071068e-011 7.071068e-011 0.2657547 -0.063637562 0.23484589 -0.060450111
7.071068e-011 7.071068e-011 7.071068e-011 7.071068e-011 7.071068e-011 7.071068e-011 7.071068e-011 7.071068e-011
7.071068e-011 7.071068e-011 7.071068e-011 7.071068e-011 0.23662665 -0.058096562 0.25936306 -0.077978536
6788788.7887888 0.26010969 -0.066939101 0.23430824 -0.065540202 7.071068e-011 7.071068e-011 7.071068e-011 7.071068e-011
7.071068e-011 7.071068e-011 7.071068e-011 7.071068e-011 7.071068e-011 7.071068e-011 7.071068e-011 7.071068e-011
0.23716153 -0.063461185 0.26455447 -0.081336118 7.071068e-011 7.071068e-011 7.071068e-011 7.071068e-011
7.071068e-011 7.071068e-011 7.071068e-011 7.071068e-011 7.071068e-011 7.071068e-011 7.071068e-011 7.071068e-011
7.071068e-011 7.071068e-011 7.071068e-011 7.071068e-011 0.25730705 -0.078874126 0.23354103 -0.064553425
7.071068e-011 7.071068e-011 7.071068e-011 7.071068e-011 7.071068e-011 7.071068e-011 7.071068e-011 7.071068e-011
7.071068e-011 7.071068e-011 7.071068e-011 7.071068e-011 0.23621361 -0.062237635 0.2641325 -0.066895477
7.071068e-011 7.071068e-011 7.071068e-011 7.071068e-011 7.071068e-011 7.071068e-011 7.071068e-011 7.071068e-011
7.071068e-011 7.071068e-011 7.071068e-011 7.071068e-011 7.071068e-011 7.071068e-011 7.071068e-011 7.071068e-011
0.25476068 -0.059907135 0.23680276 -0.069993787 7.071068e-011 7.071068e-011 7.071068e-011 7.071068e-011
7.071068e-011 7.071068e-011 7.071068e-011 7.071068e-011 7.071068e-011 7.071068e-011 7.071068e-011 7.071068e-011
0.2382485 -0.064154126 0.25824565 -0.095111027 7.071068e-011 7.071068e-011 7.071068e-011 7.071068e-011
7.071068e-011 7.071068e-011 7.071068e-011 7.071068e-011 7.071068e-011 7.071068e-011 7.071068e-011 7.071068e-011
7.071068e-011 7.071068e-011 7.071068e-011 7.071068e-011 0.26578233 -0.066483818 0.23413976 -0.065331057
7.071068e-011 7.071068e-011 7.071068e-011 7.071068e-011 7.071068e-011 7.071068e-011 7.071068e-011 7.071068e-011
7.071068e-011 7.071068e-011 7.071068e-011 7.071068e-011 0.23563814 -0.063082688 0.25814858 -0.082796998
7387387.3873874 0.26044238 -0.070429191 0.23425411 -0.071228229 7.071068e-011 7.071068e-011 7.071068e-011 7.071068e-011
7.071068e-011 7.071068e-011 7.071068e-011 7.071068e-011 7.071068e-011 7.071068e-011 7.071068e-011 7.071068e-011
0.236563 -0.068783231 0.2641274 -0.087264553 7.071068e-011 7.071068e-011 7.071068e-011 7.071068e-011
7.071068e-011 7.071068e-011 7.071068e-011 7.071068e-011 7.071068e-011 7.071068e-011 7.071068e-011 7.071068e-011
7.071068e-011 7.071068e-011 7.071068e-011 7.071068e-011 0.2573984 -0.083767302 0.23339318 -0.06984821
7.071068e-011 7.071068e-011 7.071068e-011 7.071068e-011 7.071068e-011 7.071068e-011 7.071068e-011 7.071068e-011
7.071068e-011 7.071068e-011 7.071068e-011 7.071068e-011 0.23596083 -0.067777991 0.26431105 -0.071134076
7.071068e-011 7.071068e-011 7.071068e-011 7.071068e-011 7.071068e-011 7.071068e-011 7.071068e-011 7.071068e-011
7.071068e-011 7.071068e-011 7.071068e-011 7.071068e-011 7.071068e-011 7.071068e-011 7.071068e-011 7.071068e-011
0.25271183 -0.060898244 0.23384549 -0.075254217 7.071068e-011 7.071068e-011 7.071068e-011 7.071068e-011
7.071068e-011 7.071068e-011 7.071068e-011 7.071068e-011 7.071068e-011 7.071068e-011 7.071068e-011 7.071068e-011
0.23739645 -0.069927178 0.25636831 -0.10348772 7.071068e-011 7.071068e-011 7.071068e-011 7.071068e-011
7.071068e-011 7.071068e-011 7.071068e-011 7.071068e-011 7.071068e-011 7.071068e-011 7.071068e-011 7.071068e-011
7.071068e-011 7.071068e-011 7.071068e-011 7.071068e-011 0.26607201 -0.069324069 0.2336718 -0.070496269
7.071068e-011 7.071068e-011 7.071068e-011 7.071068e-011 7.071068e-011 7.071068e-011 7.071068e-011 7.071068e-011
7.071068e-011 7.071068e-011 7.071068e-011 7.071068e-011 0.23446196 -0.067980215 0.25668153 -0.08813256
7985985.985986 0.26029187 -0.074610755 0.23325412 -0.077456437 7.071068e-011 7.071068e-011 7.071068e-011 7.071068e-011
7.071068e-011 7.071068e-011 7.071068e-011 7.071068e-011 7.071068e-011 7.071068e-011 7.071068e-011 7.071068e-011
0.23573886 -0.074446358 0.26286328 -0.093743913 7.071068e-011 7.071068e-011 7.071068e-011 7.071068e-011
7.071068e-011 7.071068e-011 7.071068e-011 7.071068e-011 7.071068e-011 7.071068e-011 7.071068e-011 7.071068e-011
7.071068e-011 7.071068e-011 7.071068e-011 7.071068e-011 0.256944 -0.088983707 0.23289771 -0.075477883
7.071068e-011 7.071068e-011 7.071068e-011 7.071068e-011 7.071068e-011 7.071068e-011 7.071068e-011 7.071068e-011
7.071068e-011 7.071068e-011 7.071068e-011 7.071068e-011 0.23496544 -0.073806666 0.26384372 -0.076211706
7.071068e-011 7.071068e-011 7.071068e-011 7.071068e-011 7.071068e-011 7.071068e-011 7.071068e-011 7.071068e-011
7.071068e-011 7.071068e-011 7.071068e-011 7.071068e-011 7.071068e-011 7.071068e-011 7.071068e-011 7.071068e-011
0.25338292 -0.061119799 0.23304804 -0.079266638 7.071068e-011 7.071068e-011 7.071068e-011 7.071068e-011
7.071068e-011 7.071068e-011 7.071068e-011 7.071068e-011 7.071068e-011 7.071068e-011 7.071068e-011 7.071068e-011
0.23655669 -0.076172255 0.25389826 -0.11186427 7.071068e-011 7.071068e-011 7.071068e-011 7.071068e-011
7.071068e-011 7.071068e-011 7.071068e-011 7.071068e-011 7.071068e-011 7.071068e-011 7.071068e-011 7.071068e-011
