!Keysight Technologies,M9370A,MY54322275,A.12.60.03
!Date: Wednesday, May 01, 2019 15:52:48
!Correction: S11(Full 8 Port(1,2,3,4,5,6,7,8)) 
!S12(Full 8 Port(1,2,3,4,5,6,7,8)) 
!S13(Full 8 Port(1,2,3,4,5,6,7,8)) 
!S14(Full 8 Port(1,2,3,4,5,6,7,8)) 
!S15(Full 8 Port(1,2,3,4,5,6,7,8)) 
!S16(Full 8 Port(1,2,3,4,5,6,7,8)) 
!S17(Full 8 Port(1,2,3,4,5,6,7,8)) 
!S18(Full 8 Port(1,2,3,4,5,6,7,8)) 
!S21(Full 8 Port(1,2,3,4,5,6,7,8)) 
!S22(Full 8 Port(1,2,3,4,5,6,7,8)) 
!S23(Full 8 Port(1,2,3,4,5,6,7,8)) 
!S24(Full 8 Port(1,2,3,4,5,6,7,8)) 
!S25(Full 8 Port(1,2,3,4,5,6,7,8)) 
!S26(Full 8 Port(1,2,3,4,5,6,7,8)) 
!S27(Full 8 Port(1,2,3,4,5,6,7,8)) 
!S28(Full 8 Port(1,2,3,4,5,6,7,8)) 
!S31(Full 8 Port(1,2,3,4,5,6,7,8)) 
!S32(Full 8 Port(1,2,3,4,5,6,7,8)) 
!S33(Full 8 Port(1,2,3,4,5,6,7,8)) 
!S34(Full 8 Port(1,2,3,4,5,6,7,8)) 
!S35(Full 8 Port(1,2,3,4,5,6,7,8)) 
!S36(Full 8 Port(1,2,3,4,5,6,7,8)) 
!S37(Full 8 Port(1,2,3,4,5,6,7,8)) 
!S38(Full 8 Port(1,2,3,4,5,6,7,8)) 
!S41(Full 8 Port(1,2,3,4,5,6,7,8)) 
!S42(Full 8 Port(1,2,3,4,5,6,7,8)) 
!S43(Full 8 Port(1,2,3,4,5,6,7,8)) 
!S44(Full 8 Port(1,2,3,4,5,6,7,8)) 
!S45(Full 8 Port(1,2,3,4,5,6,7,8)) 
!S46(Full 8 Port(1,2,3,4,5,6,7,8)) 
!S47(Full 8 Port(1,2,3,4,5,6,7,8)) 
!S48(Full 8 Port(1,2,3,4,5,6,7,8)) 
!S51(Full 8 Port(1,2,3,4,5,6,7,8)) 
!S52(Full 8 Port(1,2,3,4,5,6,7,8)) 
!S53(Full 8 Port(1,2,3,4,5,6,7,8)) 
!S54(Full 8 Port(1,2,3,4,5,6,7,8)) 
!S55(Full 8 Port(1,2,3,4,5,6,7,8)) 
!S56(Full 8 Port(1,2,3,4,5,6,7,8)) 
!S57(Full 8 Port(1,2,3,4,5,6,7,8)) 
!S58(Full 8 Port(1,2,3,4,5,6,7,8)) 
!S61(Full 8 Port(1,2,3,4,5,6,7,8)) 
!S62(Full 8 Port(1,2,3,4,5,6,7,8)) 
!S63(Full 8 Port(1,2,3,4,5,6,7,8)) 
!S64(Full 8 Port(1,2,3,4,5,6,7,8)) 
!S65(Full 8 Port(1,2,3,4,5,6,7,8)) 
!S66(Full 8 Port(1,2,3,4,5,6,7,8)) 
!S67(Full 8 Port(1,2,3,4,5,6,7,8)) 
!S68(Full 8 Port(1,2,3,4,5,6,7,8)) 
!S71(Full 8 Port(1,2,3,4,5,6,7,8)) 
!S72(Full 8 Port(1,2,3,4,5,6,7,8)) 
!S73(Full 8 Port(1,2,3,4,5,6,7,8)) 
!S74(Full 8 Port(1,2,3,4,5,6,7,8)) 
!S75(Full 8 Port(1,2,3,4,5,6,7,8)) 
!S76(Full 8 Port(1,2,3,4,5,6,7,8)) 
!S77(Full 8 Port(1,2,3,4,5,6,7,8)) 
!S78(Full 8 Port(1,2,3,4,5,6,7,8)) 
!S81(Full 8 Port(1,2,3,4,5,6,7,8)) 
!S82(Full 8 Port(1,2,3,4,5,6,7,8)) 
!S83(Full 8 Port(1,2,3,4,5,6,7,8)) 
!S84(Full 8 Port(1,2,3,4,5,6,7,8)) 
!S85(Full 8 Port(1,2,3,4,5,6,7,8)) 
!S86(Full 8 Port(1,2,3,4,5,6,7,8)) 
!S87(Full 8 Port(1,2,3,4,5,6,7,8)) 
!S88(Full 8 Port(1,2,3,4,5,6,7,8)) 
!S8P File: Measurements: <S11,S12,S13,S14,S15,S16,S17,S18>,
!<S21,S22,S23,S24,S25,S26,S27,S28>,
!<S31,S32,S33,S34,S35,S36,S37,S38>,
!<S41,S42,S43,S44,S45,S46,S47,S48>,
!<S51,S52,S53,S54,S55,S56,S57,S58>,
!<S61,S62,S63,S64,S65,S66,S67,S68>,
!<S71,S72,S73,S74,S75,S76,S77,S78>,
!<S81,S82,S83,S84,S85,S86,S87,S88>:
# Hz S  RI   R 50
300000 0.25125438 0.00051903498 0.24969807 0.00024532201 0.083255492 -0.00016923613 0.083253354 -3.195263e-005
0.083202563 -0.00017409047 0.083208524 -0.0001714159 0.083223268 -8.4698782e-005 0.083216973 -0.00018332707
0.24973021 0.00033563943 0.25143686 0.00037359333 0.083224364 -0.00017846197 0.083202124 9.573615e-006
0.083156511 -0.00011280428 0.08315929 -0.00017330516 0.083170131 -6.7100169e-005 0.083170414 -0.00016068832
0.083197854 -0.00015232392 0.08319588 -0.00011035473 0.25110728 0.00055318716 0.24969295 0.00063626037
0.083208375 -0.00012993372 0.083172008 -0.00017412697 0.083179273 -0.00013302507 0.083181217 -0.00022150857
0.083209701 -7.1592694e-007 0.083206952 4.7146059e-005 0.24967468 0.00075796113 0.25114775 -0.00022718091
0.08322686 2.0313802e-005 0.083185114 -2.6084615e-005 0.083190188 1.6918848e-005 0.083189398 -7.3582596e-005
0.083167791 -0.00020099658 0.083165795 -0.00012595351 0.083173953 -0.00017949838 0.083198644 -8.426332e-006
0.25130051 0.00063089456 0.24954003 -3.0664203e-005 0.083173402 -0.00011766526 0.083153091 -0.00022438714
0.083217591 -0.0001969274 0.083207563 -0.00019918956 0.083211772 -0.00023585699 0.083241083 -8.8652043e-005
0.2496473 7.1953524e-005 0.25122735 0.00041887601 0.083228908 -0.00012388402 0.083201185 -0.00023007752
0.08313711 -5.1134099e-005 0.083107091 -2.3057872e-005 0.083104655 -0.00011734963 0.083128616 2.0438389e-005
0.083088398 -6.2170773e-005 0.083095804 -3.2853462e-005 0.25146696 0.00053372711 0.24947774 0.00027596561
0.083192796 -0.00021575873 0.083163098 -0.00014654211 0.083155908 -0.00024777712 0.083191946 -0.00010421681
0.083141066 -0.00020692944 0.083157271 -0.00020376063 0.2494653 0.00035484202 0.25142828 0.00096483837
397000 0.25136197 0.00056952174 0.24962895 7.0410664e-005 0.083302282 -0.00014155942 0.083292641 -4.1067869e-005
0.083256468 -0.00015619802 0.083263591 -0.00012903548 0.083271958 -6.212938e-005 0.083264969 -0.00014673492
0.24972822 0.0001352054 0.25152439 0.00044378857 0.083250858 -0.00012302556 0.08323545 -7.1728982e-006
0.083205603 -9.389966e-005 0.083205611 -0.00015806277 0.08321622 -5.9831342e-005 0.083206207 -0.00013900256
0.083255194 -0.00012082225 0.083228156 -0.00010246746 0.251239 0.00061534962 0.249624 0.00035232981
0.083239086 -0.00010067961 0.083218552 -0.00015505229 0.083224334 -0.00013593625 0.083214141 -0.00021057123
0.083249651 -1.4376486e-005 0.083234124 9.0278427e-006 0.24968016 0.00042056627 0.2512846 3.2389646e-005
0.083250083 3.6695503e-005 0.083222114 -3.6595306e-005 0.083221324 -2.0189478e-005 0.083214946 -9.1582086e-005
0.083208188 -0.00015943065 0.083188392 -0.00010674468 0.083211593 -0.00012958307 0.083217621 1.3451618e-005
0.251394 0.00062225637 0.24949133 -0.00013266545 0.083203845 -9.2084447e-005 0.083175935 -0.00018552445
0.083249643 -0.00013094969 0.08322078 -0.00017043074 0.083241314 -0.00017434868 0.083253682 -6.7204899e-005
0.24961546 -4.3783191e-005 0.25130397 0.00045023218 0.083241932 -4.5501871e-005 0.083223298 -0.00016938307
0.083176896 -4.1739942e-005 0.083138041 -4.8423273e-005 0.083151162 -0.0001312964 0.08316078 -3.4203895e-005
0.083134964 -6.8579669e-005 0.083136797 -1.506952e-005 0.25158015 0.00053441245 0.24942219 8.2131388e-005
0.08322785 -0.00015043962 0.083198376 -0.00013490836 0.083209261 -0.00022270453 0.083211564 -0.00011534085
0.083183199 -0.00017744563 0.083193898 -0.00017141529 0.24946129 0.00011056414 0.25154436 0.00097119738
494000 0.25143078 0.00057636749 0.24956885 -4.0686125e-005 0.083313741 -0.00012517745 0.083292566 -4.5057932e-005
0.083268933 -0.00014676951 0.083269022 -0.00010383152 0.083282962 -4.9712202e-005 0.083271265 -0.00012650166
0.24967283 3.6579859e-005 0.25159585 0.00046799233 0.083267704 -0.00010968871 0.083234772 -2.1341368e-005
0.083212674 -8.214009e-005 0.083213523 -0.00015905176 0.083222948 -6.2948646e-005 0.083209291 -0.00012389668
0.083260641 -0.00010863734 0.083237335 -9.606051e-005 0.25133052 0.00065956428 0.2495399 0.00018584216
0.083244219 -8.822688e-005 0.08322724 -0.00014224525 0.083232701 -0.00014751688 0.083220758 -0.00020586487
0.083256155 -2.192252e-005 0.083233051 -7.8306375e-006 0.24963792 0.00024859578 0.25137013 0.0001538845
0.083248645 4.4539091e-005 0.083227068 -4.5177014e-005 0.083229929 -5.89794e-005 0.083216213 -0.00011669125
0.083220139 -0.00015135715 0.083190419 -9.2533111e-005 0.08322522 -0.00010749899 0.083219133 2.12297e-005
0.25145546 0.00059905124 0.24943344 -0.00019869926 0.083207794 -8.9505033e-005 0.083177976 -0.00017229945
0.083252549 -0.00010164285 0.083222702 -0.00015633827 0.08325503 -0.00015976341 0.083248682 -6.7484078e-005
0.24957432 -9.9531833e-005 0.25135806 0.0004483654 0.083250381 -1.1917582e-005 0.083222389 -0.00014481157
0.083180815 -4.6327154e-005 0.083146244 -6.2344741e-005 0.08316569 -0.00014476039 0.083162509 -7.0695278e-005
0.083140582 -6.8551992e-005 0.083150588 -5.7173179e-007 0.25164303 0.00052673527 0.2493657 -3.1762145e-005
0.083239727 -0.00012789789 0.083198048 -0.00012641876 0.083218805 -0.00021816586 0.083213709 -0.00014207744
0.083189249 -0.00016192097 0.083211772 -0.00014582957 0.24941811 -8.4332481e-007 0.25161359 0.00096839853
591000 0.25148773 0.00056755327 0.2495255 -8.6947184e-005 0.083321869 -0.00011668005 0.083302453 -5.6580899e-005
0.083277337 -0.00014146687 0.083279043 -9.5173338e-005 0.083290294 -4.0147406e-005 0.083271429 -0.00012125254
0.24963738 -2.6323962e-005 0.25166774 0.00048052604 0.083262391 -0.00011665127 0.083237894 -3.757414e-005
0.083209559 -7.890597e-005 0.083204269 -0.00016321978 0.083223797 -6.9752256e-005 0.083210051 -0.00012465623
0.083266333 -0.00010566492 0.083238445 -9.5885443e-005 0.25141358 0.00069342967 0.24949552 8.6268185e-005
0.083248816 -7.2944866e-005 0.083231814 -0.00014349233 0.083239399 -0.00014894502 0.083217189 -0.00021260984
0.083263822 -3.1811349e-005 0.083231181 -2.5706979e-005 0.24960259 0.00014542183 0.25144553 0.00021200541
0.083243705 4.3657528e-005 0.08322335 -5.2902727e-005 0.083224244 -8.5544001e-005 0.083211601 -0.00015016858
0.083222426 -0.00015240617 0.083197013 -9.5633179e-005 0.08322975 -0.0001031522 0.083224975 2.7749262e-005
0.25150958 0.00057502324 0.24940519 -0.00024202549 0.083207779 -8.179537e-005 0.083181396 -0.00017381253
0.083253913 -8.7848995e-005 0.083228663 -0.00015862446 0.08325693 -0.00014880217 0.083252326 -7.325389e-005
0.24954522 -0.00013042087 0.25140512 0.00044323731 0.08325395 8.2009728e-006 0.083225884 -0.00013229108
0.083190955 -4.6575409e-005 0.083149083 -6.9678477e-005 0.083169289 -0.00016609459 0.083163075 -9.681048e-005
0.083145134 -7.6700686e-005 0.083153136 1.0263557e-005 0.25172201 0.00051838544 0.24931706 -0.00010610362
0.083239421 -0.00012302899 0.083206639 -0.00012648049 0.083227634 -0.00022080643 0.083216116 -0.00016611202
0.083196931 -0.00016633299 0.083211541 -0.00013736314 0.24938902 -5.5210981e-005 0.2516917 0.00096038956
688000 0.25152248 0.00055997918 0.24949574 -0.0001128538 0.08332175 -0.00011739234 0.083295874 -6.2063547e-005
0.083274692 -0.00014858098 0.083288968 -8.3159553e-005 0.083296046 -4.2691561e-005 0.083272099 -0.00011436278
0.24960279 -6.5316293e-005 0.25172022 0.00049664406 0.083265297 -0.00011391298 0.083238862 -4.9335395e-005
0.083213821 -7.6072873e-005 0.083215602 -0.00017496261 0.083223633 -6.862075e-005 0.083207756 -0.00012742724
0.083271839 -0.00010654012 0.083235018 -9.7606178e-005 0.25147361 0.00071204762 0.24945001 1.5409931e-005
0.083249934 -6.8263609e-005 0.083235972 -0.00014199073 0.083238438 -0.00016071196 0.083218604 -0.00021770317
0.083258897 -3.7552083e-005 0.083230585 -2.590686e-005 0.24956343 7.9528865e-005 0.25150862 0.00024504887
0.083243474 6.1250335e-005 0.083229296 -6.5443099e-005 0.083226368 -0.00010723108 0.083211496 -0.00016354486
0.083225466 -0.00015155865 0.083199218 -8.7208064e-005 0.083235338 -8.4976105e-005 0.083216541 3.4247361e-005
0.25155678 0.00055960566 0.24938542 -0.00026685809 0.083211586 -8.5473708e-005 0.083181538 -0.00017743674
0.083258823 -7.6420481e-005 0.083230294 -0.00016868999 0.083260059 -0.00013914482 0.083245821 -7.7680692e-005
0.24952553 -0.00015666368 0.25146344 0.00043871999 0.083254606 3.2809014e-005 0.083225742 -0.00012623654
0.083187819 -4.8100177e-005 0.083148196 -7.2772527e-005 0.083176658 -0.0001870214 0.083159767 -0.000130827
0.083152503 -7.3860072e-005 0.08316303 2.267761e-005 0.25177309 0.00051366864 0.24927635 -0.00014740603
0.083238244 -0.00011978019 0.083199568 -0.00012877697 0.083228834 -0.00022976303 0.083213441 -0.00018719105
0.083197534 -0.00016713353 0.083216719 -0.00013140298 0.24935241 -0.00010592287 0.25175253 0.00095983024
785000 0.25156769 0.0005479409 0.24947314 -0.00013778234 0.083325118 -0.00010912275 0.083295278 -6.6437191e-005
0.083279125 -0.00014383212 0.083288096 -7.8148361e-005 0.08330106 -3.4505574e-005 0.083274014 -0.00011007432
0.24957369 -9.6209202e-005 0.25177357 0.00050218019 0.083261803 -0.00011554706 0.083237372 -5.7686404e-005
0.083204597 -7.5757423e-005 0.083218515 -0.00018350192 0.083220989 -7.8326564e-005 0.083212078 -0.0001349981
0.083266392 -9.7486154e-005 0.08323814 -0.00010023423 0.25152954 0.00073365291 0.2494207 -4.1471725e-005
0.083247393 -6.3436251e-005 0.083232254 -0.0001398857 0.083229281 -0.00017858174 0.083215997 -0.00023632326
0.083257101 -4.0351086e-005 0.083238453 -3.5494064e-005 0.2495334 3.3610289e-005 0.25156042 0.00027588216
0.083241463 6.6525296e-005 0.083225884 -7.4122087e-005 0.083227977 -0.00012295142 0.083210006 -0.00018734846
0.083225667 -0.00015822465 0.083193406 -9.1280475e-005 0.08323361 -8.2716448e-005 0.0832178 3.8659015e-005
0.25158802 0.00054072472 0.24936682 -0.00029605173 0.083208159 -8.5115884e-005 0.083177924 -0.00017749378
0.083260626 -6.6323169e-005 0.08323051 -0.0001765932 0.083262295 -0.00013716822 0.083250292 -8.3133367e-005
0.24950482 -0.00017353694 0.25149775 0.0004339318 0.083259322 4.5018769e-005 0.083225384 -0.00011798263
0.083194971 -4.5774897e-005 0.083149701 -8.9500252e-005 0.083180249 -0.00019787779 0.08315631 -0.00015707487
0.083144754 -7.8649042e-005 0.083160289 3.5398578e-005 0.25181979 0.00051780237 0.24925499 -0.00018075723
0.083247222 -0.00011454101 0.083204657 -0.00013623064 0.083228976 -0.00024248876 0.083217062 -0.00020089402
0.083196804 -0.00016756171 0.083215192 -0.00012904053 0.24931052 -0.00013145727 0.25180379 0.00095323473
882000 0.25160658 0.00052067754 0.24944375 -0.00015608854 0.083321624 -0.00011473356 0.083297871 -7.1590162e-005
0.083289407 -0.0001494904 0.083290212 -7.8697281e-005 0.0833003 -3.4788591e-005 0.083274484 -0.00010097771
0.24955209 -0.00011721426 0.25181356 0.00051500293 0.08326257 -0.00012097266 0.08324068 -6.9443915e-005
0.083211899 -7.7603872e-005 0.083219849 -0.00019285757 0.083226033 -8.0985519e-005 0.08320567 -0.00013425988
0.083266884 -9.4790303e-005 0.083238788 -0.00010059568 0.2515772 0.00074507121 0.249392 -8.0034581e-005
0.083252363 -6.3687716e-005 0.083233833 -0.0001424025 0.083241448 -0.00019302889 0.083216041 -0.00024438693
0.083258159 -5.0974508e-005 0.083225861 -4.5116114e-005 0.24950542 -8.9204661e-007 0.25161994 0.00028458939
0.083242044 8.105937e-005 0.083226733 -8.1516133e-005 0.083223477 -0.00014885938 0.083207518 -0.0002008891
0.083227627 -0.00017029101 0.083191998 -9.130832e-005 0.083234042 -7.3486146e-005 0.083213679 4.4141274e-005
0.25162435 0.00051591825 0.24934484 -0.00032728459 0.083205082 -8.937352e-005 0.083176494 -0.00018733753
0.083261572 -6.4593762e-005 0.083230197 -0.00018144854 0.083260752 -0.00013780392 0.083243929 -8.608053e-005
0.24948665 -0.00018539345 0.25153071 0.00042512588 0.083259299 6.2778556e-005 0.083224513 -0.00011801481
0.083192371 -4.1617252e-005 0.083148725 -9.0229187e-005 0.083177023 -0.0002124431 0.083156988 -0.00018090168
0.083150581 -8.1822946e-005 0.083163545 4.8027883e-005 0.25186488 0.00051181472 0.24921392 -0.00020406635
0.083238646 -0.00011448556 0.083198227 -0.00013953399 0.083230823 -0.00025169307 0.083208129 -0.00022391518
0.083200753 -0.00017782701 0.083214305 -0.00012897454 0.24929041 -0.00015520927 0.25186604 0.00095837616
979000 0.25163829 0.00051037263 0.24941076 -0.00017993638 0.083323292 -0.00011312944 0.083296187 -8.4816224e-005
0.083281197 -0.00015505793 0.083293028 -7.5973563e-005 0.083306231 -3.681075e-005 0.083272062 -0.00010642826
0.2495233 -0.00013193632 0.25185916 0.00051638641 0.083258457 -0.00012418967 0.083232984 -8.2087485e-005
0.083206385 -7.754712e-005 0.083217189 -0.00021258763 0.083215684 -9.3878589e-005 0.08320345 -0.00013961428
0.083275124 -9.9085453e-005 0.083231494 -0.00010933757 0.25162703 0.00075535552 0.24936073 -0.00011768738
0.083239757 -5.3542313e-005 0.083237447 -0.00014970526 0.083232746 -0.00021132396 0.083213747 -0.00026296833
0.083252691 -5.5764787e-005 0.083228141 -5.0520546e-005 0.24948257 -1.4786402e-005 0.25166732 0.0002895387
0.08323992 8.3149971e-005 0.083225735 -8.9287678e-005 0.083221473 -0.00016659273 0.083204314 -0.00022582854
0.083230279 -0.00016903771 0.08319255 -9.0616464e-005 0.083233893 -7.4041804e-005 0.083212182 5.4644355e-005
0.25165632 0.00049652596 0.24933457 -0.00035135908 0.083205312 -9.3603114e-005 0.083174765 -0.00019736834
0.083266579 -5.6145367e-005 0.083221912 -0.00020097505 0.083259545 -0.00014162678 0.083240271 -9.6091513e-005
0.24947363 -0.00020245864 0.25156766 0.00042093973 0.08326152 7.2935138e-005 0.083222792 -0.00011774605
0.083189145 -4.2573407e-005 0.083140679 -0.00010402334 0.083174452 -0.00022982346 0.083153076 -0.00020180158
0.083148092 -8.764839e-005 0.083167382 4.6834451e-005 0.25190878 0.00050967943 0.2491864 -0.00022803937
0.083243325 -0.00011073696 0.083198577 -0.00014509782 0.083224967 -0.00027360482 0.08320643 -0.00025272515
0.083191887 -0.00017980434 0.083213858 -0.00013443381 0.24927202 -0.00016853666 0.25192058 0.0009629259
1076000 0.25167415 0.00049537921 0.24938585 -0.0001887887 0.083325513 -0.0001147435 0.083286785 -8.3679719e-005
0.083284959 -0.00017206917 0.08329197 -7.4737676e-005 0.083301105 -2.6120955e-005 0.08327128 -0.000105997
0.24950737 -0.0001438574 0.25189444 0.00051806751 0.083259076 -0.00012567837 0.083229847 -9.1389447e-005
0.08320877 -8.4137711e-005 0.083215043 -0.00022976748 0.083222754 -9.5474577e-005 0.083199963 -0.000149203
0.083269298 -9.8498895e-005 0.083232336 -0.00011409731 0.25167742 0.00077477389 0.24933985 -0.00013823729
0.083242103 -5.2654195e-005 0.083238617 -0.00015545722 0.083229184 -0.00022474035 0.083210729 -0.00027953755
0.083251245 -6.7700385e-005 0.083218172 -5.6825622e-005 0.24946384 -3.2110915e-005 0.2517032 0.00029388134
0.083232649 9.4195551e-005 0.083226733 -9.7971526e-005 0.083214298 -0.00018192857 0.083198816 -0.00024150133
0.083219789 -0.00018235925 0.083186492 -9.016307e-005 0.083228253 -6.7522473e-005 0.083209611 6.2934792e-005
0.2516847 0.00047728664 0.24931872 -0.00036519955 0.083200373 -9.3925759e-005 0.083176777 -0.00019971163
0.083262935 -5.8154867e-005 0.08322002 -0.00020954917 0.083261803 -0.00013824859 0.083236165 -9.9545498e-005
0.24944881 -0.00020931818 0.25158995 0.00041613181 0.08325617 9.4788338e-005 0.083223127 -0.00011553239
0.083194129 -4.6974139e-005 0.083153918 -0.00010984379 0.083174057 -0.00024477197 0.08315248 -0.00021620731
0.083143212 -8.4600106e-005 0.083166957 6.5115004e-005 0.25194708 0.00049723685 0.24916914 -0.00025097196
0.083234519 -0.00011656043 0.083192527 -0.00014792373 0.083217189 -0.00028309863 0.08319696 -0.00026747235
0.083186746 -0.00018974731 0.083217926 -0.00013586007 0.24923785 -0.0001744519 0.25197071 0.00096505001
1173000 0.25169149 0.00047270727 0.24937361 -0.00019597862 0.08331687 -0.00011493781 0.083292305 -9.1849521e-005
0.083284914 -0.00017468295 0.083289415 -6.8820387e-005 0.083302423 -2.9991284e-005 0.083270207 -0.00010427844
0.24949181 -0.00015352581 0.25194776 0.00051689422 0.083252765 -0.00013262971 0.083224572 -9.7962664e-005
0.083206937 -8.2201666e-005 0.083215855 -0.00023721169 0.083214402 -0.00010128348 0.083191946 -0.00016011996
0.083268829 -0.00011055129 0.083235584 -0.00011798129 0.25171572 0.00077916723 0.24931526 -0.00016160327
0.083241738 -5.5667977e-005 0.083234385 -0.000161773 0.083231218 -0.00024089827 0.083209388 -0.00028809739
0.083253987 -6.9487025e-005 0.083221816 -6.3344749e-005 0.24943657 -4.4036748e-005 0.25174224 0.00029208956
0.083231606 0.00010547799 0.083223104 -0.00010348234 0.083216377 -0.00020275598 0.083189115 -0.0002624942
0.083222374 -0.00019247674 0.083186023 -9.5632342e-005 0.083224528 -6.4056359e-005 0.083205692 7.0788366e-005
0.2517083 0.00046513084 0.24930793 -0.00037737394 0.083202444 -9.256426e-005 0.083165102 -0.00020608562
0.083263017 -5.7133355e-005 0.083223112 -0.00021809459 0.083256423 -0.00014424624 0.083235465 -0.00010994051
0.24944237 -0.0002195205 0.25162423 0.00042241 0.083253622 0.00010156839 0.083217569 -0.0001218586
0.083193235 -5.1749255e-005 0.083144829 -0.00011462669 0.083167166 -0.00026393979 0.083150521 -0.00024403598
0.083147019 -9.3174422e-005 0.083168246 7.8869911e-005 0.25198129 0.0004946015 0.24914013 -0.0002558571
0.08323317 -0.00011657596 0.083185002 -0.00015772459 0.083214141 -0.00030037644 0.083193883 -0.00029098731
0.083187617 -0.00020254603 0.083215393 -0.00013816977 0.24922054 -0.00019035015 0.25201055 0.00097105652
