!Keysight Technologies,M9370A,MY54322275,A.12.60.03
!Date: Wednesday, May 01, 2019 16:01:36
!Correction: S11(Full 8 Port(1,2,3,4,5,6,7,8)) 
!S12(Full 8 Port(1,2,3,4,5,6,7,8)) 
!S13(Full 8 Port(1,2,3,4,5,6,7,8)) 
!S14(Full 8 Port(1,2,3,4,5,6,7,8)) 
!S15(Full 8 Port(1,2,3,4,5,6,7,8)) 
!S16(Full 8 Port(1,2,3,4,5,6,7,8)) 
!S17(Full 8 Port(1,2,3,4,5,6,7,8)) 
!S18(Full 8 Port(1,2,3,4,5,6,7,8)) 
!S21(Full 8 Port(1,2,3,4,5,6,7,8)) 
!S22(Full 8 Port(1,2,3,4,5,6,7,8)) 
!S23(Full 8 Port(1,2,3,4,5,6,7,8)) 
!S24(Full 8 Port(1,2,3,4,5,6,7,8)) 
!S25(Full 8 Port(1,2,3,4,5,6,7,8)) 
!S26(Full 8 Port(1,2,3,4,5,6,7,8)) 
!S27(Full 8 Port(1,2,3,4,5,6,7,8)) 
!S28(Full 8 Port(1,2,3,4,5,6,7,8)) 
!S31(Full 8 Port(1,2,3,4,5,6,7,8)) 
!S32(Full 8 Port(1,2,3,4,5,6,7,8)) 
!S33(Full 8 Port(1,2,3,4,5,6,7,8)) 
!S34(Full 8 Port(1,2,3,4,5,6,7,8)) 
!S35(Full 8 Port(1,2,3,4,5,6,7,8)) 
!S36(Full 8 Port(1,2,3,4,5,6,7,8)) 
!S37(Full 8 Port(1,2,3,4,5,6,7,8)) 
!S38(Full 8 Port(1,2,3,4,5,6,7,8)) 
!S41(Full 8 Port(1,2,3,4,5,6,7,8)) 
!S42(Full 8 Port(1,2,3,4,5,6,7,8)) 
!S43(Full 8 Port(1,2,3,4,5,6,7,8)) 
!S44(Full 8 Port(1,2,3,4,5,6,7,8)) 
!S45(Full 8 Port(1,2,3,4,5,6,7,8)) 
!S46(Full 8 Port(1,2,3,4,5,6,7,8)) 
!S47(Full 8 Port(1,2,3,4,5,6,7,8)) 
!S48(Full 8 Port(1,2,3,4,5,6,7,8)) 
!S51(Full 8 Port(1,2,3,4,5,6,7,8)) 
!S52(Full 8 Port(1,2,3,4,5,6,7,8)) 
!S53(Full 8 Port(1,2,3,4,5,6,7,8)) 
!S54(Full 8 Port(1,2,3,4,5,6,7,8)) 
!S55(Full 8 Port(1,2,3,4,5,6,7,8)) 
!S56(Full 8 Port(1,2,3,4,5,6,7,8)) 
!S57(Full 8 Port(1,2,3,4,5,6,7,8)) 
!S58(Full 8 Port(1,2,3,4,5,6,7,8)) 
!S61(Full 8 Port(1,2,3,4,5,6,7,8)) 
!S62(Full 8 Port(1,2,3,4,5,6,7,8)) 
!S63(Full 8 Port(1,2,3,4,5,6,7,8)) 
!S64(Full 8 Port(1,2,3,4,5,6,7,8)) 
!S65(Full 8 Port(1,2,3,4,5,6,7,8)) 
!S66(Full 8 Port(1,2,3,4,5,6,7,8)) 
!S67(Full 8 Port(1,2,3,4,5,6,7,8)) 
!S68(Full 8 Port(1,2,3,4,5,6,7,8)) 
!S71(Full 8 Port(1,2,3,4,5,6,7,8)) 
!S72(Full 8 Port(1,2,3,4,5,6,7,8)) 
!S73(Full 8 Port(1,2,3,4,5,6,7,8)) 
!S74(Full 8 Port(1,2,3,4,5,6,7,8)) 
!S75(Full 8 Port(1,2,3,4,5,6,7,8)) 
!S76(Full 8 Port(1,2,3,4,5,6,7,8)) 
!S77(Full 8 Port(1,2,3,4,5,6,7,8)) 
!S78(Full 8 Port(1,2,3,4,5,6,7,8)) 
!S81(Full 8 Port(1,2,3,4,5,6,7,8)) 
!S82(Full 8 Port(1,2,3,4,5,6,7,8)) 
!S83(Full 8 Port(1,2,3,4,5,6,7,8)) 
!S84(Full 8 Port(1,2,3,4,5,6,7,8)) 
!S85(Full 8 Port(1,2,3,4,5,6,7,8)) 
!S86(Full 8 Port(1,2,3,4,5,6,7,8)) 
!S87(Full 8 Port(1,2,3,4,5,6,7,8)) 
!S88(Full 8 Port(1,2,3,4,5,6,7,8)) 
!S8P File: Measurements: <S11,S12,S13,S14,S15,S16,S17,S18>,
!<S21,S22,S23,S24,S25,S26,S27,S28>,
!<S31,S32,S33,S34,S35,S36,S37,S38>,
!<S41,S42,S43,S44,S45,S46,S47,S48>,
!<S51,S52,S53,S54,S55,S56,S57,S58>,
!<S61,S62,S63,S64,S65,S66,S67,S68>,
!<S71,S72,S73,S74,S75,S76,S77,S78>,
!<S81,S82,S83,S84,S85,S86,S87,S88>:
# Hz S  RI   R 50
300000 0.25149044 0.0048718909 0.24957223 -0.0014140254 0.083211087 -0.00069728232 0.083211489 -0.0005701707
0.083186641 -0.00060255511 0.083191447 -0.00057527842 0.083205633 -0.00054345198 0.083239816 -0.00051659037
0.24957733 -0.0013069212 0.25150946 0.0046051871 0.083203949 -0.00067220913 0.083207481 -0.00050886988
0.083166987 -0.00057814328 0.083179817 -0.00052953931 0.083188422 -0.00049698359 0.083222248 -0.00046377484
0.083156489 -0.0006757669 0.08317706 -0.00060947606 0.25142461 0.0056342669 0.24954337 -0.0013820947
0.083166875 -0.00056326221 0.083137669 -0.00055032328 0.08314421 -0.00082038942 0.083182648 -0.00075435819
0.083166793 -0.00053968671 0.083191432 -0.00047529748 0.24951264 -0.0012584751 0.25144196 0.005115842
0.083191566 -0.00049707689 0.083154239 -0.00044684848 0.083162315 -0.00070345373 0.083196469 -0.00064262364
0.083149388 -0.00063183263 0.08317627 -0.00058892835 0.083129764 -0.00061457354 0.083162621 -0.00051088346
0.25149542 0.0051564011 0.24943407 -0.0017569732 0.083165064 -0.00066332449 0.083181977 -0.0006222779
0.083191983 -0.00061372865 0.083214223 -0.00056738179 0.083169945 -0.00061556429 0.083199143 -0.00051804353
0.2495209 -0.0016742599 0.25144276 0.0045340266 0.083216764 -0.00061641948 0.083216861 -0.00055658194
0.083127275 -0.00051594636 0.083123758 -0.00045372613 0.083065428 -0.00081110391 0.083098091 -0.00070095109
0.083077379 -0.00060829497 0.083082855 -0.00052498479 0.25151062 0.0055453223 0.24951662 -0.0013777049
0.083211228 -0.00056447537 0.083199665 -0.00047010864 0.083150767 -0.00079624675 0.083185956 -0.00069105503
0.083157234 -0.00061529531 0.08316569 -0.00054224877 0.24950057 -0.0013293618 0.25128868 0.005104925
397000 0.25139707 0.0038508025 0.24961877 -0.00091473339 0.083272777 -0.00061229535 0.083277658 -0.00050408597
0.083262391 -0.00050641026 0.083256565 -0.00049991632 0.083283715 -0.00042946945 0.083311349 -0.00042315738
0.24969167 -0.00084022473 0.2513819 0.0035841989 0.083259799 -0.00056274596 0.083244137 -0.00044519574
0.083227962 -0.00048523283 0.083227031 -0.00045957346 0.083255067 -0.0003884687 0.083279282 -0.00037218293
0.083227232 -0.00058308232 0.083233431 -0.00054184732 0.25131196 0.004491102 0.24958484 -0.00083837222
0.083225496 -0.00043679203 0.083201349 -0.00044609985 0.083213739 -0.00077417406 0.083242968 -0.00071821391
0.083227307 -0.00047275794 0.083237819 -0.00042788539 0.24964616 -0.00077636406 0.2513375 0.0041192183
0.08323352 -0.00037634885 0.083205454 -0.00038005688 0.083215758 -0.00068377028 0.083246283 -0.00063215115
0.083207272 -0.00052170898 0.083220415 -0.00050216028 0.083190739 -0.00046841314 0.08320649 -0.00040030011
0.25135872 0.0040346831 0.24947974 -0.0012259143 0.083212368 -0.00056124252 0.083227508 -0.000528523
0.08323887 -0.00050555466 0.083245926 -0.00047644202 0.083222285 -0.00047681734 0.08323364 -0.00041042245
0.24960855 -0.0011469668 0.25130758 0.0035706265 0.083252423 -0.0004931608 0.083255932 -0.00045552186
0.083176188 -0.00042086185 0.083167523 -0.00038217026 0.083136283 -0.00077450718 0.083145708 -0.00070061727
0.083137698 -0.00053273002 0.083136342 -0.00044998247 0.25138754 0.0043748668 0.24957763 -0.00083605014
0.083258376 -0.00043696925 0.083251067 -0.00038202122 0.083223417 -0.00074236369 0.083230272 -0.00067046046
0.083223812 -0.00053058588 0.083218478 -0.00045283404 0.2496192 -0.00082514028 0.25115496 0.0040639299
494000 0.25132337 0.0032561533 0.24962303 -0.00057890057 0.083303206 -0.00057979941 0.083282486 -0.00048955757
0.08328224 -0.00047290666 0.083275557 -0.00046930916 0.083302982 -0.00037391621 0.083326235 -0.00037826182
0.24971946 -0.00050683552 0.2513079 0.0029960137 0.083282582 -0.00053542602 0.083255984 -0.00043444656
0.083249249 -0.00045834878 0.083246037 -0.00044301251 0.083276384 -0.00034013536 0.083297677 -0.00033401776
0.083250724 -0.00056296319 0.083250552 -0.0005235899 0.25124699 0.0038775473 0.24958996 -0.00046778269
0.083241776 -0.00036252773 0.08322446 -0.00039486613 0.083228171 -0.00078794459 0.083257973 -0.0007284059
0.083245546 -0.00046840048 0.083254807 -0.00041832618 0.24967889 -0.00040224238 0.25127611 0.0035513348
0.083243422 -0.00032627393 0.083221793 -0.00034871566 0.083236851 -0.00071547384 0.083255984 -0.00066871231
0.083234377 -0.00047647674 0.083229847 -0.00047384994 0.083223432 -0.00038578559 0.083220825 -0.00034575674
0.25126928 0.0033908729 0.24949905 -0.00089672761 0.083238862 -0.00052573206 0.083250463 -0.00050341437
0.083256297 -0.0004747088 0.083254553 -0.00044700431 0.083249606 -0.00040567495 0.083246648 -0.00037254125
0.24962786 -0.00079068093 0.25122815 0.0030186609 0.083268695 -0.00043574488 0.083272636 -0.00040792255
0.083192065 -0.00037158068 0.08318422 -0.00034470443 0.083157934 -0.000796946 0.083160229 -0.00073805847
0.083165511 -0.00050717697 0.08315789 -0.00042503717 0.2513006 0.003739191 0.24960412 -0.00045980775
0.083286338 -0.00038299145 0.083271734 -0.00034977085 0.083240815 -0.00075011008 0.083247945 -0.00069440005
0.083243571 -0.00049038214 0.083242975 -0.0004233825 0.24965397 -0.00045153117 0.2510727 0.0034917295
591000 0.25128093 0.0028923156 0.24963316 -0.00030373357 0.083316401 -0.00058007688 0.083301902 -0.00049209414
0.083299071 -0.00045622716 0.083290294 -0.00046540503 0.083319932 -0.00034848848 0.08333917 -0.00035478771
0.24972887 -0.00023926763 0.2512641 0.0026334655 0.083288416 -0.0005445733 0.083271138 -0.00044532953
0.083259486 -0.00045386903 0.083261415 -0.00044672925 0.083283909 -0.0003163252 0.08330176 -0.00031998029
0.083260767 -0.0005665631 0.083263516 -0.00051837048 0.25121033 0.0035296541 0.24960165 -0.00016646403
0.083249047 -0.00032270825 0.083240584 -0.00036788161 0.08324866 -0.00083002361 0.083269194 -0.00077314919
0.083259538 -0.00047883033 0.083260626 -0.00042537169 0.24970348 -0.00011081083 0.25123346 0.0032148883
0.083251193 -0.00029857276 0.083228618 -0.00034122338 0.083246373 -0.00077563175 0.083264917 -0.00071882177
0.083241306 -0.00046602654 0.083241373 -0.00047193782 0.083235815 -0.00034323512 0.0832249 -0.00031856901
0.25121439 0.0029872514 0.24951619 -0.00064519653 0.083246507 -0.00051831617 0.083262004 -0.00049590343
0.083263136 -0.00046577686 0.08326488 -0.00044668853 0.083258189 -0.00037498324 0.083249092 -0.00035537366
0.24964316 -0.00052505318 0.25118878 0.0026936063 0.08327584 -0.00041207697 0.083284646 -0.00040018981
0.083212674 -0.00034862576 0.083203532 -0.00032855343 0.083176374 -0.00084448699 0.083168022 -0.00079471845
0.083169676 -0.00050233729 0.083172649 -0.00042359042 0.25125912 0.0033565974 0.24961251 -0.00016238216
0.083295859 -0.00036588157 0.083279356 -0.00032825174 0.083261676 -0.00078934926 0.083252549 -0.00074137689
0.08325813 -0.00048963149 0.083262533 -0.00041179438 0.24968159 -0.00013468043 0.25103351 0.0031561293
688000 0.25124893 0.0026584836 0.24964367 -8.1304686e-005 0.083322607 -0.00059084251 0.083304338 -0.00052243518
0.08330828 -0.00045586724 0.08329609 -0.0004726701 0.08333566 -0.00032880064 0.083353378 -0.00034368192
0.24973582 -2.6860836e-005 0.25123662 0.0024065336 0.083303675 -0.0005617821 0.083274893 -0.00046709407
0.08326555 -0.00046883844 0.083267853 -0.00046156166 0.083291098 -0.00030548772 0.083316147 -0.00031376409
0.083270364 -0.00058321189 0.083267383 -0.00053774082 0.25119033 0.003317096 0.24960643 8.3734602e-005
0.083264038 -0.00030090334 0.083249889 -0.00035774944 0.083254203 -0.00088681962 0.08327619 -0.00082467985
0.083260842 -0.00049974804 0.083263002 -0.00044684182 0.24971196 0.00015113904 0.25122216 0.0030098136
0.083259113 -0.00027940708 0.083232939 -0.00034106922 0.083247006 -0.00083982549 0.08326523 -0.00078405166
0.083251677 -0.00046937659 0.08325249 -0.00047763885 0.083245099 -0.00031797169 0.083229676 -0.00030005589
0.25119209 0.0027385314 0.24953413 -0.00043807566 0.083255157 -0.00052066304 0.083268568 -0.00050758896
0.08326827 -0.00047719546 0.083279066 -0.00045706471 0.083264038 -0.00035995629 0.083254263 -0.00035091038
0.24966234 -0.00032333194 0.2511647 0.0024766859 0.083281718 -0.00040823428 0.083294377 -0.00039761481
0.083219863 -0.00034171779 0.083206549 -0.00031403339 0.083181709 -0.00090586796 0.083172724 -0.00087091973
0.08317738 -0.00051689224 0.083177879 -0.00042353186 0.25123781 0.0031261754 0.24962983 8.2935854e-005
0.083305091 -0.00035517776 0.083293237 -0.0003241497 0.083269186 -0.00084315357 0.08326146 -0.00081319263
0.083266273 -0.00049951294 0.08326482 -0.00041953119 0.24969348 0.00012001441 0.25099903 0.002942451
785000 0.25123364 0.002503789 0.24964829 0.00010757877 0.083328187 -0.00061803142 0.083303683 -0.00054596196
0.083314247 -0.00046396791 0.083302818 -0.00049589935 0.083332576 -0.00031990543 0.083358809 -0.00034794607
0.24974672 0.00016593267 0.25123063 0.0022499727 0.083302632 -0.00058134366 0.083277866 -0.00049263926
0.083270997 -0.00048337513 0.083270967 -0.00048716346 0.083297655 -0.0003038971 0.083317555 -0.00032585138
0.08327499 -0.00061111979 0.083275653 -0.00057416351 0.25117967 0.0031991729 0.24961449 0.00029431673
0.083264992 -0.0002840404 0.083251022 -0.00035523222 0.083258457 -0.00095721404 0.08328446 -0.00089404953
0.083268829 -0.00052502751 0.083269715 -0.00047894116 0.24972357 0.00037718358 0.25120071 0.0029021746
0.083254993 -0.00027135713 0.08324255 -0.00034868144 0.083246514 -0.0009156926 0.083273664 -0.00085308886
0.08325889 -0.00047954288 0.083248094 -0.0004961408 0.083250605 -0.00030083614 0.08323098 -0.00030541184
0.25117189 0.0025657415 0.24953577 -0.00027964145 0.083252296 -0.00054132997 0.083266549 -0.00052913307
0.083271414 -0.00048730441 0.083278731 -0.00048054653 0.083277673 -0.00035253016 0.083258629 -0.00035739079
0.2496679 -0.0001470126 0.25115657 0.0023531688 0.083285786 -0.00041776214 0.083299391 -0.00041064934
0.083218351 -0.00033610201 0.083214894 -0.00031752727 0.083185703 -0.00097525347 0.083170064 -0.00094553444
0.083187036 -0.00053181901 0.083188489 -0.00043148824 0.25121668 0.003004947 0.2496385 0.00030443145
0.083309665 -0.0003540224 0.083298303 -0.00032920873 0.083268471 -0.00089787022 0.083254285 -0.00088141585
0.083278909 -0.00052094006 0.083275326 -0.00043182398 0.2496988 0.00035043148 0.25097743 0.0028186485
882000 0.2512207 0.0023911453 0.24965183 0.00028564743 0.083334118 -0.00064819661 0.083309621 -0.00058155128
0.083317026 -0.00048197352 0.083308697 -0.00051882025 0.083336294 -0.0003254191 0.083357804 -0.000344492
0.24974573 0.00033178905 0.25122416 0.0021601822 0.083310209 -0.0006121592 0.083278216 -0.00053061976
0.083279267 -0.00050809898 0.083279759 -0.00051831757 0.083308667 -0.00031060717 0.08332777 -0.00032011099
0.083276756 -0.00064587704 0.083276607 -0.00060609297 0.25117263 0.0031418556 0.24961403 0.00049837382
0.083273336 -0.00028045214 0.083255231 -0.00035866254 0.083261691 -0.0010307176 0.083283521 -0.00096268096
0.08326818 -0.00055922754 0.08327537 -0.00051019085 0.24972898 0.00058542518 0.25120506 0.0028408424
0.083260715 -0.0002715915 0.083242737 -0.00035830031 0.083245069 -0.00099344272 0.083269268 -0.00092621276
0.083260521 -0.00049631111 0.083252862 -0.00052238535 0.083256468 -0.00029340893 0.083243407 -0.00029975941
0.25115418 0.0024573789 0.24954376 -0.00013499109 0.083255827 -0.00056551944 0.083270624 -0.00055782229
0.083276577 -0.000512033 0.083279721 -0.00050987938 0.083280474 -0.00035345255 0.083265252 -0.00036948439
0.2496741 9.9769422e-006 0.25114885 0.0022706843 0.083284535 -0.00042819639 0.083297901 -0.00043036119
0.083223999 -0.00034027154 0.08322084 -0.000329712 0.083190709 -0.0010528646 0.083174579 -0.0010259225
0.083188877 -0.00055708678 0.083185494 -0.00044620893 0.25120717 0.0029354882 0.24964349 0.00050727325
0.08331272 -0.00036760792 0.083303407 -0.00033671857 0.083279565 -0.0009766873 0.083261602 -0.00096204644
0.083279014 -0.00055024691 0.083275296 -0.0004543312 0.24970669 0.00055332138 0.2509734 0.0027668057
979000 0.25121775 0.0023355559 0.24964191 0.00044204324 0.083332248 -0.00068106432 0.083310813 -0.00061483163
0.083322845 -0.00050550868 0.083313294 -0.0005506486 0.083338238 -0.00032652551 0.08335939 -0.00035695088
0.24974413 0.00048410072 0.25121635 0.0020935165 0.083308131 -0.00064794789 0.08327686 -0.00055982871
0.083277747 -0.00053329417 0.083281167 -0.00054919167 0.083304219 -0.00031646021 0.083329678 -0.0003380439
0.083283685 -0.00068355899 0.083284244 -0.00064064865 0.25117043 0.003128197 0.24961823 0.00067767262
0.083276577 -0.00027050616 0.083260901 -0.00036451852 0.083258957 -0.0011138496 0.083278976 -0.0010371244
0.083266117 -0.00059024309 0.083268411 -0.00053931912 0.24972574 0.00077762274 0.25121287 0.002816994
0.083260879 -0.00027340415 0.083242573 -0.00037338692 0.083246768 -0.0010752277 0.083266951 -0.0010159534
0.083265617 -0.00052655488 0.083256848 -0.00055620994 0.083263047 -0.00028797239 0.083240271 -0.00030688365
0.2511574 0.0023834109 0.24954356 -7.322064e-006 0.083259225 -0.00059058121 0.083265632 -0.00058193051
0.083276033 -0.00053654396 0.083286569 -0.0005346745 0.083281405 -0.00035426451 0.083262026 -0.0003882217
0.24967261 0.00014126567 0.25115323 0.0022243902 0.083290331 -0.0004491423 0.083301947 -0.00044592516
0.083221443 -0.00034759726 0.08322227 -0.00033405729 0.083191678 -0.001128906 0.083166175 -0.0011123691
0.083193094 -0.00057876634 0.08318463 -0.00046522415 0.25120723 0.0029157824 0.24963671 0.00068830012
0.083313845 -0.00038252262 0.083309568 -0.00035163062 0.083281137 -0.0010510456 0.083267152 -0.0010376027
0.083281882 -0.00057847012 0.083285533 -0.00047138534 0.24971701 0.00074085104 0.25097281 0.0027409103
1076000 0.25122055 0.0022991316 0.24964596 0.00059391634 0.083336174 -0.00072772492 0.083307676 -0.00065178942
0.083324574 -0.00052693341 0.083310068 -0.00057839736 0.083338395 -0.00032724027 0.083364248 -0.00036731592
0.24975558 0.000634556 0.2512182 0.0020647268 0.083309911 -0.00068784627 0.083277956 -0.00059423374
0.083280183 -0.00056802743 0.083285108 -0.00058202998 0.083307162 -0.00031951952 0.08333201 -0.0003570652
0.083278701 -0.00072558812 0.083279952 -0.00068185956 0.25118273 0.003148535 0.24961722 0.00085583603
0.083274536 -0.00027146057 0.083265178 -0.00038221828 0.083254419 -0.0011897617 0.083284795 -0.0011154118
0.083268858 -0.00063201506 0.083269931 -0.0005684839 0.24973227 0.00096337526 0.25120935 0.0028182368
0.083260059 -0.00027574488 0.083246209 -0.00039679234 0.083237395 -0.0011532133 0.083269119 -0.0010896946
0.083263151 -0.00054322253 0.083251312 -0.00058020937 0.083260253 -0.00028893241 0.083236136 -0.00030838026
0.25115097 0.0023414884 0.24954881 0.00010853513 0.083258405 -0.00061449368 0.083273865 -0.00061759277
0.083278507 -0.00056801894 0.083284266 -0.00056427554 0.083278202 -0.00037052741 0.083262965 -0.00039767195
0.24967507 0.00026037468 0.25115031 0.0022090229 0.083282553 -0.00046445031 0.083296135 -0.00046868238
0.083225414 -0.00035384981 0.083223924 -0.00033930788 0.083188482 -0.0012144324 0.083167367 -0.0012036671
0.083191909 -0.00061413849 0.08319018 -0.00049223582 0.2512143 0.0029150795 0.24964558 0.00086119055
0.083314352 -0.0003943076 0.083307452 -0.00036369078 0.083279423 -0.0011258315 0.083255976 -0.0011235743
0.0832849 -0.00060805154 0.083282992 -0.0005006459 0.24971102 0.00092489552 0.25097561 0.0027443992
1173000 0.2512134 0.0022788148 0.2496457 0.0007352581 0.083336614 -0.00076762016 0.08331003 -0.00069503003
0.083321437 -0.00055576151 0.083311521 -0.00060881983 0.083340786 -0.0003439821 0.083369471 -0.00038945122
0.24975002 0.00077630847 0.2512258 0.0020466214 0.083307035 -0.00073855347 0.083274782 -0.00063601375
0.083280332 -0.00060091208 0.083283 -0.00061872642 0.083305545 -0.00034111759 0.083330728 -0.00037507841
0.083280951 -0.00077065959 0.083285049 -0.00071856391 0.25118917 0.0031885353 0.24961519 0.0010267136
0.083277896 -0.00027354792 0.08326868 -0.0003940883 0.083257325 -0.0012772309 0.083283842 -0.0011979594
0.083264098 -0.00067306485 0.083269246 -0.00060361699 0.24972783 0.0011365057 0.25121683 0.002859215
0.083260901 -0.00028002122 0.083242401 -0.00041337908 0.083236463 -0.0012413171 0.083263971 -0.001174377
0.083266355 -0.00058106321 0.083258688 -0.00060991244 0.083262861 -0.00028910706 0.083238691 -0.0003122201
0.2511493 0.0023130393 0.24955024 0.00021297266 0.083257608 -0.00065336615 0.083272964 -0.00065429846
0.08327473 -0.00059982284 0.083283544 -0.00059877732 0.083283365 -0.00037765235 0.083253816 -0.00041751011
0.24967673 0.00037187294 0.25116023 0.0022174839 0.083284453 -0.00048888323 0.0832932 -0.00049621076
0.08323162 -0.00036852283 0.083226532 -0.00035454065 0.083188266 -0.0012986215 0.083165288 -0.001283563
0.083191268 -0.00065349595 0.083189167 -0.00051630859 0.25122437 0.0029476264 0.24965127 0.0010346592
0.083318301 -0.00041618152 0.083304211 -0.000380171 0.083275981 -0.0012142817 0.083257876 -0.0012032347
0.083283059 -0.00064453523 0.083282024 -0.00052448694 0.24971336 0.0010925083 0.25097561 0.0027675251
1270000 0.25122672 0.0022874309 0.24963902 0.0008692444 0.083336145 -0.00081629021 0.083309449 -0.00073471945
0.08332549 -0.00058101333 0.083309464 -0.00064837112 0.083342545 -0.00034861043 0.083365656 -0.00040427712
0.2497521 0.00090848497 0.25124928 0.0020442768 0.083306096 -0.00077850401 0.083271652 -0.00067021133
0.083281346 -0.00063526735 0.083276682 -0.0006654652 0.083312146 -0.00035119045 0.083334066 -0.00039237179
