!Agilent Technologies,M9370A,MY54322275,A.02.50.04
!Agilent M9370A: A.02.50.04
!Date: Friday, April 06, 2018 13:59:06
!Correction: S11(Full 8 Port(1,2,3,4,5,6,7,8)) 
!S12(Full 8 Port(1,2,3,4,5,6,7,8)) 
!S13(Full 8 Port(1,2,3,4,5,6,7,8)) 
!S14(Full 8 Port(1,2,3,4,5,6,7,8)) 
!S15(Full 8 Port(1,2,3,4,5,6,7,8)) 
!S16(Full 8 Port(1,2,3,4,5,6,7,8)) 
!S17(Full 8 Port(1,2,3,4,5,6,7,8)) 
!S18(Full 8 Port(1,2,3,4,5,6,7,8)) 
!S21(Full 8 Port(1,2,3,4,5,6,7,8)) 
!S22(Full 8 Port(1,2,3,4,5,6,7,8)) 
!S23(Full 8 Port(1,2,3,4,5,6,7,8)) 
!S24(Full 8 Port(1,2,3,4,5,6,7,8)) 
!S25(Full 8 Port(1,2,3,4,5,6,7,8)) 
!S26(Full 8 Port(1,2,3,4,5,6,7,8)) 
!S27(Full 8 Port(1,2,3,4,5,6,7,8)) 
!S28(Full 8 Port(1,2,3,4,5,6,7,8)) 
!S31(Full 8 Port(1,2,3,4,5,6,7,8)) 
!S32(Full 8 Port(1,2,3,4,5,6,7,8)) 
!S33(Full 8 Port(1,2,3,4,5,6,7,8)) 
!S34(Full 8 Port(1,2,3,4,5,6,7,8)) 
!S35(Full 8 Port(1,2,3,4,5,6,7,8)) 
!S36(Full 8 Port(1,2,3,4,5,6,7,8)) 
!S37(Full 8 Port(1,2,3,4,5,6,7,8)) 
!S38(Full 8 Port(1,2,3,4,5,6,7,8)) 
!S41(Full 8 Port(1,2,3,4,5,6,7,8)) 
!S42(Full 8 Port(1,2,3,4,5,6,7,8)) 
!S43(Full 8 Port(1,2,3,4,5,6,7,8)) 
!S44(Full 8 Port(1,2,3,4,5,6,7,8)) 
!S45(Full 8 Port(1,2,3,4,5,6,7,8)) 
!S46(Full 8 Port(1,2,3,4,5,6,7,8)) 
!S47(Full 8 Port(1,2,3,4,5,6,7,8)) 
!S48(Full 8 Port(1,2,3,4,5,6,7,8)) 
!S51(Full 8 Port(1,2,3,4,5,6,7,8)) 
!S52(Full 8 Port(1,2,3,4,5,6,7,8)) 
!S53(Full 8 Port(1,2,3,4,5,6,7,8)) 
!S54(Full 8 Port(1,2,3,4,5,6,7,8)) 
!S55(Full 8 Port(1,2,3,4,5,6,7,8)) 
!S56(Full 8 Port(1,2,3,4,5,6,7,8)) 
!S57(Full 8 Port(1,2,3,4,5,6,7,8)) 
!S58(Full 8 Port(1,2,3,4,5,6,7,8)) 
!S61(Full 8 Port(1,2,3,4,5,6,7,8)) 
!S62(Full 8 Port(1,2,3,4,5,6,7,8)) 
!S63(Full 8 Port(1,2,3,4,5,6,7,8)) 
!S64(Full 8 Port(1,2,3,4,5,6,7,8)) 
!S65(Full 8 Port(1,2,3,4,5,6,7,8)) 
!S66(Full 8 Port(1,2,3,4,5,6,7,8)) 
!S67(Full 8 Port(1,2,3,4,5,6,7,8)) 
!S68(Full 8 Port(1,2,3,4,5,6,7,8)) 
!S71(Full 8 Port(1,2,3,4,5,6,7,8)) 
!S72(Full 8 Port(1,2,3,4,5,6,7,8)) 
!S73(Full 8 Port(1,2,3,4,5,6,7,8)) 
!S74(Full 8 Port(1,2,3,4,5,6,7,8)) 
!S75(Full 8 Port(1,2,3,4,5,6,7,8)) 
!S76(Full 8 Port(1,2,3,4,5,6,7,8)) 
!S77(Full 8 Port(1,2,3,4,5,6,7,8)) 
!S78(Full 8 Port(1,2,3,4,5,6,7,8)) 
!S81(Full 8 Port(1,2,3,4,5,6,7,8)) 
!S82(Full 8 Port(1,2,3,4,5,6,7,8)) 
!S83(Full 8 Port(1,2,3,4,5,6,7,8)) 
!S84(Full 8 Port(1,2,3,4,5,6,7,8)) 
!S85(Full 8 Port(1,2,3,4,5,6,7,8)) 
!S86(Full 8 Port(1,2,3,4,5,6,7,8)) 
!S87(Full 8 Port(1,2,3,4,5,6,7,8)) 
!S88(Full 8 Port(1,2,3,4,5,6,7,8)) 
!S8P File: Measurements: <S11,S12,S13,S14,S15,S16,S17,S18>,
!<S21,S22,S23,S24,S25,S26,S27,S28>,
!<S31,S32,S33,S34,S35,S36,S37,S38>,
!<S41,S42,S43,S44,S45,S46,S47,S48>,
!<S51,S52,S53,S54,S55,S56,S57,S58>,
!<S61,S62,S63,S64,S65,S66,S67,S68>,
!<S71,S72,S73,S74,S75,S76,S77,S78>,
!<S81,S82,S83,S84,S85,S86,S87,S88>:
# Hz S  RI   R 50
1000000 0.25269982 0.054527242 0.24571997 0.0079190265 0.080827892 0.0040854467 0.080679983 0.0040914714
0.080820702 0.0041610547 0.08108224 0.0041822786 0.081206694 0.0043490864 0.081992984 0.0041284817
0.24552822 0.0078578237 0.25163102 0.053039197 0.08077082 0.0041498239 0.080623657 0.0041796346
0.080800675 0.004126227 0.080836914 0.004197333 0.080961645 0.0043678745 0.080940776 0.0042223758
0.080723666 0.0041175149 0.080668353 0.0042368844 0.25193331 0.056442495 0.244645 0.007902747
0.080680147 0.0041619493 0.080362 0.004156651 0.080929384 0.0040637446 0.08069507 0.0040153079
0.080796391 0.0042294976 0.080746278 0.0043634577 0.24509712 0.0082786717 0.25198469 0.056157012
0.080638446 0.0042369366 0.080405951 0.0042152787 0.080876879 0.004184389 0.081266664 0.004072926
0.080785535 0.0042833625 0.080739744 0.0043029082 0.080656901 0.0042803534 0.080567658 0.0042469227
0.25342295 0.060161449 0.24444169 0.0070567778 0.080369003 0.0042444728 0.080432326 0.0041829771
0.080681123 0.0043662377 0.080624253 0.0044156788 0.080569312 0.0042915386 0.080483772 0.0042417906
0.24515747 0.0071521867 0.25109628 0.055717185 0.080609314 0.0044290056 0.080538273 0.0043820566
0.080602832 0.0042865197 0.080510244 0.0043669473 0.08046189 0.0040066303 0.08037208 0.0039957855
0.080574922 0.0040492322 0.080257155 0.0042420421 0.25212014 0.058021788 0.24445538 0.0079250857
0.08065974 0.0042003826 0.080568224 0.0042887023 0.080518715 0.0040156776 0.080431879 0.0039993348
0.08063595 0.0040732687 0.080315672 0.0042628483 0.24477385 0.008278056 0.25136822 0.058122952
1499499.4994995 0.25133809 0.0058446564 0.24982625 0.0020840899 0.083211124 0.000363545 0.083168864 0.00041114565
0.083277285 0.00084657839 0.083141595 0.00061407516 0.083271407 0.00065575878 0.083243422 0.0005634884
0.24974683 0.0020413145 0.25126943 0.0053696246 0.083185092 0.00036981291 0.083136573 0.00043600868
0.083234407 0.0007014515 0.083099917 0.00050931936 0.083245166 0.0005839761 0.083219498 0.00048977789
0.083178736 0.0003455226 0.083174877 0.00037942894 0.25129741 0.006365695 0.24973901 0.0024619896
0.083253071 0.00082312821 0.083110221 0.00048434659 0.083217867 0.00019975759 0.083167389 0.0002376906
0.083174281 0.00038068756 0.083188929 0.00043453847 0.24984387 0.0024905899 0.25130484 0.0060817455
0.083268821 0.00079976238 0.083118387 0.00043324116 0.08323101 0.00021114477 0.083193347 0.0002448133
0.083290659 0.00079088792 0.08327321 0.0006791958 0.083259985 0.00080383907 0.083237477 0.00078266492
0.25172094 0.0071508689 0.24992871 0.0019132961 0.083347805 0.0006247792 0.083308592 0.00068873417
0.083154641 0.00058547041 0.083159745 0.00050193188 0.08313223 0.00048943539 0.083109908 0.00043950582
0.24988283 0.0020382309 0.25088063 0.0056490805 0.083228484 0.00061226462 0.083188333 0.00066972483
0.083127283 0.00056236866 0.083107941 0.00053127366 0.083074689 0.00014794737 0.083050035 0.00016722083
0.083165951 0.0006063683 0.083045773 0.00056869944 0.25109902 0.0063015078 0.24970928 0.002557162
0.083181791 0.00049682654 0.083161026 0.00046486963 0.083129533 0.00021113282 0.083105274 0.00022512861
0.083218686 0.00069600623 0.083108723 0.00065571791 0.24992235 0.002716803 0.25076258 0.0061594099
1998998.998999 0.25132754 0.0064159995 0.24979118 0.0026278351 0.083228149 0.00038574424 0.08319962 0.0004344497
0.083261758 0.00088584929 0.08317937 0.00075845222 0.083297849 0.00076017616 0.083253324 0.00062192301
0.24970762 0.0025146001 0.25121576 0.0059980061 0.083194971 0.00041543026 0.083159804 0.00048508815
0.083203793 0.00072071928 0.083133653 0.00063190394 0.08326187 0.00068099931 0.083220482 0.00054380886
0.083220124 0.00038015679 0.083214417 0.00045937119 0.25128141 0.0070844176 0.24974298 0.0029546444
0.083238423 0.00085871399 0.083161756 0.00059203716 0.083252117 0.00016203229 0.083187744 0.00019749999
0.083230697 0.00044189228 0.083225086 0.00055240828 0.24983591 0.0030765699 0.25133172 0.006656195
0.083250239 0.00085327023 0.083172292 0.00054070738 0.083264284 0.00019252428 0.083204307 0.000220748
0.083382942 0.00086608325 0.083358072 0.00075552537 0.083339088 0.00086876377 0.083324619 0.00083786098
0.25171551 0.0071167937 0.25006321 0.0019958403 0.083426952 0.00061472837 0.083374254 0.0006847771
0.083197534 0.00078770274 0.083206132 0.00071867509 0.083164692 0.00064732716 0.083147101 0.00057473872
0.24970582 0.0022052426 0.25089741 0.006408459 0.083256431 0.00079705898 0.083209395 0.00085959857
0.083164386 0.00067287346 0.083149053 0.00065797678 0.083102144 0.00010640631 0.083084404 0.00011483871
0.083150409 0.00057254802 0.083100654 0.00069867505 0.2511158 0.0070080999 0.24965268 0.0030237846
0.083207875 0.0005943171 0.083195001 0.00057739165 0.083154581 0.00019540769 0.083137199 0.00020144923
0.08320152 0.00069552968 0.08315295 0.00081973901 0.24990679 0.0032799845 0.25067192 0.0066513559
2498498.4984985 0.25145912 0.0028678069 0.25003442 0.001286219 0.083350971 -0.00032387997 0.083307475 -0.00026580691
0.083388597 0.00020301936 0.083332658 0.00014942478 0.083412424 0.00013440297 0.083351173 -3.8617542e-005
0.24992487 0.0012097552 0.25138777 0.0025419111 0.083310872 -0.00024747135 0.083262019 -0.00016389447
0.083311185 4.0489478e-005 0.083291478 2.6449812e-005 0.083368242 7.7653684e-005 0.083311118 -0.00010045084
0.083337493 -0.00035895029 0.083341762 -0.00024910443 0.25113571 0.0034333575 0.24998611 0.001526545
0.083358631 0.00014249403 0.083310246 -9.2457492e-005 0.083363973 -0.00064816239 0.083298966 -0.00060334918
0.08329919 -0.00021419078 0.083300889 -7.0827533e-005 0.24998142 0.00188821 0.25133064 0.0031045615
0.083272524 0.00020263872 0.083261922 -8.7718458e-005 0.083322585 -0.00053905201 0.0832735 -0.00050477032
0.083228201 0.00020846506 0.083204515 7.6262368e-005 0.083190776 0.00021607088 0.083163306 0.00015672158
0.25092632 0.0030593155 0.24950282 0.00024840247 0.083231576 -0.00011369456 0.083186552 -2.7145445e-005
0.083301172 0.00020571923 0.083313853 0.00011156907 0.083271928 2.4449029e-005 0.083243445 -8.4473366e-005
0.24987228 0.00048613423 0.25108221 0.0027610532 0.083354585 0.00019880998 0.083295226 0.00027460419
0.08328639 1.1968295e-006 0.083276883 -1.3462277e-005 0.083226532 -0.00071796053 0.083193295 -0.00071210915
0.083266206 -0.00022654211 0.083243772 2.7702941e-005 0.25121164 0.0032794054 0.24984311 0.0015868229
0.083329745 -9.77702e-005 0.083323739 -0.00011799855 0.083277479 -0.00061060971 0.083246201 -0.00061406224
0.0833195 -7.6237055e-005 0.083296955 0.00017676562 0.25014833 0.0018720332 0.250734 0.0027594808
2997997.997998 0.25149482 0.0037805615 0.25000182 0.0020272713 0.083360255 -0.00023321414 0.083339281 -0.00017509681
0.083393291 0.00041167211 0.083333589 0.00033809181 0.083413765 0.00031595526 0.083363988 7.5599928e-005
0.24991071 0.0019069531 0.25142974 0.0034524621 0.083322331 -0.00014170387 0.08329533 -5.36851e-005
0.08331424 0.00021484886 0.083296441 0.00018592934 0.083373331 0.00024312407 0.083327763 -2.2329665e-007
0.083353706 -0.00027217763 0.083350956 -0.00013004844 0.25146657 0.0045414558 0.25005975 0.0022445733
0.083367661 0.00033964595 0.08331196 5.1499759e-005 0.083370432 -0.00061693467 0.083317578 -0.00060590141
0.083318271 -0.00010232874 0.083321348 8.1033475e-005 0.25003779 0.0026515268 0.25152233 0.0039841323
0.08327122 0.00040560251 0.083274566 4.8674319e-005 0.083336212 -0.00049486401 0.083303228 -0.00049396453
0.083323263 0.00030810313 0.083287761 0.0001622643 0.083282851 0.00030151574 0.083272114 0.00023517611
0.25122184 0.003660274 0.24969685 0.00045749848 0.083304256 -8.3592684e-005 0.083277881 -1.4240526e-005
0.083311819 0.00044542298 0.083330326 0.00034554451 0.08329089 0.00021646077 0.083274342 9.123249e-005
0.24985121 0.0011726794 0.25116104 0.0037981269 0.083365843 0.00042872847 0.083315335 0.00049119559
0.083293423 0.00017462116 0.083287522 0.00015810726 0.083237387 -0.0007080494 0.083220489 -0.00070148107
0.083272986 -9.3173039e-005 0.083244406 0.00020022706 0.25126889 0.0043684114 0.24985361 0.0022383931
0.083310597 7.0765243e-005 0.083307378 4.9333161e-005 0.08326339 -0.00055911025 0.083252192 -0.00056163908
0.083299883 0.00010700015 0.083274856 0.00039660986 0.25005358 0.0027712188 0.25072598 0.0036009217
3497497.4974975 0.25158426 0.0035337231 0.25018182 0.0022415644 0.083439052 -0.0003274359 0.083389401 -0.00027043174
0.083478004 0.00038069932 0.083417073 0.00032733715 0.083496936 0.00031006683 0.083422758 1.3126685e-005
0.2500124 0.0021230702 0.25148469 0.003200257 0.083374679 -0.00021604862 0.083320521 -0.00011606016
0.083370663 0.00016629999 0.083369948 0.0001555842 0.083430491 0.00023196907 0.083359212 -6.9434645e-005
0.083424278 -0.000394292 0.08343111 -0.00022395751 0.25158495 0.0044253739 0.25013566 0.0024951377
0.083440118 0.0002986005 0.083387747 -1.2914193e-005 0.083440535 -0.000783408 0.083372086 -0.00078331283
0.08336243 -0.00016299705 0.083369069 5.2516596e-005 0.25009647 0.0030547297 0.2514115 0.0038342164
0.083374262 0.00040462616 0.083319299 1.8536581e-005 0.083376266 -0.00060639501 0.083306074 -0.00061959226
0.083271533 0.00056804821 0.083235949 0.00042698634 0.083227366 0.00057289295 0.083185412 0.00050587847
0.25090125 0.0041172118 0.24945939 0.0012474593 0.083283268 0.00013504041 0.083206721 0.00020215016
0.083358131 0.00044775422 0.083385408 0.00035091708 0.083335184 0.00018362049 0.083291776 4.9603834e-005
0.24991517 0.001162954 0.25120297 0.0035107851 0.083413243 0.00045229809 0.083339758 0.00050601887
0.083375864 9.5113952e-005 0.083372936 8.1404003e-005 0.083312415 -0.00090881041 0.083267808 -0.00091372692
0.083346546 -0.00023406923 0.083328865 0.00014100394 0.25136906 0.004141117 0.24997066 0.0023899782
0.083381779 1.382469e-006 0.083383434 -2.2848903e-005 0.083327591 -0.00071785261 0.083287977 -0.00072943687
0.083364129 1.6992191e-005 0.083348505 0.00038970873 0.2502096 0.0030902363 0.25072458 0.0032818511
3996996.996997 0.25167501 0.0043585142 0.25025541 0.0029520032 0.083465554 -0.00024312262 0.083423659 -0.00017190646
0.083530836 0.0005775044 0.083448537 0.0005204347 0.083526157 0.00050954497 0.08346764 0.00019214762
0.25008941 0.0028534979 0.25158313 0.0040632421 0.083401836 -9.7854238e-005 0.083358712 1.6531627e-005
0.08341638 0.00034779619 0.0834013 0.00033326476 0.083461769 0.00043484883 0.083403245 0.00011301498
0.083449416 -0.0003151503 0.083457731 -0.00012235528 0.25160182 0.005339473 0.25012892 0.0032116321
0.083461091 0.00047859337 0.083392084 0.00011718644 0.083445318 -0.00074903853 0.083392821 -0.0007299523
0.083429366 -5.4282504e-005 0.083437845 0.00019058642 0.25019562 0.0038158153 0.25155321 0.0046500331
0.083440304 0.00059945957 0.083366796 0.00014894137 0.083424129 -0.00055041572 0.083370455 -0.00054455036
0.083325535 0.00063015055 0.083285242 0.00045623141 0.083259024 0.00063326699 0.083227456 0.00055519404
0.25093913 0.0044657388 0.24946204 0.0012983783 0.083311088 0.00014053268 0.083254039 0.00022578806
0.083424896 0.00075363624 0.083451048 0.00062395842 0.083379537 0.00044694543 0.083345957 0.00029154969
0.25002131 0.0019989964 0.25130197 0.0046109422 0.083455279 0.00075660204 0.083398871 0.00082475436
0.083419554 0.00029283582 0.083417654 0.00027601936 0.083337136 -0.00086993066 0.083299316 -0.00086322689
0.083390169 -8.6477041e-005 0.083357677 0.00033101044 0.25141165 0.0052342592 0.25004047 0.0032937103
0.083442383 0.00018667121 0.083443657 0.00015980935 0.083368383 -0.00064718933 0.083333455 -0.00065050664
0.083423167 0.0002041166 0.083395585 0.00062068214 0.25028655 0.0040545193 0.25086612 0.0042750156
4496496.4964965 0.25205928 0.0044224081 0.25046128 0.003098923 0.083582364 -0.00035849711 0.083544679 -0.00026102489
0.083656341 0.00059514429 0.08357022 0.00047561881 0.083654851 0.00046192107 0.083642758 0.00012293766
0.25033671 0.0030569942 0.25192052 0.0041755838 0.083518073 -0.00017152436 0.083476819 -2.4851799e-005
0.083537035 0.00036762652 0.083531097 0.00029161855 0.083592661 0.00040290056 0.083582863 5.7464484e-005
0.08353582 -0.00044951236 0.083532132 -0.00022655171 0.2520467 0.0055217147 0.25039116 0.0034029586
0.0835637 0.00047903412 0.083495647 2.0615513e-005 0.083550058 -0.00095866481 0.083545394 -0.00091447966
0.083525814 -7.2775838e-005 0.083524764 0.00020882134 0.25046256 0.0043265433 0.25196415 0.0050202333
0.083556779 0.00069953967 0.083479464 0.00014033078 0.083542287 -0.00065008097 0.083534956 -0.00062533555
0.083628893 0.00096664217 0.083572835 0.00077963027 0.08356902 0.0010007069 0.083537318 0.00089957408
0.25193104 0.0055722571 0.25025797 0.0021923634 0.083628312 0.00041947048 0.083615392 0.00053694093
0.08354073 0.00076349819 0.083562307 0.00061677082 0.083506465 0.00044465333 0.083473571 0.00025556891
0.25031686 0.0021104631 0.25173745 0.0046059592 0.083595917 0.00076831668 0.083584763 0.00086619373
0.083536386 0.00019427233 0.083525449 0.00016857838 0.083460256 -0.0011013992 0.08342579 -0.0010937245
0.083521619 -0.00018833182 0.083491884 0.00021962162 0.25190893 0.0052082068 0.25053856 0.0033617211
0.08353284 0.0001087551 0.083525695 7.4845375e-005 0.083472587 -0.00080896943 0.083440155 -0.00081571058
0.083529659 0.00017411001 0.083504148 0.00057952752 0.25057164 0.0042528622 0.25144663 0.0042691617
4995995.995996 0.25226882 0.0052304477 0.2506524 0.0037610868 0.083655015 -0.00028404826 0.083624013 -0.00018715489
0.083787836 0.00075102982 0.08365947 0.00066997571 0.083740607 0.00065864349 0.083708987 0.00028388921
0.2505497 0.0038044932 0.25212774 0.004951688 0.083601885 -6.3694155e-005 0.083564818 8.5715619e-005
0.083664291 0.00051468337 0.083626576 0.00047241859 0.083679527 0.00060981652 0.083653927 0.00022154642
0.083619148 -0.00039002998 0.083617598 -0.00016047014 0.25212845 0.0063415105 0.25047874 0.0040278598
0.083666272 0.00060917012 0.083553992 0.00014046663 0.083606735 -0.00094281917 0.083583221 -0.00089925836
0.083665371 4.4555669e-005 0.083664887 0.00034061747 0.25066844 0.0050856802 0.25218916 0.0057861116
0.083716393 0.00087126606 0.083602145 0.00028674304 0.083656348 -0.0005829818 0.08362826 -0.00055906357
0.083618104 0.0012247018 0.083562039 0.00099567825 0.083524831 0.001220072 0.083503544 0.001125026
0.25170359 0.0064206664 0.24991989 0.0027701433 0.083588153 0.00061732216 0.083556212 0.00072274805
0.083683185 0.0010835542 0.083709784 0.00089442718 0.083617225 0.00068508246 0.083589785 0.00049433939
0.25062999 0.0028868618 0.25195628 0.0056799492 0.08371494 0.0010943753 0.083681151 0.001171972
0.083636932 0.00035951493 0.083627738 0.00032212559 0.083526067 -0.001092921 0.083496988 -0.0010812003
0.083637185 -9.9805271e-005 0.083570674 0.00040240574 0.25203326 0.0062587825 0.25061125 0.0041803475
0.08366017 0.00030159613 0.083655678 0.00025714203 0.083564952 -0.00073674548 0.083539575 -0.00073992356
0.083676979 0.00033824996 0.083608747 0.00083866477 0.25077003 0.0052986345 0.25159186 0.0052686152
5495495.4954955 0.25268227 0.0059091724 0.25095773 0.0044132886 0.083812758 -0.00020470185 0.083770066 -0.00010991211
0.083867781 0.00098451483 0.08380793 0.00080373464 0.083913982 0.00081203325 0.083843388 0.00041468017
0.25081983 0.0044786297 0.25252643 0.0056189885 0.08375185 5.2396037e-005 0.083700173 0.0002058988
0.083739668 0.00073867221 0.083775312 0.00059460447 0.083850101 0.0007634522 0.083788104 0.000358905
0.083758436 -0.00038773191 0.083759867 -0.00011858423 0.25266114 0.0070172688 0.2508007 0.0045823269
0.083742574 0.00077026983 0.083698526 0.00018182755 0.083774604 -0.00099626253 0.083713725 -0.00092588179
0.083817989 0.00023027297 0.083827391 0.00057355047 0.25102293 0.0061545046 0.25261331 0.0067967414
0.083817042 0.0011972354 0.0837579 0.00047954687 0.083848245 -0.00046597709 0.08379253 -0.000412333
0.084152699 0.0014513656 0.08410161 0.001244968 0.084073991 0.0014789832 0.084034353 0.0013680684
0.25290734 0.0073749106 0.25122616 0.0034149897 0.084054001 0.00077894685 0.084022164 0.00096055877
0.083886877 0.0012365556 0.083923459 0.0010684928 0.0838314 0.00082629721 0.083788618 0.00060708984
0.25083005 0.0034362345 0.25248915 0.0062319352 0.083936185 0.001243611 0.083875559 0.0013945028
0.083774976 0.00041230928 0.083771825 0.00038722283 0.083674036 -0.0011817892 0.08362522 -0.0011676739
0.083706252 -6.7938941e-005 0.083710454 0.00044066581 0.25250152 0.0067083417 0.25088719 0.0047054249
0.083802171 0.00036251245 0.083809197 0.00032697243 0.083719045 -0.00077378371 0.083676502 -0.00077669689
0.083747245 0.00043465217 0.083756588 0.00093397102 0.2511431 0.0058385571 0.25198582 0.0058038388
5994994.994995 0.25310463 0.0066417065 0.25130177 0.0050445134 0.083982669 -0.000146324 0.083934031 -6.6626657e-005
0.084156021 0.0011299852 0.083998717 0.00097345887 0.084097721 0.00097046146 0.084058762 0.00055721757
0.25124165 0.0052933656 0.25288722 0.0064927526 0.083934374 0.00019185468 0.083880849 0.00033932558
0.084033079 0.0009243064 0.08398477 0.000803384 0.084055081 0.00097594317 0.084015712 0.00055403064
0.083884023 -0.00033638257 0.083873153 -6.0221708e-005 0.2528502 0.0078972876 0.25098184 0.0052063391
0.083955407 0.000920152 0.083824582 0.00028325646 0.083893612 -0.00099256448 0.083855756 -0.00090128963
0.084081635 0.00037547344 0.084071621 0.00073361275 0.2515198 0.0071075233 0.25312397 0.0076953624
