!Agilent Technologies,M9370A,MY54322275,A.02.50.04
!Agilent M9370A: A.02.50.04
!Date: Monday, April 02, 2018 17:09:34
!Correction: S11(Full 8 Port(1,2,3,4,5,6,7,8)) 
!S12(Full 8 Port(1,2,3,4,5,6,7,8)) 
!S13(Full 8 Port(1,2,3,4,5,6,7,8)) 
!S14(Full 8 Port(1,2,3,4,5,6,7,8)) 
!S15(Full 8 Port(1,2,3,4,5,6,7,8)) 
!S16(Full 8 Port(1,2,3,4,5,6,7,8)) 
!S17(Full 8 Port(1,2,3,4,5,6,7,8)) 
!S18(Full 8 Port(1,2,3,4,5,6,7,8)) 
!S21(Full 8 Port(1,2,3,4,5,6,7,8)) 
!S22(Full 8 Port(1,2,3,4,5,6,7,8)) 
!S23(Full 8 Port(1,2,3,4,5,6,7,8)) 
!S24(Full 8 Port(1,2,3,4,5,6,7,8)) 
!S25(Full 8 Port(1,2,3,4,5,6,7,8)) 
!S26(Full 8 Port(1,2,3,4,5,6,7,8)) 
!S27(Full 8 Port(1,2,3,4,5,6,7,8)) 
!S28(Full 8 Port(1,2,3,4,5,6,7,8)) 
!S31(Full 8 Port(1,2,3,4,5,6,7,8)) 
!S32(Full 8 Port(1,2,3,4,5,6,7,8)) 
!S33(Full 8 Port(1,2,3,4,5,6,7,8)) 
!S34(Full 8 Port(1,2,3,4,5,6,7,8)) 
!S35(Full 8 Port(1,2,3,4,5,6,7,8)) 
!S36(Full 8 Port(1,2,3,4,5,6,7,8)) 
!S37(Full 8 Port(1,2,3,4,5,6,7,8)) 
!S38(Full 8 Port(1,2,3,4,5,6,7,8)) 
!S41(Full 8 Port(1,2,3,4,5,6,7,8)) 
!S42(Full 8 Port(1,2,3,4,5,6,7,8)) 
!S43(Full 8 Port(1,2,3,4,5,6,7,8)) 
!S44(Full 8 Port(1,2,3,4,5,6,7,8)) 
!S45(Full 8 Port(1,2,3,4,5,6,7,8)) 
!S46(Full 8 Port(1,2,3,4,5,6,7,8)) 
!S47(Full 8 Port(1,2,3,4,5,6,7,8)) 
!S48(Full 8 Port(1,2,3,4,5,6,7,8)) 
!S51(Full 8 Port(1,2,3,4,5,6,7,8)) 
!S52(Full 8 Port(1,2,3,4,5,6,7,8)) 
!S53(Full 8 Port(1,2,3,4,5,6,7,8)) 
!S54(Full 8 Port(1,2,3,4,5,6,7,8)) 
!S55(Full 8 Port(1,2,3,4,5,6,7,8)) 
!S56(Full 8 Port(1,2,3,4,5,6,7,8)) 
!S57(Full 8 Port(1,2,3,4,5,6,7,8)) 
!S58(Full 8 Port(1,2,3,4,5,6,7,8)) 
!S61(Full 8 Port(1,2,3,4,5,6,7,8)) 
!S62(Full 8 Port(1,2,3,4,5,6,7,8)) 
!S63(Full 8 Port(1,2,3,4,5,6,7,8)) 
!S64(Full 8 Port(1,2,3,4,5,6,7,8)) 
!S65(Full 8 Port(1,2,3,4,5,6,7,8)) 
!S66(Full 8 Port(1,2,3,4,5,6,7,8)) 
!S67(Full 8 Port(1,2,3,4,5,6,7,8)) 
!S68(Full 8 Port(1,2,3,4,5,6,7,8)) 
!S71(Full 8 Port(1,2,3,4,5,6,7,8)) 
!S72(Full 8 Port(1,2,3,4,5,6,7,8)) 
!S73(Full 8 Port(1,2,3,4,5,6,7,8)) 
!S74(Full 8 Port(1,2,3,4,5,6,7,8)) 
!S75(Full 8 Port(1,2,3,4,5,6,7,8)) 
!S76(Full 8 Port(1,2,3,4,5,6,7,8)) 
!S77(Full 8 Port(1,2,3,4,5,6,7,8)) 
!S78(Full 8 Port(1,2,3,4,5,6,7,8)) 
!S81(Full 8 Port(1,2,3,4,5,6,7,8)) 
!S82(Full 8 Port(1,2,3,4,5,6,7,8)) 
!S83(Full 8 Port(1,2,3,4,5,6,7,8)) 
!S84(Full 8 Port(1,2,3,4,5,6,7,8)) 
!S85(Full 8 Port(1,2,3,4,5,6,7,8)) 
!S86(Full 8 Port(1,2,3,4,5,6,7,8)) 
!S87(Full 8 Port(1,2,3,4,5,6,7,8)) 
!S88(Full 8 Port(1,2,3,4,5,6,7,8)) 
!S8P File: Measurements: <S11,S12,S13,S14,S15,S16,S17,S18>,
!<S21,S22,S23,S24,S25,S26,S27,S28>,
!<S31,S32,S33,S34,S35,S36,S37,S38>,
!<S41,S42,S43,S44,S45,S46,S47,S48>,
!<S51,S52,S53,S54,S55,S56,S57,S58>,
!<S61,S62,S63,S64,S65,S66,S67,S68>,
!<S71,S72,S73,S74,S75,S76,S77,S78>,
!<S81,S82,S83,S84,S85,S86,S87,S88>:
# Hz S  RI   R 50
300000 0.99995381 -0.00052564085 9.8511618e-006 0.00029485847 8.3957525e-007 2.763108e-005 2.4713775e-006 3.2033233e-005
7.93558e-007 2.6132619e-005 6.2290655e-007 0.0001008413 2.9291004e-006 3.2233307e-005 -6.8189547e-007 3.3576012e-005
9.1720649e-006 0.00030315839 0.99985355 -0.00056335691 2.0797872e-006 2.7222182e-005 1.8185863e-006 2.9595138e-005
3.3332499e-006 9.722422e-005 3.7930155e-007 1.439497e-005 7.4783184e-009 2.4649222e-005 -3.3095348e-006 2.5534127e-005
1.041233e-006 2.8832465e-005 1.9765328e-006 2.7585818e-005 0.99991757 -0.00049768027 1.184137e-005 0.00031422175
1.7231872e-006 3.3811219e-005 -1.8658922e-007 2.5358766e-005 -2.2164895e-006 1.4728082e-005 -2.5559073e-006 1.9088006e-005
4.9951274e-007 3.399052e-005 5.7350792e-007 3.3216947e-005 1.1315831e-005 0.00032437177 0.99994487 -0.00056955207
8.3670223e-008 0.00010939218 -4.9606609e-007 3.2702887e-005 1.8771332e-006 2.1269147e-005 -1.2315215e-006 2.4844612e-005
2.028502e-006 2.5857993e-005 -8.5198667e-007 9.6561605e-005 -8.1921308e-007 3.5333389e-005 -5.2358024e-007 0.00010717669
0.99987459 -0.00055185071 1.2442688e-005 0.00020069991 1.3194106e-006 2.758305e-005 1.6056192e-006 3.5671055e-005
2.9705666e-006 0.00010429181 -1.0186984e-006 2.1901087e-005 2.4050593e-007 2.7049273e-005 2.6956436e-006 3.733491e-005
7.5155349e-006 0.00021414475 0.99994022 -0.0005479838 -2.8846423e-006 0.00010463849 -4.0361152e-007 3.6086822e-005
1.4628953e-006 3.191796e-005 1.6361503e-006 2.5777841e-005 -1.7055855e-007 1.6005968e-005 3.8261462e-007 1.6834167e-005
3.4011458e-007 2.6560665e-005 1.0919427e-006 0.0001005199 0.9999525 -0.00055046065 1.2868638e-005 0.00031878415
4.6901354e-007 3.334149e-005 1.0954602e-006 2.5415637e-005 1.7961429e-006 2.1005304e-005 2.2267429e-006 2.7074195e-005
1.1549696e-006 3.4262019e-005 2.5637582e-006 3.6828911e-005 6.54631e-006 0.00033560168 1.0000373 -0.00054135377
1300700.7007007 0.99992591 -0.0026037586 5.8307901e-006 0.0013311101 -1.3806563e-007 0.00013265104 5.7925638e-007 0.00015176341
-2.1973226e-006 0.00012067164 1.4226238e-006 0.00047665954 2.1529206e-006 0.00015182109 8.7758463e-007 0.00014872267
2.9639407e-006 0.0013297208 0.99980992 -0.0025652924 -1.0684959e-006 0.00013004488 4.9677192e-007 0.00014656948
3.4981247e-006 0.00045020581 -2.1236035e-006 8.7550514e-005 1.3386007e-007 0.00012333672 -3.7662878e-007 0.00011663701
-1.0564437e-006 0.00013313929 2.4009055e-006 0.00012800989 0.99989527 -0.002309144 5.0930553e-006 0.0013981242
-1.2261719e-006 0.00015543454 -1.5672302e-007 0.00011363997 9.2895499e-007 7.1927665e-005 -4.5600433e-007 8.4881183e-005
-1.3381461e-006 0.00015154577 1.6367662e-007 0.0001429401 4.4169888e-006 0.0013969231 0.99989194 -0.0027074001
4.2167535e-006 0.00050819479 -1.5058698e-006 0.00015412245 -1.5832909e-007 8.7224507e-005 9.4666416e-007 0.00011616156
1.6116453e-006 0.00012221126 3.290347e-006 0.00045013259 2.1309722e-006 0.00015628326 3.9511388e-006 0.00050852122
0.99984711 -0.0025813505 3.9729794e-006 0.00091404264 -1.9498416e-006 0.00012314135 1.0783016e-006 0.00015295394
-6.7305808e-007 0.000474589 -7.7174036e-007 8.5745291e-005 1.5833224e-006 0.00011275148 2.3557002e-006 0.00015353684
2.494889e-006 0.00091568037 0.99991637 -0.0025848541 5.6798729e-007 0.00045897128 -8.7868791e-008 0.00016440154
-1.0227736e-006 0.00015164564 -2.3529346e-006 0.00012074147 3.2019955e-007 7.0894122e-005 1.963876e-006 8.8859124e-005
-4.9240157e-007 0.00012272545 1.9737111e-006 0.00045924343 0.99993229 -0.0025571566 2.8782306e-006 0.0014357059
-1.2860232e-006 0.00014698086 2.5297402e-006 0.00011727656 9.0504173e-008 8.6729444e-005 -3.5097308e-008 0.00011506685
-8.8165973e-007 0.00015278347 -2.2456265e-006 0.00016629082 3.9108745e-006 0.0014387198 1.0000106 -0.0024475139
2301401.4014014 0.9998911 -0.0046003996 2.7314381e-006 0.0023552857 1.2083176e-006 0.00023824949 -1.0767434e-006 0.0002709754
5.6604303e-008 0.00021547193 1.584438e-006 0.00084015552 -1.2372943e-006 0.00026857096 2.52073e-006 0.00026143709
3.3537037e-006 0.0023510861 0.99978507 -0.0045420374 -2.7747294e-007 0.00022664423 -1.9825883e-007 0.00025389876
1.9439456e-006 0.0007993363 -3.6396875e-006 0.00015259934 -2.5231082e-006 0.00021869411 -2.5565741e-006 0.00020651839
-6.6253489e-007 0.0002362399 3.3929186e-007 0.00022895141 0.99987555 -0.0040918631 4.1145308e-006 0.0024735478
1.2021095e-006 0.00027662268 -5.919938e-007 0.00020284779 8.4123508e-007 0.00012684462 -2.2019609e-007 0.00015106043
1.0114729e-006 0.00027062863 -3.9846304e-007 0.00025512892 5.4279908e-006 0.00247024 0.99987304 -0.0047932989
2.562032e-006 0.00090150413 -3.691143e-007 0.00027266092 -1.4951256e-006 0.00015762249 -4.7093735e-007 0.00020237901
-1.1322219e-007 0.00021486419 7.6286699e-007 0.00079545443 -1.326759e-006 0.00027246293 1.2034378e-006 0.00090301537
0.99983495 -0.0045553911 -1.1265976e-006 0.0016219463 -8.7054968e-007 0.00022090679 1.5345563e-006 0.00027455995
1.060818e-006 0.00083649234 -6.3652124e-007 0.00015107769 6.0706225e-007 0.00020708484 -1.5950232e-006 0.00027210722
1.8217388e-007 0.0016199414 0.99989635 -0.004580128 3.7714742e-006 0.00081876433 -1.7089253e-006 0.00029439249
-3.0169761e-007 0.00026791153 -2.7175631e-006 0.00021574185 -5.6805663e-007 0.00012889017 -2.7648207e-006 0.00015308749
-2.7422784e-006 0.00022192704 2.4313388e-006 0.00081764214 0.99992633 -0.0045245606 4.520557e-006 0.0025407649
-1.6679232e-006 0.00026027387 -7.1925319e-007 0.00020462419 -1.2059705e-006 0.00015106177 1.4987218e-006 0.00020156105
-1.364889e-006 0.00027383323 -3.4354024e-008 0.00028921402 4.7638032e-006 0.0025439959 0.99999851 -0.0043296888
3302102.1021021 0.99989569 -0.0065898993 8.9698955e-007 0.0033793137 1.8787821e-006 0.00033734654 -2.4447679e-006 0.00038967948
-3.3574145e-006 0.00030860538 -1.0244186e-006 0.001202101 -3.4149186e-006 0.00038451026 -1.9120598e-006 0.00037374769
6.3704363e-007 0.0033747205 0.99978113 -0.006524195 8.2973429e-008 0.00032731702 -2.2050456e-006 0.0003653873
2.2033312e-006 0.0011467448 -5.1715483e-006 0.00022050332 -1.2583307e-006 0.00031045213 -8.386657e-007 0.00029823088
-3.0904639e-006 0.00033743642 -3.4558348e-006 0.00032691611 0.9998697 -0.0058826678 6.8404311e-006 0.0035483162
-2.1478425e-006 0.00039400635 -7.1812406e-007 0.00029247062 -2.6219034e-006 0.00018281557 -7.0687491e-007 0.00021682076
-1.1463092e-006 0.00038597445 -3.9231545e-006 0.00036519859 1.7404635e-006 0.0035437623 0.99985147 -0.0068662455
5.4398652e-007 0.0012954716 -4.4617791e-006 0.0003908324 -6.5932966e-007 0.00022264516 -2.2716897e-006 0.00029158866
-3.5260341e-006 0.00031040286 3.0105519e-007 0.0011432401 -4.0680911e-006 0.00039353411 2.5469004e-007 0.0012948681
0.999825 -0.0065274322 -3.3735682e-006 0.0023265609 -6.3752109e-006 0.00031789459 -2.0293976e-006 0.00039708224
9.8880867e-007 0.0012010386 -3.8972971e-006 0.00022009977 5.1278431e-007 0.00028950602 -4.4668291e-006 0.00038800086
-4.1132025e-006 0.0023268701 0.99987936 -0.0065806457 -5.29261e-007 0.001176037 -1.7222339e-006 0.00041992977
-9.7907196e-007 0.00038180125 -1.9280083e-006 0.00030890643 1.0135079e-008 0.00018190581 5.9193167e-007 0.00022350663
-4.5350189e-006 0.00031642406 2.6370647e-006 0.0011743931 0.99993294 -0.0065012975 5.0819294e-006 0.003648262
-3.2807925e-006 0.00037423935 -4.4657301e-007 0.0003012048 2.9624093e-007 0.00021536683 2.4375163e-007 0.00029143979
-2.7787776e-006 0.00039342881 -1.488613e-006 0.00041672544 6.3482094e-006 0.0036495288 0.99999589 -0.0062227389
4302802.8028028 0.99987131 -0.0085949395 -4.1830276e-006 0.0044095437 -4.8948505e-006 0.0004413182 -2.3812768e-006 0.00050972961
-4.6853152e-006 0.0004056801 -6.2049418e-007 0.001571712 -5.7986899e-006 0.00049993763 -9.4879044e-007 0.00049105723
-1.0846872e-005 0.0044045178 0.99974096 -0.0085030338 -2.6353664e-006 0.00042842608 -2.2653355e-006 0.00047617379
-2.850293e-006 0.0014955559 -4.4303197e-006 0.00028717058 -2.1564074e-006 0.00040521767 -3.6202542e-007 0.00038936554
-2.0110635e-006 0.00044027987 -4.9816458e-006 0.00042671265 0.9998486 -0.0076748957 2.5468046e-006 0.004629463
-4.2867005e-006 0.00051336741 -2.8193945e-006 0.00038060313 -2.3264615e-006 0.00023921671 -3.0352087e-006 0.00028282471
-5.5331793e-006 0.00050727971 -5.280679e-006 0.00048075654 -6.8152513e-006 0.0046237116 0.99983293 -0.0089213178
-1.8516304e-006 0.0016912462 -4.7104991e-006 0.00050670898 -6.0334464e-006 0.00029257534 -2.9423195e-006 0.00037967134
-6.6653301e-006 0.00040264567 -4.485094e-006 0.001495829 -6.861083e-006 0.00051259098 -4.2917077e-006 0.0016870591
0.99980015 -0.0085266754 -1.4358201e-005 0.003038259 -6.7527108e-006 0.00041166286 -3.9845881e-006 0.0005127663
-5.6793097e-006 0.0015651745 -6.9259581e-006 0.0002844212 -5.0381036e-006 0.00037944526 -7.1370464e-006 0.0005100558
-1.302469e-005 0.0030386052 0.99985224 -0.008559728 -3.7644968e-006 0.0015326408 -3.6279698e-006 0.00054561946
-5.2630162e-006 0.00049847807 -3.070905e-006 0.00040438102 -2.1175963e-006 0.00023821142 3.3087014e-007 0.00029122134
-3.4633733e-006 0.00041256828 1.2336683e-009 0.001532214 0.99992406 -0.0084953578 -3.6487065e-006 0.0047594607
-3.8682801e-006 0.00048698671 -2.2679474e-006 0.00038919828 -4.1301146e-006 0.00028308117 -1.5217896e-006 0.00038107895
-4.0429541e-006 0.00051277591 -3.6646338e-006 0.00054405793 -4.9453633e-006 0.0047593093 0.99997699 -0.0081119891
5303503.5035035 0.99983907 -0.010613043 -1.4839303e-005 0.0054523717 -3.537848e-006 0.00054491323 -6.5571567e-006 0.00062810187
-1.2892012e-005 0.00049882208 -7.7104833e-006 0.0019402787 -8.8608531e-006 0.00061875134 -8.6356013e-006 0.00060159696
-2.9631074e-005 0.005442318 0.99969965 -0.010509852 -5.0429608e-006 0.00052535429 -9.6773074e-006 0.00059219345
-4.8465577e-006 0.0018468087 -1.0382654e-005 0.00035480657 -4.209232e-006 0.00049959269 -8.9760306e-006 0.00048286267
-5.7047559e-006 0.00054239179 -3.5792368e-006 0.00052558392 0.99982899 -0.0094488654 -3.1989612e-006 0.0057195737
-8.2860406e-006 0.00063649064 -3.4806205e-006 0.00047229457 -2.4775716e-006 0.00029562085 -3.8059702e-006 0.0003478819
-6.2257304e-006 0.00062877062 -7.1380191e-006 0.00058869645 -2.889313e-005 0.0057222801 0.99983227 -0.011016606
-1.1286059e-005 0.0020892234 -1.2138596e-005 0.00063096598 -5.4465895e-006 0.00036015958 -6.4900883e-006 0.00047031813
-1.2990855e-005 0.00049796229 -1.3173232e-005 0.0018523919 -1.2280339e-005 0.00063654478 -1.5205665e-005 0.0020948006
0.99972373 -0.010531261 -3.8325979e-005 0.0037677414 -1.0258406e-005 0.00051108713 -1.0909589e-005 0.00063654
-1.5084569e-005 0.0019389181 -1.1682083e-005 0.00035176371 -7.4964159e-006 0.00047079916 -8.7079752e-006 0.00062982662
-3.1829684e-005 0.0037593166 0.99981952 -0.010562589 -1.3827069e-005 0.0018979566 -1.1999042e-005 0.0006736255
-5.8202536e-006 0.0006180621 -5.1403827e-006 0.00050042849 -3.0503493e-006 0.00029466345 -5.3366407e-006 0.00035886769
-9.0072081e-006 0.00051043415 -5.9862946e-006 0.0018966423 0.99990267 -0.010490713 -1.0627503e-005 0.005885167
-6.4221949e-006 0.00060532428 -5.040195e-006 0.00048031419 -2.3253231e-006 0.000349854 -7.1235304e-006 0.00046714747
-5.6487493e-006 0.00063267595 -1.0722141e-005 0.00067324535 -2.2054646e-005 0.0058863768 0.99994785 -0.010013691
6304204.2042042 0.99977511 -0.012616868 -4.0539991e-005 0.0065139532 -8.8485785e-006 0.00065280637 -1.4307077e-005 0.00074825378
-1.7542165e-005 0.00059884583 -1.910336e-005 0.0023198263 -1.1526064e-005 0.0007374108 -1.1106145e-005 0.00072451273
-5.5931112e-005 0.0065016961 0.99961084 -0.012510736 -8.0549107e-006 0.00062898203 -1.141829e-005 0.00070338155
-1.8465498e-005 0.0022058666 -1.7349383e-005 0.00042261957 -1.3397119e-005 0.00059743226 -1.057522e-005 0.00057400315
-1.0292515e-005 0.00065147167 -7.8390522e-006 0.00062622939 0.99978995 -0.011241532 -1.6140244e-005 0.0068227914
-1.0687289e-005 0.00075930258 -7.2450025e-006 0.00056335906 -6.3595417e-006 0.00034781566 -5.9028539e-006 0.00041865857
-1.3188095e-005 0.00075022259 -1.5164666e-005 0.00070757774 -6.406696e-005 0.0068453886 0.99981683 -0.013128886
-2.4275665e-005 0.0024990835 -1.6997374e-005 0.00075457961 -8.2184015e-006 0.00043067799 -1.0596476e-005 0.00056311872
-1.7886401e-005 0.00059912371 -2.3481707e-005 0.0022193477 -1.9533903e-005 0.00076292537 -2.4557456e-005 0.0025090468
0.99959844 -0.012426822 -5.614938e-005 0.004515925 -1.8465391e-005 0.00061446289 -1.5709898e-005 0.00076185318
-2.4329172e-005 0.0023216496 -1.8426092e-005 0.00042384959 -1.3874421e-005 0.00056373642 -1.7435465e-005 0.00075214537
-5.695959e-005 0.0045006145 0.99982953 -0.012578108 -2.3252263e-005 0.0022705891 -2.0395424e-005 0.00080777961
-1.2032515e-005 0.00073721021 -1.1079261e-005 0.00059572456 -2.7490278e-006 0.00034969175 -8.9901405e-006 0.00043116699
-1.3584583e-005 0.00060989574 -1.3002377e-005 0.0022617949 0.99983817 -0.012476017 -3.1150954e-005 0.007021131
-1.2383457e-005 0.00072288438 -9.9334002e-006 0.00057497097 -6.2773074e-006 0.00041887342 -9.1056427e-006 0.00056350773
-9.4426459e-006 0.00075967511 -1.5609452e-005 0.00080531824 -4.2086667e-005 0.0070313164 0.9999159 -0.011931722
7304904.9049049 0.99967086 -0.014576538 -5.2072202e-005 0.007605067 -1.3135624e-005 0.00076174497 -1.7848392e-005 0.00087511056
-2.5514282e-005 0.0007008221 -2.4896248e-005 0.0027099766 -1.5733449e-005 0.00086347823 -1.4148897e-005 0.00084687833
-8.1671918e-005 0.0076001985 0.99949718 -0.014535472 -1.2831094e-005 0.00073780603 -1.5623575e-005 0.00082433212
-3.0106306e-005 0.002579778 -2.3877192e-005 0.0004941005 -1.1963742e-005 0.0006993282 -1.3326298e-005 0.00067202369
-1.191399e-005 0.00076029537 -9.1030406e-006 0.00073326792 0.99976707 -0.012989459 -2.4738967e-005 0.0079567013
-2.0393576e-005 0.00088421255 -1.5817481e-005 0.00065489288 -7.4382119e-006 0.00040850369 -6.1545811e-006 0.00048595155
-2.1431108e-005 0.00088057423 -1.7361823e-005 0.00082945463 -8.0285412e-005 0.0080229566 0.99976808 -0.015300389
-3.0774459e-005 0.0029307592 -2.1411213e-005 0.0008823406 -1.2061053e-005 0.00050480041 -1.0791629e-005 0.0006604162
-2.344421e-005 0.00070258125 -1.4366726e-005 0.0025985688 -1.7147133e-005 0.00089058623 -1.8727285e-005 0.0029365271
0.99956679 -0.014162052 -4.209008e-005 0.0052890177 -1.624293e-005 0.00072108407 -1.6177248e-005 0.00089385768
-3.1485983e-005 0.0027190531 -2.028503e-005 0.00049898413 -1.2925545e-005 0.00066293922 -2.0361485e-005 0.00088294479
-6.967636e-005 0.005271968 0.9997645 -0.01462836 -3.4722874e-005 0.0026621553 -2.670199e-005 0.00094695273
-1.5581963e-005 0.00086251687 -8.8694269e-006 0.00069723959 -5.1808602e-006 0.00041027283 -9.2703831e-006 0.00050170277
-1.6046373e-005 0.00071203924 -1.5622891e-005 0.0026406667 0.9997949 -0.014402192 -3.5421541e-005 0.0081939623
-1.3676095e-005 0.00084464694 -1.3121141e-005 0.0006715011 -5.9288395e-006 0.00048694658 -1.2570403e-005 0.00065792527
-1.3684656e-005 0.00088728179 -1.9488514e-005 0.00094207958 -6.0631181e-005 0.0082101068 0.99987459 -0.013814082
8305605.6056056 0.99965888 -0.016372127 -1.3858947e-005 0.008730391 -1.6864744e-005 0.00087328715 -1.4730631e-005 0.0010092788
-2.6684025e-005 0.00080133928 -1.3577823e-005 0.0031066886 -1.3241704e-005 0.00099450827 -1.3402198e-005 0.00096765213
-5.6268644e-005 0.0087331859 0.99928963 -0.016450545 -1.6776734e-005 0.00084796129 -1.8068067e-005 0.00094930286
-2.4360113e-005 0.0029626163 -2.4977926e-005 0.00056223047 -1.5946182e-005 0.00080359681 -1.5318232e-005 0.00076949655
-1.1381978e-005 0.0008727152 -8.633654e-006 0.0008407312 0.99978662 -0.014753375 9.1807815e-006 0.0091117276
-1.9628776e-005 0.0010095601 -1.1924811e-005 0.00074577495 -9.4140887e-006 0.00046579167 -8.441034e-006 0.00055908901
-1.1532113e-005 0.0010086375 -1.6665528e-005 0.00095317897 -2.333926e-005 0.0092168888 0.99961948 -0.017410602
-1.2408967e-005 0.0033658997 -2.4595085e-005 0.0010141005 -1.1142604e-005 0.00057884504 -9.7017e-006 0.00075486425
-2.1719183e-005 0.00080569374 1.903098e-005 0.0029763656 -1.2095235e-005 0.0010212088 1.9096435e-005 0.0033609383
0.9998076 -0.015938202 1.3282694e-005 0.0060610445 -1.2498973e-005 0.00082428468 -9.0950198e-006 0.0010223703
-1.8307452e-005 0.0031218419 -2.4086645e-005 0.00056685461 -9.6962613e-006 0.00075943017 -2.2263303e-005 0.0010138622
-3.9824594e-005 0.0060614035 0.99967712 -0.016609918 -1.7741526e-005 0.0030583539 -2.4507333e-005 0.001087681
-1.5131476e-005 0.00098818401 -1.244117e-005 0.00080361828 -8.671419e-006 0.00046595663 -1.1570657e-005 0.00057975634
-1.7484668e-005 0.00081435981 -4.2768052e-006 0.0030205091 0.99978894 -0.016270502 8.8615639e-007 0.0093873609
-1.6157454e-005 0.00097214308 -1.4209944e-005 0.00077127811 -8.0830569e-006 0.00055768376 -1.1733315e-005 0.00075442664
-1.0496678e-005 0.0010159377 -1.963011e-005 0.0010774874 -2.9577921e-005 0.0094207367 0.99983466 -0.01572255
9306306.3063063 0.99977291 -0.018259987 0.00011261099 0.0097928643 -2.5088339e-006 0.00098188058 -1.1453832e-005 0.0011281125
-2.4697652e-005 0.00090226071 3.0361914e-005 0.0034907141 -7.6431979e-006 0.0011114433 -3.5365315e-006 0.0010872814
6.3068321e-005 0.0098071685 0.99915498 -0.018256232 -5.5479441e-006 0.00094854477 -7.0363831e-006 0.0010593884
1.4467928e-005 0.0033331506 -1.9475377e-005 0.00063661794 -6.8303029e-006 0.00089874584 -5.6609033e-006 0.0008629908
