!Agilent Technologies,M9370A,MY54322275,A.02.50.04
!Agilent M9370A: A.02.50.04
!Date: Tuesday, March 20, 2018 18:19:50
!Correction: S11(Full 16 Port(1,2,3,4,5,6,7,8,9,10,11,12,13,14,15,16)) 
!S12(Full 16 Port(1,2,3,4,5,6,7,8,9,10,11,12,13,14,15,16)) 
!S13(Full 16 Port(1,2,3,4,5,6,7,8,9,10,11,12,13,14,15,16)) 
!S14(Full 16 Port(1,2,3,4,5,6,7,8,9,10,11,12,13,14,15,16)) 
!S15(Full 16 Port(1,2,3,4,5,6,7,8,9,10,11,12,13,14,15,16)) 
!S16(Full 16 Port(1,2,3,4,5,6,7,8,9,10,11,12,13,14,15,16)) 
!S17(Full 16 Port(1,2,3,4,5,6,7,8,9,10,11,12,13,14,15,16)) 
!S18(Full 16 Port(1,2,3,4,5,6,7,8,9,10,11,12,13,14,15,16)) 
!S21(Full 16 Port(1,2,3,4,5,6,7,8,9,10,11,12,13,14,15,16)) 
!S22(Full 16 Port(1,2,3,4,5,6,7,8,9,10,11,12,13,14,15,16)) 
!S23(Full 16 Port(1,2,3,4,5,6,7,8,9,10,11,12,13,14,15,16)) 
!S24(Full 16 Port(1,2,3,4,5,6,7,8,9,10,11,12,13,14,15,16)) 
!S25(Full 16 Port(1,2,3,4,5,6,7,8,9,10,11,12,13,14,15,16)) 
!S26(Full 16 Port(1,2,3,4,5,6,7,8,9,10,11,12,13,14,15,16)) 
!S27(Full 16 Port(1,2,3,4,5,6,7,8,9,10,11,12,13,14,15,16)) 
!S28(Full 16 Port(1,2,3,4,5,6,7,8,9,10,11,12,13,14,15,16)) 
!S31(Full 16 Port(1,2,3,4,5,6,7,8,9,10,11,12,13,14,15,16)) 
!S32(Full 16 Port(1,2,3,4,5,6,7,8,9,10,11,12,13,14,15,16)) 
!S33(Full 16 Port(1,2,3,4,5,6,7,8,9,10,11,12,13,14,15,16)) 
!S34(Full 16 Port(1,2,3,4,5,6,7,8,9,10,11,12,13,14,15,16)) 
!S35(Full 16 Port(1,2,3,4,5,6,7,8,9,10,11,12,13,14,15,16)) 
!S36(Full 16 Port(1,2,3,4,5,6,7,8,9,10,11,12,13,14,15,16)) 
!S37(Full 16 Port(1,2,3,4,5,6,7,8,9,10,11,12,13,14,15,16)) 
!S38(Full 16 Port(1,2,3,4,5,6,7,8,9,10,11,12,13,14,15,16)) 
!S41(Full 16 Port(1,2,3,4,5,6,7,8,9,10,11,12,13,14,15,16)) 
!S42(Full 16 Port(1,2,3,4,5,6,7,8,9,10,11,12,13,14,15,16)) 
!S43(Full 16 Port(1,2,3,4,5,6,7,8,9,10,11,12,13,14,15,16)) 
!S44(Full 16 Port(1,2,3,4,5,6,7,8,9,10,11,12,13,14,15,16)) 
!S45(Full 16 Port(1,2,3,4,5,6,7,8,9,10,11,12,13,14,15,16)) 
!S46(Full 16 Port(1,2,3,4,5,6,7,8,9,10,11,12,13,14,15,16)) 
!S47(Full 16 Port(1,2,3,4,5,6,7,8,9,10,11,12,13,14,15,16)) 
!S48(Full 16 Port(1,2,3,4,5,6,7,8,9,10,11,12,13,14,15,16)) 
!S51(Full 16 Port(1,2,3,4,5,6,7,8,9,10,11,12,13,14,15,16)) 
!S52(Full 16 Port(1,2,3,4,5,6,7,8,9,10,11,12,13,14,15,16)) 
!S53(Full 16 Port(1,2,3,4,5,6,7,8,9,10,11,12,13,14,15,16)) 
!S54(Full 16 Port(1,2,3,4,5,6,7,8,9,10,11,12,13,14,15,16)) 
!S55(Full 16 Port(1,2,3,4,5,6,7,8,9,10,11,12,13,14,15,16)) 
!S56(Full 16 Port(1,2,3,4,5,6,7,8,9,10,11,12,13,14,15,16)) 
!S57(Full 16 Port(1,2,3,4,5,6,7,8,9,10,11,12,13,14,15,16)) 
!S58(Full 16 Port(1,2,3,4,5,6,7,8,9,10,11,12,13,14,15,16)) 
!S61(Full 16 Port(1,2,3,4,5,6,7,8,9,10,11,12,13,14,15,16)) 
!S62(Full 16 Port(1,2,3,4,5,6,7,8,9,10,11,12,13,14,15,16)) 
!S63(Full 16 Port(1,2,3,4,5,6,7,8,9,10,11,12,13,14,15,16)) 
!S64(Full 16 Port(1,2,3,4,5,6,7,8,9,10,11,12,13,14,15,16)) 
!S65(Full 16 Port(1,2,3,4,5,6,7,8,9,10,11,12,13,14,15,16)) 
!S66(Full 16 Port(1,2,3,4,5,6,7,8,9,10,11,12,13,14,15,16)) 
!S67(Full 16 Port(1,2,3,4,5,6,7,8,9,10,11,12,13,14,15,16)) 
!S68(Full 16 Port(1,2,3,4,5,6,7,8,9,10,11,12,13,14,15,16)) 
!S71(Full 16 Port(1,2,3,4,5,6,7,8,9,10,11,12,13,14,15,16)) 
!S72(Full 16 Port(1,2,3,4,5,6,7,8,9,10,11,12,13,14,15,16)) 
!S73(Full 16 Port(1,2,3,4,5,6,7,8,9,10,11,12,13,14,15,16)) 
!S74(Full 16 Port(1,2,3,4,5,6,7,8,9,10,11,12,13,14,15,16)) 
!S75(Full 16 Port(1,2,3,4,5,6,7,8,9,10,11,12,13,14,15,16)) 
!S76(Full 16 Port(1,2,3,4,5,6,7,8,9,10,11,12,13,14,15,16)) 
!S77(Full 16 Port(1,2,3,4,5,6,7,8,9,10,11,12,13,14,15,16)) 
!S78(Full 16 Port(1,2,3,4,5,6,7,8,9,10,11,12,13,14,15,16)) 
!S81(Full 16 Port(1,2,3,4,5,6,7,8,9,10,11,12,13,14,15,16)) 
!S82(Full 16 Port(1,2,3,4,5,6,7,8,9,10,11,12,13,14,15,16)) 
!S83(Full 16 Port(1,2,3,4,5,6,7,8,9,10,11,12,13,14,15,16)) 
!S84(Full 16 Port(1,2,3,4,5,6,7,8,9,10,11,12,13,14,15,16)) 
!S85(Full 16 Port(1,2,3,4,5,6,7,8,9,10,11,12,13,14,15,16)) 
!S86(Full 16 Port(1,2,3,4,5,6,7,8,9,10,11,12,13,14,15,16)) 
!S87(Full 16 Port(1,2,3,4,5,6,7,8,9,10,11,12,13,14,15,16)) 
!S88(Full 16 Port(1,2,3,4,5,6,7,8,9,10,11,12,13,14,15,16)) 
!S8P File: Measurements: <S11,S12,S13,S14,S15,S16,S17,S18>,
!<S21,S22,S23,S24,S25,S26,S27,S28>,
!<S31,S32,S33,S34,S35,S36,S37,S38>,
!<S41,S42,S43,S44,S45,S46,S47,S48>,
!<S51,S52,S53,S54,S55,S56,S57,S58>,
!<S61,S62,S63,S64,S65,S66,S67,S68>,
!<S71,S72,S73,S74,S75,S76,S77,S78>,
!<S81,S82,S83,S84,S85,S86,S87,S88>:
# Hz S  RI   R 50
3000000 0.25134572 0.0035596769 0.25035405 0.002206214 0.083500192 -0.00013178519 0.083505221 5.6596822e-005
0.083502196 0.00079235737 0.083417714 0.00067374698 0.083482422 0.00023936434 0.083459303 0.00013361835
0.24995731 0.0023974925 0.25150126 0.003206772 0.083457388 -1.5716312e-005 0.083451249 0.00019063304
0.083402127 0.00064808386 0.083294541 0.00063937815 0.083421171 0.00020508483 0.083405517 0.00010544495
0.083458304 -9.0089989e-006 0.083541051 3.9076225e-005 0.25143188 0.0046263118 0.25053105 0.0027340478
0.0835566 0.00047635575 0.083418444 0.00023743129 0.083469391 -0.0005741971 0.083460473 -0.00041395376
0.083383873 0.00017932846 0.083465129 0.00027792796 0.25012335 0.0028580907 0.25152332 0.0041770828
0.083477132 0.00046962398 0.083363473 0.00020421417 0.083403639 -0.00046881635 0.083401397 -0.00032522625
0.083445579 0.00077703025 0.083483897 0.00060237688 0.083435111 0.0003735853 0.083471723 0.00030314451
0.25125057 0.0031227986 0.2500343 0.00089246337 0.083466418 0.0001036221 0.083448604 0.00018982
0.08335343 0.00078958314 0.083480209 0.00072559388 0.08337532 0.00027905259 0.083429158 0.00019633402
0.24995559 0.0014190439 0.25142598 0.0034522528 0.083450787 0.00054960634 0.083424017 0.00065581122
0.08345338 0.00032982297 0.083545126 0.00024955755 0.083442546 -0.00056558906 0.083478682 -0.00052021368
0.083475955 0.00017051093 0.083414041 0.0004577426 0.25098366 0.0046226163 0.25046474 0.002720441
0.083385676 0.00022601018 0.083478555 0.00016716776 0.083383314 -0.00040500265 0.083447911 -0.00037595534
0.083433859 0.00027676145 0.083375312 0.00056598207 0.25024641 0.0027511194 0.25087148 0.0038932173
3498749.3746873 0.25141001 0.0032027904 0.2504445 0.002486194 0.083545417 -0.00022209906 0.083536625 -1.0787203e-006
0.08357963 0.00084533164 0.083484232 0.00070037617 0.083556846 0.00023551511 0.083506122 9.3538678e-005
0.2500644 0.0027310341 0.25146127 0.0028770717 0.08348047 -6.5056927e-005 0.083464451 0.00017932564
0.083446272 0.00069323351 0.083439127 0.0006750038 0.083470419 0.00020389678 0.083427072 7.7090823e-005
0.083530702 -6.3763466e-005 0.08359053 -1.6987045e-005 0.2515333 0.0044464846 0.25056162 0.0031179248
0.083606832 0.00049225253 0.08350151 0.00020962831 0.083536766 -0.00074708887 0.083494633 -0.00052315748
0.083421893 0.0001926512 0.083480023 0.00028404052 0.25015992 0.0033038293 0.25133297 0.0040153759
0.083483472 0.00049597747 0.083387159 0.00019308759 0.083441742 -0.00058593287 0.083385803 -0.00040032723
0.083389215 0.0011471848 0.083407253 0.00093085889 0.083362043 0.00068731938 0.083361045 0.00060366193
0.25088561 0.0034356394 0.24977691 0.001789802 0.083424591 0.00034032846 0.083343402 0.0004494038
0.083404712 0.00088304124 0.083504133 0.00078707206 0.08341492 0.00029375163 0.08343076 0.0001660339
0.25002611 0.0014690987 0.25144762 0.0030499885 0.083476111 0.00058150536 0.083428673 0.00072751119
0.083524756 0.00031397477 0.083593823 0.00022274976 0.08351016 -0.00072551472 0.083517306 -0.00068227266
0.083546519 0.00010320135 0.083504535 0.00046468785 0.25105062 0.0043393164 0.25054279 0.003049877
0.083462387 0.00020436307 0.08352717 0.00011323694 0.083444111 -0.00054010138 0.08346498 -0.00049419532
0.083494529 0.00022669663 0.083438702 0.00060740893 0.25038186 0.003114617 0.25081035 0.0035459688
3997498.7493747 0.25148943 0.0039246134 0.25049976 0.0032832851 0.083561257 -9.0001762e-005 0.083576962 0.00015325376
0.083628818 0.0011292028 0.083515465 0.00097345468 0.08358942 0.00043177526 0.083536185 0.00027124066
0.2501598 0.0035460347 0.251524 0.003664315 0.083503991 0.00012061492 0.083506577 0.00034631908
0.083479285 0.00096533995 0.083458103 0.00094478694 0.083513848 0.00041417903 0.083471812 0.00027809315
0.083551705 4.5019799e-005 0.083609492 0.00011423699 0.25152278 0.0053020143 0.25053751 0.0039544934
0.083622023 0.00072873564 0.083492063 0.00040624532 0.083556235 -0.00066100177 0.083522283 -0.00042849663
0.083489075 0.00032530507 0.083532408 0.00045410875 0.25023803 0.0041269003 0.25141773 0.0048142555
0.083513774 0.0007201173 0.08342845 0.00038002597 0.083478503 -0.00047211966 0.083454587 -0.00030721386
0.083448887 0.0012472299 0.083457202 0.0010342934 0.083387218 0.00077217969 0.083394445 0.00064626033
0.25090146 0.0036417509 0.24977334 0.001935998 0.083444357 0.00041529702 0.08340323 0.00053334574
0.083470799 0.0012134252 0.083568729 0.0011242643 0.083448224 0.00057448493 0.083477937 0.00041978079
0.2501471 0.0023730637 0.25150499 0.004023375 0.083520129 0.00093235297 0.083479322 0.0011214104
0.083584383 0.00051022222 0.083635688 0.0004465775 0.083526179 -0.00065145263 0.083552472 -0.00059856329
0.083595037 0.00032409231 0.083527714 0.00072788197 0.25108156 0.005387574 0.25060123 0.0041033537
0.083508611 0.00038398066 0.083585642 0.0003026769 0.083483309 -0.00043264215 0.083501823 -0.00036627782
0.083525836 0.00047571782 0.083481342 0.00088501052 0.25044727 0.0041242163 0.25091669 0.0045124069
4496248.124062 0.25185147 0.0038996651 0.25069186 0.0034723864 0.083683066 -0.0001653333 0.083695464 8.2959283e-005
0.083756462 0.0011995805 0.083628334 0.00095890969 0.083716221 0.0003598312 0.083708733 0.00023491756
0.25042009 0.0038684683 0.25183749 0.0037201177 0.083624072 8.1757185e-005 0.083617911 0.00032932212
0.083592132 0.0010594832 0.083593324 0.00097624178 0.083634168 0.00034907993 0.083639644 0.00025365778
0.083645791 -5.5870907e-005 0.083676361 3.2625569e-005 0.25194797 0.0054382752 0.25080624 0.0042578476
0.083719768 0.00076081994 0.083597437 0.00032799755 0.083650991 -0.00088684948 0.083673708 -0.00055925519
0.08357428 0.00033995023 0.083613381 0.00050103327 0.25046819 0.0046761781 0.2517671 0.0051637301
0.083631106 0.00085102738 0.083532214 0.00038659642 0.083593227 -0.00060091657 0.083588593 -0.00034815955
0.083744094 0.0016901607 0.083716877 0.0014597129 0.083700508 0.0011074051 0.083699159 0.0010031721
0.25188288 0.0046088439 0.25057328 0.0029199212 0.083756626 0.00071503018 0.083751887 0.00088913314
0.083578892 0.0012997743 0.083667904 0.0012236283 0.083580792 0.00052210462 0.083608501 0.00040949881
0.2504482 0.0025401406 0.25193378 0.0038853779 0.083641626 0.00095726037 0.083662815 0.0011711157
0.083686918 0.00045452034 0.083742283 0.0003841898 0.083659679 -0.00085284852 0.083661646 -0.00078286533
0.083711311 0.00027644832 0.083655663 0.00067921297 0.25155801 0.0053378157 0.25108868 0.0043472117
0.083613716 0.00034759595 0.083647341 0.00026248634 0.083590552 -0.00057956076 0.083614156 -0.00050793967
0.083646081 0.00048627553 0.083584949 0.00087342307 0.25071922 0.0043725334 0.25145468 0.0044930726
4994997.4987494 0.25205731 0.0046020551 0.25086099 0.0042045144 0.083737887 -8.6421001e-005 0.083757326 0.00019549226
0.083892941 0.0013695244 0.083706036 0.0011842473 0.083805658 0.00057155354 0.083769292 0.00039591009
0.25063443 0.0047140755 0.25200805 0.0044379188 0.083688542 0.00021501987 0.083703481 0.00048623755
0.083719335 0.0012282692 0.083693475 0.001187991 0.083720036 0.0005685038 0.083686106 0.00042843059
0.083726108 6.5145374e-005 0.083753556 0.00014827217 0.25201651 0.006224677 0.25087014 0.0049761762
0.083810553 0.00088168564 0.083658062 0.00047184934 0.083711624 -0.0008311905 0.083715051 -0.0005199521
0.083712831 0.00051066407 0.0837439 0.00066974916 0.25062966 0.0054874597 0.25194255 0.0059158481
0.083757654 0.00098769448 0.083624363 0.00053625304 0.083689064 -0.0005306165 0.08369258 -0.00026147463
0.083738983 0.0020126931 0.083696544 0.0017363079 0.083621427 0.001352209 0.083648622 0.0012437681
0.25164142 0.0053206733 0.25023493 0.0036194378 0.083714001 0.00095162436 0.083686978 0.0011199132
0.08374168 0.0016353903 0.083798066 0.0015111731 0.083687335 0.00078472518 0.083717555 0.00062954525
0.25078076 0.0033221741 0.25209579 0.0048420313 0.083791763 0.0012963597 0.083776467 0.0015083004
0.083799489 0.00069597049 0.083842695 0.00056889519 0.083722129 -0.00078490039 0.083734676 -0.00071974605
0.083832465 0.00039604763 0.08373256 0.00091139617 0.25169343 0.0063688592 0.25114742 0.0052931583
0.083732851 0.00059993903 0.083780244 0.00048623339 0.0836723 -0.00046036913 0.083709449 -0.00037855629
0.083780169 0.00066370313 0.083676063 0.0011745192 0.25094074 0.0054430179 0.25155985 0.0054952325
5493746.8734367 0.25246054 0.0051913424 0.25115526 0.0049139471 0.083891451 3.0752567e-006 0.083890341 0.00028689936
0.083963633 0.0016733763 0.083833516 0.0013854826 0.083969787 0.00069231878 0.083886005 0.0005460903
0.25092453 0.0054723113 0.25238943 0.0050437311 0.08384303 0.00036348484 0.083846219 0.00063914462
0.083794862 0.0015319487 0.083814301 0.0014090852 0.083888367 0.00073507073 0.083839431 0.00059041067
0.083865412 8.8186454e-005 0.083891846 0.00022011553 0.25254092 0.0068524652 0.25118357 0.0056473687
0.083879746 0.001082468 0.083798014 0.00053201424 0.083872303 -0.00087892788 0.083838105 -0.00050116912
0.083849981 0.00071369065 0.083866023 0.00092733442 0.25091282 0.0065497053 0.25227833 0.0068615004
0.083846204 0.0013284306 0.083759263 0.00074316218 0.083873853 -0.0004320798 0.083817072 -9.7321921e-005
0.084258378 0.0023539755 0.084233746 0.0020418698 0.084184751 0.0016531736 0.084170401 0.0015149857
0.25282839 0.0061244853 0.25154069 0.0043530115 0.084180944 0.0011534948 0.084149115 0.0013817197
0.083909191 0.0018577869 0.084001839 0.001724513 0.083893195 0.00097322027 0.083896346 0.00077375816
0.25098109 0.0038823818 0.25260007 0.0052556661 0.083999813 0.0014563443 0.083933249 0.0017395725
0.083952636 0.00077611837 0.083977364 0.00065638457 0.083866596 -0.00083100505 0.083862282 -0.00076669373
0.083898284 0.00050541671 0.083866104 0.00098511938 0.2521607 0.0067858538 0.25141692 0.0059249653
0.083873712 0.00068145088 0.083932258 0.00058723427 0.083829127 -0.00045292045 0.083837345 -0.00036156163
0.083863474 0.00079244922 0.083841182 0.001310796 0.25131732 0.0060184114 0.25194165 0.0060185879
5992496.2481241 0.25286162 0.0058090161 0.25147617 0.0055878116 0.084046744 5.7733625e-005 0.084058009 0.00040955411
0.08422748 0.0018450791 0.084019326 0.0015898276 0.084158264 0.00083611696 0.084109016 0.00068389345
0.25133073 0.006387203 0.25272366 0.0058584982 0.084021568 0.00051548798 0.08401069 0.00084459427
0.08408805 0.0017748744 0.084032431 0.0016913054 0.084114604 0.00092986895 0.084060475 0.00078513275
0.083987005 0.00021567526 0.084001921 0.00032393011 0.25269231 0.0076881484 0.2513645 0.0063956846
0.08408118 0.0012362256 0.083916023 0.00067208282 0.083983153 -0.00089220196 0.08397074 -0.00044057381
0.084079899 0.00092833105 0.084085941 0.0011198235 0.25129449 0.0074684927 0.25265154 0.0076975795
0.084170476 0.0015245478 0.083996519 0.00091175811 0.08409562 -0.00035415709 0.084075175 2.1933389e-005
0.084304549 0.0028487339 0.084260598 0.0025552132 0.084206328 0.0020617102 0.084208563 0.0019307669
0.2529363 0.0076770638 0.25141802 0.0056850989 0.084216647 0.0015618261 0.084209211 0.001816722
0.084123343 0.0022208923 0.084211849 0.0020940076 0.084082648 0.0012032511 0.084110305 0.0010383771
0.25164941 0.0048872633 0.2529957 0.0062606377 0.084199227 0.0017889829 0.084194072 0.0020899028
0.084131859 0.0010127424 0.084130637 0.00083929527 0.084014185 -0.00076534052 0.084037721 -0.00074005593
0.08416795 0.00069062808 0.084061556 0.0012313732 0.25252926 0.0078159198 0.2518408 0.006966264
0.084069476 0.00094541191 0.084108293 0.00081721455 0.083993085 -0.00033135922 0.084013566 -0.00025479996
0.084148996 0.0010554551 0.084038772 0.0016187108 0.25173044 0.0071701203 0.25241184 0.0071356073
6491245.6228114 0.25345349 0.006706432 0.25209886 0.0065443562 0.084350087 0.00022535535 0.084330432 0.00052191084
0.084433869 0.0021677171 0.084287047 0.0018523991 0.084432945 0.0010080235 0.084348731 0.00082651671
0.25203776 0.0072999941 0.25337297 0.0066073677 0.084347919 0.00066033506 0.084323063 0.00095773634
0.084309042 0.002057313 0.084322728 0.0019183991 0.084403187 0.0010609952 0.084340565 0.00090298412
0.084233314 0.00034166017 0.084256664 0.00042516648 0.25335559 0.008464653 0.25190508 0.0071713692
0.084261104 0.0014546976 0.08415433 0.00080733304 0.084223852 -0.00091326656 0.08419542 -0.00043322847
0.084442869 0.0011588788 0.084441155 0.001347938 0.25212455 0.0085703311 0.25333452 0.0087453239
0.084421039 0.0018366722 0.08434087 0.0011244289 0.084428765 -0.00026360454 0.084369458 0.00014287917
0.085045055 0.0027521362 0.084972784 0.0024207488 0.084955812 0.00193207 0.084902681 0.001723235
0.25474393 0.0071218945 0.25332955 0.0052451082 0.085064299 0.0013016122 0.084975861 0.0015707135
0.084520981 0.0024417159 0.084603429 0.0022946279 0.084509082 0.0013736269 0.084482506 0.0011260391
0.25232649 0.0053287544 0.25383905 0.0067592436 0.084597297 0.0019323466 0.084563136 0.0022709868
0.084356152 0.0011045597 0.084356479 0.00094086042 0.084258638 -0.00081800891 0.084243685 -0.00079111848
0.084316246 0.00075390667 0.084264666 0.0013517607 0.25296551 0.0083716037 0.25223345 0.0075273346
0.084359273 0.0010184832 0.084392823 0.0008817077 0.084301636 -0.00034434145 0.084279902 -0.00029982734
0.08435332 0.0011283075 0.084309742 0.0017161459 0.2523807 0.0077385115 0.25292873 0.0074927085
6989994.9974987 0.25411242 0.0072452906 0.25258306 0.0071420972 0.084625684 0.00022733308 0.08458735 0.00060583348
0.084917352 0.0022667993 0.084603198 0.0020088519 0.084779955 0.0010452156 0.084697306 0.00088157592
0.2528508 0.0081569422 0.25391576 0.0073990724 0.084676586 0.0007565305 0.084614396 0.0011661516
0.084845923 0.0022120804 0.084696837 0.0021313848 0.084824733 0.001187479 0.084731929 0.0010351129
0.084452376 0.00036646271 0.084387042 0.00054325484 0.2537016 0.00933553 0.25225386 0.0079721566
0.084660068 0.0015618382 0.084410869 0.00093440257 0.08450494 -0.00094555103 0.084450953 -0.00043852255
0.084819451 0.001232115 0.084757946 0.0014936427 0.25284907 0.0094258115 0.25395837 0.0095720561
0.084990054 0.0019514319 0.08472345 0.0012510705 0.084873721 -0.00026556806 0.084796913 0.00012819437
0.085482001 0.0031932497 0.085323527 0.0028276967 0.085345343 0.002280561 0.085266635 0.0020852271
0.25635263 0.0085844686 0.25432989 0.0065812068 0.085553572 0.0016056406 0.085458644 0.0019285326
0.084836788 0.0027391266 0.084877864 0.0025599671 0.084807716 0.0015377916 0.084746696 0.0012929464
0.2535716 0.0061444566 0.25452927 0.0077019832 0.085005477 0.0021609089 0.084954493 0.0025319098
0.084627166 0.0012514626 0.084552824 0.0011126566 0.084494404 -0.00081053609 0.08443848 -0.00075394317
0.084761836 0.00084611645 0.084543459 0.0015291129 0.2537424 0.0092594409 0.25299227 0.0084386468
0.084710538 0.0012293777 0.084657066 0.0011131663 0.084610343 -0.00022262546 0.084590882 -0.00015262853
0.084885262 0.0013515877 0.084673427 0.0020277908 0.25336862 0.0088324435 0.25384441 0.0086007183
7488744.3721861 0.25530174 0.008021269 0.25383508 0.0078596836 0.085091397 0.00026855848 0.085015729 0.00062146317
0.085191026 0.0025310628 0.085013725 0.0021849566 0.085174106 0.0012017863 0.085063733 0.0010147627
0.2539998 0.008849333 0.2552352 0.0079338616 0.08512295 0.00076729007 0.085073546 0.0011564717
0.085121542 0.0024110309 0.085105807 0.0022482616 0.085214347 0.0013019115 0.085108951 0.001114205
0.084843889 0.00038216638 0.084852189 0.00050739781 0.25488615 0.0099656237 0.25329596 0.0086196456
0.084784195 0.0016941871 0.084730819 0.00097382528 0.084857456 -0.00099590002 0.084839992 -0.00045326256
0.085293353 0.0013133154 0.085287511 0.0015443515 0.25409561 0.010262045 0.25512233 0.010393589
0.085282266 0.0021162443 0.085152 0.0013148846 0.085274011 -0.00028468866 0.085186221 0.00015540127
0.085913442 0.0026816798 0.08581946 0.0022869189 0.085823759 0.0016523812 0.085682102 0.0014886585
0.2566193 0.0072925515 0.25525495 0.0051306221 0.085745819 0.0010466713 0.085660271 0.0013512932
