!Agilent Technologies,M9370A,MY54322275,A.02.50.04
!Agilent M9370A: A.02.50.04
!Date: Friday, August 17, 2018 13:01:19
!Correction: S11(Full 8 Port(1,2,3,4,5,6,7,8)) 
!S12(Full 8 Port(1,2,3,4,5,6,7,8)) 
!S13(Full 8 Port(1,2,3,4,5,6,7,8)) 
!S14(Full 8 Port(1,2,3,4,5,6,7,8)) 
!S15(Full 8 Port(1,2,3,4,5,6,7,8)) 
!S16(Full 8 Port(1,2,3,4,5,6,7,8)) 
!S17(Full 8 Port(1,2,3,4,5,6,7,8)) 
!S18(Full 8 Port(1,2,3,4,5,6,7,8)) 
!S21(Full 8 Port(1,2,3,4,5,6,7,8)) 
!S22(Full 8 Port(1,2,3,4,5,6,7,8)) 
!S23(Full 8 Port(1,2,3,4,5,6,7,8)) 
!S24(Full 8 Port(1,2,3,4,5,6,7,8)) 
!S25(Full 8 Port(1,2,3,4,5,6,7,8)) 
!S26(Full 8 Port(1,2,3,4,5,6,7,8)) 
!S27(Full 8 Port(1,2,3,4,5,6,7,8)) 
!S28(Full 8 Port(1,2,3,4,5,6,7,8)) 
!S31(Full 8 Port(1,2,3,4,5,6,7,8)) 
!S32(Full 8 Port(1,2,3,4,5,6,7,8)) 
!S33(Full 8 Port(1,2,3,4,5,6,7,8)) 
!S34(Full 8 Port(1,2,3,4,5,6,7,8)) 
!S35(Full 8 Port(1,2,3,4,5,6,7,8)) 
!S36(Full 8 Port(1,2,3,4,5,6,7,8)) 
!S37(Full 8 Port(1,2,3,4,5,6,7,8)) 
!S38(Full 8 Port(1,2,3,4,5,6,7,8)) 
!S41(Full 8 Port(1,2,3,4,5,6,7,8)) 
!S42(Full 8 Port(1,2,3,4,5,6,7,8)) 
!S43(Full 8 Port(1,2,3,4,5,6,7,8)) 
!S44(Full 8 Port(1,2,3,4,5,6,7,8)) 
!S45(Full 8 Port(1,2,3,4,5,6,7,8)) 
!S46(Full 8 Port(1,2,3,4,5,6,7,8)) 
!S47(Full 8 Port(1,2,3,4,5,6,7,8)) 
!S48(Full 8 Port(1,2,3,4,5,6,7,8)) 
!S51(Full 8 Port(1,2,3,4,5,6,7,8)) 
!S52(Full 8 Port(1,2,3,4,5,6,7,8)) 
!S53(Full 8 Port(1,2,3,4,5,6,7,8)) 
!S54(Full 8 Port(1,2,3,4,5,6,7,8)) 
!S55(Full 8 Port(1,2,3,4,5,6,7,8)) 
!S56(Full 8 Port(1,2,3,4,5,6,7,8)) 
!S57(Full 8 Port(1,2,3,4,5,6,7,8)) 
!S58(Full 8 Port(1,2,3,4,5,6,7,8)) 
!S61(Full 8 Port(1,2,3,4,5,6,7,8)) 
!S62(Full 8 Port(1,2,3,4,5,6,7,8)) 
!S63(Full 8 Port(1,2,3,4,5,6,7,8)) 
!S64(Full 8 Port(1,2,3,4,5,6,7,8)) 
!S65(Full 8 Port(1,2,3,4,5,6,7,8)) 
!S66(Full 8 Port(1,2,3,4,5,6,7,8)) 
!S67(Full 8 Port(1,2,3,4,5,6,7,8)) 
!S68(Full 8 Port(1,2,3,4,5,6,7,8)) 
!S71(Full 8 Port(1,2,3,4,5,6,7,8)) 
!S72(Full 8 Port(1,2,3,4,5,6,7,8)) 
!S73(Full 8 Port(1,2,3,4,5,6,7,8)) 
!S74(Full 8 Port(1,2,3,4,5,6,7,8)) 
!S75(Full 8 Port(1,2,3,4,5,6,7,8)) 
!S76(Full 8 Port(1,2,3,4,5,6,7,8)) 
!S77(Full 8 Port(1,2,3,4,5,6,7,8)) 
!S78(Full 8 Port(1,2,3,4,5,6,7,8)) 
!S81(Full 8 Port(1,2,3,4,5,6,7,8)) 
!S82(Full 8 Port(1,2,3,4,5,6,7,8)) 
!S83(Full 8 Port(1,2,3,4,5,6,7,8)) 
!S84(Full 8 Port(1,2,3,4,5,6,7,8)) 
!S85(Full 8 Port(1,2,3,4,5,6,7,8)) 
!S86(Full 8 Port(1,2,3,4,5,6,7,8)) 
!S87(Full 8 Port(1,2,3,4,5,6,7,8)) 
!S88(Full 8 Port(1,2,3,4,5,6,7,8)) 
!S8P File: Measurements: <S11,S12,S13,S14,S15,S16,S17,S18>,
!<S21,S22,S23,S24,S25,S26,S27,S28>,
!<S31,S32,S33,S34,S35,S36,S37,S38>,
!<S41,S42,S43,S44,S45,S46,S47,S48>,
!<S51,S52,S53,S54,S55,S56,S57,S58>,
!<S61,S62,S63,S64,S65,S66,S67,S68>,
!<S71,S72,S73,S74,S75,S76,S77,S78>,
!<S81,S82,S83,S84,S85,S86,S87,S88>:
# Hz S  RI   R 50
1000000 0.2522718 0.053300258 0.24594988 0.0085441461 0.080885977 0.0041838409 0.080791712 0.0042085419
0.08081767 0.0042499895 0.081155203 0.0042173746 0.081156969 0.0043807058 0.081710964 0.0042214706
0.24566449 0.0085299145 0.25125936 0.051865753 0.080795906 0.004262208 0.080696739 0.0042948602
0.080770992 0.0042015961 0.080514051 0.0043082461 0.080896214 0.0043967552 0.08089035 0.0043108021
0.080773585 0.0042396141 0.080704324 0.0043594176 0.25179294 0.055134952 0.24474317 0.0085899951
0.080658577 0.0042265309 0.080446415 0.0042376458 0.08094164 0.0040531782 0.080306277 0.0040956568
0.080844328 0.0043432652 0.080771543 0.0044582481 0.24489416 0.0088729849 0.25182334 0.055162262
0.080626979 0.0042915554 0.080469497 0.0042996253 0.08069171 0.0041744639 0.081163019 0.0040944689
0.080756143 0.004402204 0.080707192 0.0044039167 0.080633387 0.0043681595 0.080608152 0.0043360055
0.25360096 0.059336603 0.24453166 0.0075038266 0.080364339 0.0043392172 0.080463886 0.0042465809
0.080688059 0.0044358759 0.080610625 0.0045104604 0.080539249 0.0043697306 0.080541931 0.0043214457
0.24503805 0.0075395093 0.25112402 0.055051066 0.080585703 0.0044678096 0.080553733 0.0044400357
0.080718294 0.0044373777 0.080614001 0.0044878568 0.080559939 0.0040865513 0.080528736 0.0040966407
0.08058846 0.0041772001 0.080371842 0.004350136 0.25169209 0.05685747 0.24482493 0.0086871991
0.080717072 0.004319699 0.080603175 0.0044073095 0.080543049 0.0040996764 0.080531798 0.0041211303
0.0805692 0.0041562002 0.080345288 0.0043563074 0.24474145 0.0088736713 0.25131786 0.056922574
1405625 0.2511104 0.0034389943 0.25017217 0.0018512978 0.083301127 0.00016701124 0.083318882 0.00023553355
0.083315745 0.00060410559 0.083255962 0.0003374501 0.083312228 0.00036414122 0.083326042 0.00032298311
0.24996574 0.0018757379 0.25115508 0.0031186573 0.083261803 0.00018612758 0.083262533 0.00027428888
0.083246522 0.00047878691 0.083169952 0.00030776166 0.083243698 0.00031311961 0.083269402 0.00027875454
0.083260827 0.00018066095 0.083268926 0.00020381204 0.25135186 0.003816328 0.24992028 0.002238957
0.083286196 0.00056411885 0.083208933 0.0002362619 0.083249964 -0.00011100394 0.083242446 -3.2004868e-005
0.083251253 0.00020984947 0.083269112 0.00026722837 0.24976322 0.0022505452 0.25128841 0.0037558645
0.08329656 0.00053232082 0.083211318 0.0002422523 0.083266258 -9.2536284e-005 0.083262466 -5.728391e-006
0.083233379 0.00059695682 0.083260678 0.0004691967 0.083234362 0.00054511178 0.083276369 0.0005543069
0.25161967 0.0045679864 0.25006282 0.0014969549 0.083330348 0.00039262258 0.083323732 0.00043384786
0.083203897 0.00035733974 0.083217636 0.00031796261 0.08315485 0.00027438856 0.083194695 0.00025132461
0.24989672 0.0015328807 0.25099242 0.0034599809 0.083257049 0.00038136027 0.083241731 0.00043442589
0.083285794 0.00040842226 0.083283134 0.00038427947 0.083210424 -6.5681619e-005 0.08323846 -3.3554952e-005
0.0832332 0.00044085816 0.083177604 0.00037923863 0.25091469 0.0037914072 0.25019029 0.002412423
0.083279558 0.00030607218 0.083269469 0.0002927453 0.083193138 5.9851905e-006 0.083236977 3.8628415e-005
0.083202362 0.00042054462 0.083171219 0.00042122626 0.25005177 0.0024139683 0.25094616 0.0035982756
1811250 0.25101274 0.0064979177 0.24997793 0.0026485103 0.083249755 0.00043518253 0.083270401 0.00053665403
0.083246633 0.00099333411 0.083176821 0.000730614 0.083272137 0.00072031067 0.08327727 0.00063429202
0.24979101 0.0026385009 0.25103635 0.0060122982 0.083209395 0.00048776795 0.083221927 0.00056863658
0.083173364 0.00081417098 0.083136529 0.00068481913 0.083208427 0.00064491364 0.083228715 0.00059148326
0.083221048 0.00046406602 0.08321251 0.00050466059 0.25128183 0.0070658284 0.24976167 0.0031531968
0.083208956 0.00090964069 0.083184719 0.00062228757 0.083205685 7.641573e-005 0.083208621 0.00021073173
0.083242372 0.00050668046 0.08323659 0.0005744017 0.24961008 0.003148519 0.25124946 0.0069178208
0.083223246 0.00088848651 0.083189532 0.00060214353 0.083231732 0.00012273106 0.083202213 0.00024840623
0.083279297 0.00094674091 0.083267011 0.00077169487 0.083240874 0.00089087908 0.083286338 0.00089300616
0.25190747 0.0076571996 0.25002205 0.0021766841 0.083323345 0.00072224264 0.083327085 0.00075603172
0.083184958 0.00073983578 0.083198145 0.00069573056 0.083137296 0.0006103621 0.083192259 0.00061343866
0.24962704 0.002265915 0.25095388 0.0066406401 0.083231181 0.00077982066 0.083233699 0.00085241831
0.083253771 0.00075146981 0.083247021 0.00070347794 0.083164975 0.00013672607 0.08320035 0.0001791823
0.083162084 0.00074909796 0.083156116 0.00077179697 0.25086519 0.0071153208 0.25000486 0.0033531711
0.083228104 0.00066384312 0.083227031 0.00063464273 0.083159328 0.00024948682 0.083208926 0.00030096972
0.08313068 0.0007585233 0.083139502 0.00083560502 0.24985763 0.0033857948 0.25083849 0.0068340255
2216875 0.25116724 0.0032287277 0.25014645 0.0020023927 0.083356924 -6.0925828e-005 0.08336544 4.4144046e-005
0.083336659 0.00046973722 0.083337836 0.00029561386 0.083377726 0.00024685339 0.083389238 0.00015420235
0.24994576 0.0019950641 0.25117689 0.0029379337 0.083317026 3.9019727e-005 0.083304845 0.00012799923
0.0832427 0.00031056124 0.083270006 0.00027709961 0.083314084 0.00019793163 0.083330803 0.00014142336
0.083336793 -3.7016565e-005 0.083319955 4.6104349e-005 0.25149834 0.0037543015 0.24992956 0.0024217723
0.08332023 0.0003611568 0.083320513 0.00014688315 0.083298676 -0.00051226775 0.083331384 -0.00037662624
0.08330024 5.0661478e-005 0.083291344 0.00020025215 0.24974613 0.0025511 0.25129476 0.0035963792
0.08327733 0.00039697887 0.083289497 0.00017503984 0.083309151 -0.00041871914 0.083303019 -0.00028590226
0.083241545 0.00049415306 0.083217077 0.0003571694 0.083207361 0.00043194261 0.083248422 0.00042027404
0.25154221 0.0034887227 0.24981347 0.0011246389 0.083287716 0.00020143707 0.083293021 0.00025657783
0.083253242 0.0003778931 0.08328227 0.00038832112 0.083242029 0.00023225823 0.083264038 0.00022723951
0.24972655 0.0011778492 0.25115684 0.003341424 0.083319351 0.00041515584 0.083330199 0.00048798832
0.083346955 0.00031881715 0.083317392 0.00030727149 0.083266146 -0.00043714303 0.083283477 -0.00037934806
0.083254293 0.00017916116 0.083287664 0.00035098058 0.25099882 0.0036243526 0.25019383 0.0026355854
0.083323479 0.00020562277 0.083315283 0.00023090174 0.083266735 -0.00031354075 0.083290271 -0.00024788425
0.083220303 0.00016844171 0.083283484 0.00042083376 0.25006256 0.0026456513 0.25103745 0.0031738072
2622500 0.25121039 0.0031476305 0.25017506 0.0018250089 0.083397955 -0.00023326106 0.083400913 -0.00010593762
0.08336217 0.00037884101 0.083369568 0.00020013188 0.083393343 0.00011789538 0.083374389 7.3058174e-005
0.24995776 0.0018568208 0.25123113 0.0028545044 0.0833387 -0.00010657492 0.083325692 4.4964409e-006
0.083256602 0.00020754521 0.083269663 0.00020016014 0.083324887 7.7732679e-005 0.083318852 3.772695e-005
0.083364561 -0.00020879516 0.083359689 -0.00014063616 0.25153056 0.0037703952 0.24999416 0.0023123866
0.08332029 0.00025115328 0.08336015 3.3178235e-006 0.083329111 -0.00080429041 0.083321258 -0.0006019462
0.083306052 -6.1058665e-005 0.083319508 9.5127049e-005 0.24978049 0.0025466348 0.25131273 0.0036505368
0.083237574 0.00031209059 0.083300702 9.1688875e-005 0.083295271 -0.00065016164 0.083297268 -0.00047428513
0.083162963 0.00039871843 0.083141327 0.00022435453 0.083145335 0.00033693129 0.083171606 0.00031768333
0.25125101 0.0033778639 0.24954119 0.00074489141 0.083161823 5.8214358e-005 0.083173469 0.00012146877
0.083276577 0.00031881678 0.083304033 0.0002965538 0.083260663 0.00014532726 0.083279654 0.00012728624
0.24970153 0.0008964701 0.25120947 0.0032739209 0.083322793 0.00033842414 0.083305858 0.00043646505
0.08337602 0.00021091211 0.083361641 0.000188071 0.083297007 -0.00066522288 0.083315477 -0.00060421374
0.083256625 3.3106528e-005 0.083315544 0.00026270089 0.2510173 0.0036034677 0.25012127 0.0025974596
0.083348945 7.4985517e-005 0.083339743 7.9226658e-005 0.083273835 -0.0005434514 0.08331316 -0.00045584448
0.083246946 3.0685569e-005 0.083299138 0.00032911863 0.25007221 0.002533928 0.25089449 0.0030727095
3028125 0.25127304 0.0037986874 0.2501277 0.0025045248 0.083371632 -0.00015031209 0.083410412 -1.9867573e-005
0.083366588 0.00057614391 0.083338551 0.0003492547 0.08339785 0.00026563878 0.083390467 0.00015619876
0.24997564 0.0024983492 0.25128344 0.0034734723 0.08334665 -3.6952322e-005 0.083338052 0.00011781586
0.083273217 0.00038363322 0.083240233 0.00034521389 0.083343975 0.00023187498 0.083314992 0.00013973701
0.083381221 -0.00012671764 0.083366841 -2.05245e-005 0.25157472 0.0044715717 0.25003493 0.002992782
0.083337009 0.00041488418 0.083351515 0.00014095374 0.083334759 -0.00081527705 0.083325483 -0.00064217468
0.083345838 4.4024357e-005 0.083350971 0.00022029062 0.24980806 0.003196937 0.25148359 0.0042287125
0.08325962 0.00048892369 0.083301574 0.0002086208 0.08332935 -0.00063993747 0.083312295 -0.00050019886
0.083251663 0.00053452421 0.083219536 0.00034690462 0.083226323 0.0004455093 0.08325626 0.00041897234
0.25154668 0.0037089018 0.24970847 0.0010756571 0.083228394 0.00010666261 0.083262675 0.00015759449
0.083303511 0.0005085906 0.083306305 0.00052602036 0.083274715 0.00030728811 0.083301671 0.00028923602
0.24970864 0.0015047828 0.251293 0.003999135 0.08333946 0.00055155344 0.08332745 0.00062300317
0.083378799 0.00037064723 0.08337076 0.000347386 0.083303668 -0.000666106 0.083332546 -0.00060357497
0.083250247 0.00016631736 0.083313935 0.00042394534 0.25107744 0.004323177 0.25012484 0.0032298095
0.083331861 0.00023444837 0.083316214 0.00024947844 0.083259046 -0.00048055046 0.083309941 -0.00040503664
0.083216071 0.00019554367 0.083278179 0.00054556801 0.2500172 0.0033795689 0.25090808 0.003652523
3433750 0.25136849 0.0035218874 0.25027105 0.0026845236 0.083446421 -0.00023896089 0.083464146 -0.00010043126
0.083433956 0.0005315374 0.083414771 0.00035479473 0.08346355 0.00023374031 0.083443746 8.9862588e-005
0.25006554 0.0026794386 0.25135767 0.0032303752 0.083386697 -7.6845987e-005 0.083376929 3.3557575e-005
0.083312087 0.0003353965 0.083355255 0.0003425919 0.083394028 0.00019981766 0.083376884 5.7357782e-005
0.08342734 -0.00021049003 0.083408736 -0.00011608658 0.25167412 0.0043669147 0.25010213 0.0032501479
0.083394095 0.000377341 0.083404861 0.00012144273 0.083406359 -0.0009770646 0.083398268 -0.00081683672
0.083366841 -2.2663709e-005 0.083372541 0.00017074881 0.24987681 0.0035507574 0.2514424 0.0040893941
0.083351322 0.00047016164 0.083340108 0.00021205774 0.083357051 -0.00077967276 0.083333902 -0.00064322818
0.083199628 0.00076996186 0.083168663 0.00054855167 0.08317066 0.00070283416 0.083199777 0.0006403653
0.25130457 0.0040693153 0.24951832 0.0017865699 0.083225824 0.00031060475 0.083206341 0.00034363908
0.083334684 0.0005110174 0.083353236 0.00049106724 0.0833112 0.0002752181 0.083327293 0.00023521183
0.24980909 0.0014734676 0.25134417 0.0037452187 0.083380692 0.0005639781 0.083356 0.00061820337
0.083428487 0.00033722873 0.083436981 0.00028826192 0.083362713 -0.00083147938 0.083368763 -0.0007920487
0.083345823 7.5656833e-005 0.083368741 0.00039008286 0.25118423 0.0040914565 0.25023824 0.0033813221
0.083378531 0.00018374182 0.083373442 0.00016859476 0.083313324 -0.00062398531 0.083344981 -0.00054372422
0.083298407 9.4983327e-005 0.083337605 0.0005171838 0.25014502 0.003615625 0.25096348 0.0032475572
3839375 0.25138155 0.0043467586 0.25034699 0.0032452163 0.08346644 -0.00016730353 0.083481953 2.1986041e-005
0.083484717 0.00070759217 0.083441176 0.00048685825 0.083504148 0.00038234406 0.083493829 0.00020998584
0.25014561 0.003274662 0.25136584 0.0040606796 0.083405167 2.3917091e-005 0.083409719 0.00018374083
0.083350331 0.00048154366 0.0834096 0.00048743302 0.083437666 0.00032616974 0.083414018 0.00018158548
0.083465144 -0.00013658126 0.083448268 -2.4495903e-005 0.25163922 0.0051957257 0.25008938 0.0038520084
0.083427034 0.00052111194 0.083421335 0.00020231356 0.083411388 -0.00098007824 0.083412759 -0.00080069143
0.083438002 7.9583908e-005 0.083426178 0.00031093092 0.24994695 0.0041480511 0.25145751 0.0049528303
0.08339633 0.00062313024 0.083391011 0.0003121192 0.083397932 -0.00075128634 0.083390743 -0.00058997324
0.083217606 0.00089324918 0.083179064 0.00064111914 0.08316388 0.00081490417 0.083180554 0.00077929371
0.25119951 0.0047101495 0.24944478 0.0020543551 0.083230071 0.00041686272 0.083230406 0.00043186962
0.083383918 0.00070668751 0.083402999 0.00070560642 0.083347999 0.00046996516 0.083368383 0.00045634253
0.24987949 0.002066293 0.25138548 0.0046969298 0.083395652 0.00079569349 0.083406165 0.00086993602
0.083493933 0.00048634905 0.083471939 0.00042561904 0.083372764 -0.00081611803 0.08340162 -0.00074048835
0.083372794 0.00020891656 0.083392404 0.00057576125 0.25116622 0.0050689224 0.25032482 0.004154115
0.083440803 0.00034961765 0.083430603 0.00031684458 0.083349496 -0.0005823308 0.083376028 -0.00046331249
0.083333842 0.00025125293 0.083393998 0.00072893116 0.25020158 0.0044030393 0.25100902 0.0042059086
4245000 0.25172079 0.0045364867 0.25045776 0.0035341582 0.08354108 -0.00021091411 0.083536871 1.1581837e-005
0.083539866 0.0007738623 0.083508775 0.00049247412 0.083574362 0.00038254596 0.083580449 0.00024156048
0.25027734 0.0036264563 0.25167164 0.0042261067 0.083467484 3.1430678e-005 0.083467692 0.0002124882
0.083419599 0.00055359764 0.083459646 0.000528818 0.083497241 0.00033713217 0.083510898 0.00021564012
0.083506636 -0.00016542801 0.083490603 -4.5341258e-005 0.25203109 0.005467122 0.25020781 0.004237243
0.083464958 0.00057214772 0.08345741 0.00019529615 0.083460346 -0.0011318563 0.083480753 -0.00087847194
0.083502665 0.00011637912 0.083500333 0.00034731207 0.25012723 0.0046963901 0.2518166 0.005305748
0.083467498 0.00075080444 0.083450839 0.00035245146 0.083475098 -0.00081932044 0.083479658 -0.00059827528
0.08339335 0.0010969664 0.083319224 0.00082949363 0.08334472 0.00097951409 0.083356418 0.00094890286
0.25188643 0.0051644174 0.24989964 0.0025566083 0.083410792 0.00053800404 0.083426513 0.00060231012
0.083445638 0.0008201641 0.083477728 0.00080984575 0.083416834 0.00050162361 0.083427213 0.00048696616
0.25006896 0.0023926659 0.25175852 0.0049194531 0.083492875 0.00088208058 0.083506934 0.00098874082
0.083535321 0.00054298626 0.083519503 0.00049119571 0.083441436 -0.00092718739 0.083442368 -0.00084202248
0.083445057 0.00021714601 0.083462156 0.00061036443 0.25154653 0.0052413167 0.25055656 0.0046326532
0.083484776 0.00037831877 0.083481304 0.00037265051 0.083411895 -0.00065428816 0.083429031 -0.00050988363
0.083393186 0.00028166757 0.083436467 0.00079042552 0.25036111 0.0048174537 0.25145203 0.0044439933
4650625 0.25189298 0.0050629466 0.25059551 0.0039041215 0.083639763 -0.00021443611 0.083653972 1.6594129e-005
0.083678745 0.00085725071 0.083585992 0.00054268772 0.083665781 0.00044022751 0.083725184 0.00026576922
0.25048482 0.004008098 0.25180385 0.0047752801 0.083585285 5.5350411e-005 0.083582699 0.00024774318
0.083559774 0.00060904963 0.083551802 0.00056088 0.083604582 0.00039428848 0.083668284 0.00026389569
0.083557039 -0.00017646112 0.083523586 -3.711415e-005 0.25221062 0.0059767105 0.2503767 0.0046132952
0.083574325 0.00062055537 0.083538778 0.00020576292 0.083515465 -0.0012226648 0.083601326 -0.00098989671
0.08359345 0.00015965314 0.083582543 0.00042414916 0.25043848 0.0051267929 0.25207803 0.0059570763
0.083620399 0.00084506324 0.083576851 0.00042157332 0.083580025 -0.00085873459 0.083634265 -0.00065067882
0.083579294 0.0013717982 0.083506986 0.0011261512 0.083562732 0.0012363484 0.083543777 0.0012196235
0.25242522 0.0062074061 0.2502687 0.0032803195 0.083604112 0.00078337983 0.083645895 0.00083481951
0.083551742 0.00094231527 0.083582118 0.00094592804 0.083561949 0.00056638545 0.083563536 0.00056668901
0.25046465 0.0026697742 0.2519576 0.0054985308 0.083631977 0.0010156834 0.083675727 0.0011003299
0.083625928 0.00058023515 0.083592825 0.00053072924 0.08354719 -0.0010410739 0.083533056 -0.00093497575
0.083578438 0.0002313709 0.08355426 0.00065506872 0.25173792 0.0058265929 0.25092793 0.0049479241
0.083509661 0.00043291546 0.083497159 0.00042394671 0.083461456 -0.00072614581 0.083466254 -0.00055879471
0.083472624 0.00031264764 0.083458334 0.00087391998 0.25039133 0.0052994387 0.2515727 0.0048693242
5056250 0.25212029 0.0057597253 0.25076699 0.0045206547 0.083692707 -0.00010861034 0.083710052 0.00010376941
0.083765887 0.0010696996 0.083676338 0.00072214275 0.08374054 0.00056488044 0.083761044 0.00038387856
0.25069183 0.0046920502 0.25202724 0.0054569305 0.0836481 0.00019186882 0.083668947 0.00039233066
0.083635658 0.00082957512 0.083647795 0.00077951862 0.083687849 0.0005375148 0.083713949 0.00039775396
0.083644249 -0.00012818046 0.083615862 3.9595561e-005 0.25230569 0.0067542833 0.25047413 0.0052499669
0.083643518 0.00075662829 0.083607458 0.0003308701 0.083577238 -0.0012652515 0.083620727 -0.00095156621
0.083737001 0.00029077008 0.08371257 0.00057045132 0.25056809 0.0059395214 0.25229499 0.0067121037
0.08372815 0.001047359 0.083682641 0.00060293009 0.083687045 -0.00085005059 0.083711445 -0.00056434097
0.083592147 0.0015671665 0.083500251 0.0012603089 0.08352422 0.0014726114 0.083539814 0.001430159
