!Agilent Technologies,M9370A,MY54322275,A.02.50.04
!Agilent M9370A: A.02.50.04
!Date: Tuesday, April 03, 2018 09:18:10
!Correction: S11(Full 8 Port(1,2,3,4,5,6,7,8)) 
!S12(Full 8 Port(1,2,3,4,5,6,7,8)) 
!S13(Full 8 Port(1,2,3,4,5,6,7,8)) 
!S14(Full 8 Port(1,2,3,4,5,6,7,8)) 
!S15(Full 8 Port(1,2,3,4,5,6,7,8)) 
!S16(Full 8 Port(1,2,3,4,5,6,7,8)) 
!S17(Full 8 Port(1,2,3,4,5,6,7,8)) 
!S18(Full 8 Port(1,2,3,4,5,6,7,8)) 
!S21(Full 8 Port(1,2,3,4,5,6,7,8)) 
!S22(Full 8 Port(1,2,3,4,5,6,7,8)) 
!S23(Full 8 Port(1,2,3,4,5,6,7,8)) 
!S24(Full 8 Port(1,2,3,4,5,6,7,8)) 
!S25(Full 8 Port(1,2,3,4,5,6,7,8)) 
!S26(Full 8 Port(1,2,3,4,5,6,7,8)) 
!S27(Full 8 Port(1,2,3,4,5,6,7,8)) 
!S28(Full 8 Port(1,2,3,4,5,6,7,8)) 
!S31(Full 8 Port(1,2,3,4,5,6,7,8)) 
!S32(Full 8 Port(1,2,3,4,5,6,7,8)) 
!S33(Full 8 Port(1,2,3,4,5,6,7,8)) 
!S34(Full 8 Port(1,2,3,4,5,6,7,8)) 
!S35(Full 8 Port(1,2,3,4,5,6,7,8)) 
!S36(Full 8 Port(1,2,3,4,5,6,7,8)) 
!S37(Full 8 Port(1,2,3,4,5,6,7,8)) 
!S38(Full 8 Port(1,2,3,4,5,6,7,8)) 
!S41(Full 8 Port(1,2,3,4,5,6,7,8)) 
!S42(Full 8 Port(1,2,3,4,5,6,7,8)) 
!S43(Full 8 Port(1,2,3,4,5,6,7,8)) 
!S44(Full 8 Port(1,2,3,4,5,6,7,8)) 
!S45(Full 8 Port(1,2,3,4,5,6,7,8)) 
!S46(Full 8 Port(1,2,3,4,5,6,7,8)) 
!S47(Full 8 Port(1,2,3,4,5,6,7,8)) 
!S48(Full 8 Port(1,2,3,4,5,6,7,8)) 
!S51(Full 8 Port(1,2,3,4,5,6,7,8)) 
!S52(Full 8 Port(1,2,3,4,5,6,7,8)) 
!S53(Full 8 Port(1,2,3,4,5,6,7,8)) 
!S54(Full 8 Port(1,2,3,4,5,6,7,8)) 
!S55(Full 8 Port(1,2,3,4,5,6,7,8)) 
!S56(Full 8 Port(1,2,3,4,5,6,7,8)) 
!S57(Full 8 Port(1,2,3,4,5,6,7,8)) 
!S58(Full 8 Port(1,2,3,4,5,6,7,8)) 
!S61(Full 8 Port(1,2,3,4,5,6,7,8)) 
!S62(Full 8 Port(1,2,3,4,5,6,7,8)) 
!S63(Full 8 Port(1,2,3,4,5,6,7,8)) 
!S64(Full 8 Port(1,2,3,4,5,6,7,8)) 
!S65(Full 8 Port(1,2,3,4,5,6,7,8)) 
!S66(Full 8 Port(1,2,3,4,5,6,7,8)) 
!S67(Full 8 Port(1,2,3,4,5,6,7,8)) 
!S68(Full 8 Port(1,2,3,4,5,6,7,8)) 
!S71(Full 8 Port(1,2,3,4,5,6,7,8)) 
!S72(Full 8 Port(1,2,3,4,5,6,7,8)) 
!S73(Full 8 Port(1,2,3,4,5,6,7,8)) 
!S74(Full 8 Port(1,2,3,4,5,6,7,8)) 
!S75(Full 8 Port(1,2,3,4,5,6,7,8)) 
!S76(Full 8 Port(1,2,3,4,5,6,7,8)) 
!S77(Full 8 Port(1,2,3,4,5,6,7,8)) 
!S78(Full 8 Port(1,2,3,4,5,6,7,8)) 
!S81(Full 8 Port(1,2,3,4,5,6,7,8)) 
!S82(Full 8 Port(1,2,3,4,5,6,7,8)) 
!S83(Full 8 Port(1,2,3,4,5,6,7,8)) 
!S84(Full 8 Port(1,2,3,4,5,6,7,8)) 
!S85(Full 8 Port(1,2,3,4,5,6,7,8)) 
!S86(Full 8 Port(1,2,3,4,5,6,7,8)) 
!S87(Full 8 Port(1,2,3,4,5,6,7,8)) 
!S88(Full 8 Port(1,2,3,4,5,6,7,8)) 
!S8P File: Measurements: <S11,S12,S13,S14,S15,S16,S17,S18>,
!<S21,S22,S23,S24,S25,S26,S27,S28>,
!<S31,S32,S33,S34,S35,S36,S37,S38>,
!<S41,S42,S43,S44,S45,S46,S47,S48>,
!<S51,S52,S53,S54,S55,S56,S57,S58>,
!<S61,S62,S63,S64,S65,S66,S67,S68>,
!<S71,S72,S73,S74,S75,S76,S77,S78>,
!<S81,S82,S83,S84,S85,S86,S87,S88>:
# Hz S  RI   R 50
300000 0.99970359 -0.010773637 0.00013636275 0.0046535633 1.633429e-005 0.00090255763 2.2605442e-005 0.00092402799
2.2234824e-005 0.0009487861 2.4630079e-005 0.0010310091 1.7283975e-005 0.0010308459 2.0895532e-005 0.0010262341
0.0001376594 0.0046556788 0.99991053 -0.010980998 1.7526267e-005 0.00094097736 1.6982738e-005 0.00094790704
2.292442e-005 0.0010229845 2.1856449e-005 0.00094679784 1.8362431e-005 0.0010291662 1.7259737e-005 0.0010301413
2.3189987e-005 0.00089625811 2.2262751e-005 0.00093389093 0.99974805 -0.010226076 0.00014047557 0.0045810249
2.1849975e-005 0.0010063987 2.2939157e-005 0.00098113751 8.655642e-006 0.00071116874 1.3618799e-005 0.00074388064
1.8712655e-005 0.00092616293 1.8143397e-005 0.00095202273 0.0001077248 0.0046275412 0.99985188 -0.010427097
2.1384241e-005 0.0010880367 1.7573413e-005 0.00098334404 1.1751614e-005 0.00071979425 1.2842372e-005 0.00075276959
2.2842645e-005 0.00094590097 2.2872822e-005 0.0010236212 1.861431e-005 0.0010114018 2.2243941e-005 0.0010821115
0.9996919 -0.010559635 0.00012604559 0.0043954686 1.5121237e-005 0.00094755262 1.616316e-005 0.0009718127
2.2187885e-005 0.0010370228 2.0161022e-005 0.00095316162 1.7672688e-005 0.00099292048 2.2154358e-005 0.00098705268
0.00010870553 0.0044356915 0.99981683 -0.010990164 1.593149e-005 0.0010884651 1.6403123e-005 0.0010369171
2.6056834e-005 0.0010158829 2.4195435e-005 0.0010178384 1.6082167e-005 0.00070577621 1.6453389e-005 0.00070973655
2.0415077e-005 0.00093925628 2.5885774e-005 0.0010655555 0.99975222 -0.010305822 0.0001215001 0.0044943094
2.2799813e-005 0.0010170331 2.0191859e-005 0.0010282735 1.4919441e-005 0.00074556883 1.3723683e-005 0.00074508274
1.802796e-005 0.00096852204 2.1896147e-005 0.0010283595 0.0001061322 0.0045263618 0.99995565 -0.010438374
1300700.7007007 0.99829119 -0.049633913 0.0010002516 0.021237737 7.2104944e-005 0.0041244333 7.9715355e-005 0.0042316122
9.7589109e-005 0.0043838029 0.00011300044 0.0047274465 9.6345801e-005 0.0046933121 9.6447504e-005 0.0046666176
0.0010035088 0.021210827 0.99848241 -0.049894914 8.2335784e-005 0.0042590443 8.5224558e-005 0.0043047206
0.00011603419 0.004702244 8.6046384e-005 0.0042931531 9.3296927e-005 0.0046598073 9.9580437e-005 0.0046716616
7.0756454e-005 0.0041212616 8.0883357e-005 0.0042546024 0.99847376 -0.046575401 0.00094614853 0.020815456
0.00010288053 0.0046411622 8.9866189e-005 0.0044734543 4.0869971e-005 0.0032223503 5.2660802e-005 0.0033823578
7.6345859e-005 0.0042284909 7.8834208e-005 0.0043061241 0.00093483861 0.020802986 0.99854624 -0.047270466
0.00012362798 0.004996493 8.7814966e-005 0.0044540726 4.1851254e-005 0.0032499549 5.33149e-005 0.0033989176
9.6775068e-005 0.0043798075 0.00011440204 0.0047035022 0.00010515132 0.0046355142 0.00012095261 0.0049891518
0.99812466 -0.049413763 0.00097382971 0.020230087 8.6891632e-005 0.0043517677 9.7180309e-005 0.0044584079
0.00010923092 0.0047263186 8.1499442e-005 0.0042960132 8.5791478e-005 0.0044813538 8.6702305e-005 0.0044592037
0.00095741166 0.020244675 0.99841404 -0.04962752 0.0001108531 0.0049010948 9.9441619e-005 0.0046754275
9.4418581e-005 0.0046818131 9.0384558e-005 0.0046497607 3.9625702e-005 0.0032198559 3.9499322e-005 0.0032473379
8.3100029e-005 0.0043460345 0.00011034856 0.0048848386 0.99845761 -0.047080424 0.00092832261 0.020398609
9.3777846e-005 0.0046741203 9.5269519e-005 0.0046821516 4.8726903e-005 0.0033855995 4.9668219e-005 0.003408514
9.3254188e-005 0.0044694189 0.00010050918 0.0046766126 0.00091663696 0.020425571 0.99860024 -0.047575813
2301401.4014014 0.99501926 -0.087703526 0.0030104041 0.037462238 0.00020332604 0.007307814 0.0002255413 0.0074894046
0.00024391651 0.0077669397 0.00031608585 0.0083584739 0.00027375112 0.0083071729 0.00027739009 0.0082651507
0.0030192672 0.037424736 0.99515498 -0.088156492 0.00023372288 0.0075333151 0.00024054703 0.0076199016
0.00031567703 0.0083319657 0.00023457063 0.0075902855 0.00027077465 0.0082455836 0.00028405336 0.0082673449
0.00020290019 0.0072982539 0.00022753461 0.0075348038 0.9955529 -0.082338698 0.0028432724 0.03673536
0.00027662556 0.0082225259 0.0002558117 0.007919034 0.0001129446 0.0057123955 0.00014609474 0.0059867767
0.00022149264 0.0074809496 0.00022988027 0.0076201218 0.0027955519 0.036715157 0.99554211 -0.083554067
0.0003336111 0.0088471808 0.00024230403 0.0078849858 0.00011290104 0.0057608355 0.00014532439 0.0060177683
0.0002382981 0.0077505773 0.0003030957 0.0083270809 0.00026838409 0.0082125561 0.00033530156 0.0088318456
0.99498534 -0.087588206 0.0028448764 0.035738904 0.00022113019 0.0077103432 0.00025598711 0.0079011088
0.00030386803 0.0083558932 0.00021732396 0.0075936955 0.00024434496 0.0079223122 0.00023749132 0.0078933286
0.0028182287 0.035773247 0.99513155 -0.087673992 0.00031159894 0.0086629186 0.00027863425 0.0082629174
0.00026957243 0.0082896724 0.00026393859 0.0082366681 0.00011003097 0.005707175 0.00011618362 0.0057534194
0.00022304762 0.0077090892 0.00031438252 0.0086464435 0.99550617 -0.083232172 0.0027901423 0.035994623
0.00027016233 0.0082729086 0.00026731804 0.0082840631 0.00013695568 0.0059971227 0.00014205964 0.006027828
0.0002509277 0.0079227202 0.00027952847 0.0082767289 0.0027497243 0.036037818 0.99558616 -0.084089376
3302102.1021021 0.98997754 -0.12557508 0.006088695 0.053542759 0.00040358657 0.010501193 0.00045107098 0.010761553
0.00047248547 0.011151596 0.00062272139 0.012000728 0.00054291147 0.011932666 0.00055026176 0.011866737
0.0060984544 0.053491026 0.99004167 -0.12620589 0.00046048977 0.010822081 0.0004764655 0.010943637
0.00061941997 0.011957366 0.00044931044 0.010894482 0.00053792383 0.011838646 0.00056206423 0.011868221
0.00040762845 0.010487489 0.00045651547 0.010820973 0.99105656 -0.11790936 0.0057612103 0.052517768
0.0005498376 0.011803087 0.00051622913 0.011376235 0.00022678767 0.0082102092 0.00029193042 0.0086021889
0.00043197029 0.010746386 0.00045028553 0.010945945 0.0056320042 0.052500952 0.99089104 -0.11964799
0.00066480017 0.012695907 0.00047438269 0.011324929 0.00022174779 0.0082776481 0.00028193803 0.0086451387
0.00044588075 0.011125355 0.00058298471 0.011947592 0.00051498576 0.011788432 0.00064849056 0.012673737
0.98994714 -0.12542816 0.0057154531 0.051084317 0.00042649987 0.011077862 0.0004931438 0.011342828
0.00058950682 0.011990071 0.00041120834 0.01090312 0.00047998494 0.011373957 0.00046112243 0.011333368
0.0056931158 0.051144257 0.99010593 -0.12553538 0.00060976174 0.012433288 0.00054826774 0.011861437
0.00053416914 0.01190699 0.00052123971 0.011831096 0.00021608517 0.0082025854 0.00022779623 0.0082757222
0.00044249767 0.011078045 0.00063198595 0.012415929 0.99097604 -0.11919611 0.0056479555 0.051453844
0.00052556698 0.011875788 0.00052999938 0.011892254 0.00027080707 0.0086118653 0.00027540725 0.0086609265
0.00049496285 0.011372445 0.00054880121 0.011877837 0.0055442131 0.051518645 0.99090993 -0.12042214
4302802.8028028 0.98316473 -0.16316232 0.010202855 0.06946446 0.00067233382 0.013719545 0.00074545853 0.014055579
0.00077655405 0.014561943 0.001029594 0.015659422 0.00089844532 0.015576501 0.00091108325 0.015498762
0.010197126 0.069397151 0.98313415 -0.16398041 0.00075211539 0.014125998 0.00078896165 0.014288476
0.001020981 0.015602171 0.00072630675 0.014230663 0.0008837122 0.015453306 0.00092781865 0.015498135
0.00067550683 0.013701396 0.00075363554 0.014129553 0.98500854 -0.1532637 0.0096608745 0.068141475
0.00091332564 0.015404493 0.00085347274 0.014850204 0.00037043239 0.010733762 0.00047930368 0.011237611
0.00070448063 0.014036209 0.00074129581 0.014295002 0.0094085643 0.068164006 0.98462087 -0.15549083
0.0010956883 0.016564541 0.00077853003 0.014795828 0.00035943234 0.010824638 0.0004539378 0.011294015
0.00070272665 0.014542193 0.00093435968 0.015606096 0.00082199462 0.015398749 0.0010525502 0.016552435
0.98318946 -0.16296495 0.0094881766 0.066371709 0.00068250857 0.014486093 0.00079315074 0.014822694
0.0009568535 0.01565283 0.00065219053 0.014245549 0.00077211432 0.014858567 0.00074535271 0.014806967
0.0094906557 0.066405848 0.983334 -0.16311544 0.0010000186 0.01623 0.00088781951 0.015486147
0.00088565203 0.015549698 0.00086676661 0.01545185 0.00035227786 0.010727421 0.00037568301 0.010818983
0.00073372805 0.014477014 0.0010555898 0.016203513 0.9848544 -0.15496485 0.0094710123 0.066775091
0.00085848593 0.015506865 0.00086877093 0.015524156 0.00043450535 0.011255065 0.0004438445 0.01131101
0.00081331911 0.014847446 0.00089832157 0.015500447 0.0092517715 0.06687247 0.98462528 -0.15649334
5303503.5035035 0.9745515 -0.20046823 0.015289467 0.085218281 0.00099645322 0.016979365 0.0011025778 0.017385272
0.0011299344 0.018007446 0.0015155481 0.019354647 0.0013297334 0.019261757 0.0013625298 0.019165352
0.015252621 0.08516901 0.97448564 -0.20143074 0.0011146973 0.017485671 0.0011619759 0.01767404
0.0015006433 0.019288171 0.0010525333 0.017620647 0.0013085476 0.019116117 0.0013770316 0.019166784
0.0010085552 0.016951865 0.0011232973 0.017473593 0.97734714 -0.18837953 0.014520396 0.083592542
0.001356067 0.019034995 0.001269146 0.018356787 0.00054788834 0.013292115 0.00071560073 0.013902307
0.0010224873 0.017381381 0.0010760997 0.017698882 0.014016847 0.083769985 0.97675055 -0.19101201
0.001605715 0.020479504 0.00113077 0.018321645 0.00050687097 0.013418459 0.00066131703 0.013993048
0.00099489326 0.018043084 0.0013472372 0.019355427 0.0011833303 0.019100679 0.0015302211 0.020517459
0.97470653 -0.20018865 0.014145994 0.08169543 0.00098007079 0.017983377 0.0011489346 0.018390244
0.0013875035 0.019375831 0.00092941854 0.017656794 0.0011220037 0.018401422 0.0010833318 0.01834204
0.014155165 0.08160919 0.97482151 -0.20041001 0.0014673995 0.020088332 0.0012936216 0.019173542
0.0013185277 0.019229267 0.0012858616 0.019110952 0.00052497018 0.013289997 0.0005522329 0.013400517
0.0010892111 0.017918849 0.0015745438 0.020035276 0.97707546 -0.19050105 0.01422317 0.081946991
0.0012744756 0.019182177 0.0012820617 0.019207515 0.00063490809 0.013931178 0.00064970896 0.014006723
0.0012002481 0.018365761 0.0013311098 0.019168643 0.013854219 0.082109705 0.97668874 -0.19229561
6304204.2042042 0.96422791 -0.23724961 0.021337366 0.10088269 0.0013751884 0.020318313 0.0015353377 0.020794384
0.0015509904 0.021534123 0.0021026626 0.023128701 0.0018558096 0.023027048 0.0018824551 0.022918373
0.021259852 0.10090053 0.96413922 -0.23839995 0.0015332884 0.020921323 0.0016076363 0.02114146
0.0020706216 0.023062686 0.0014481337 0.021097919 0.0018168734 0.022871973 0.0018962019 0.022935908
0.0014012032 0.020262515 0.0015621961 0.020877635 0.96815062 -0.22308026 0.020333417 0.098902099
0.001887098 0.022719815 0.0017785382 0.021922683 0.00076706026 0.015910372 0.00098748971 0.016625412
0.0013948902 0.020836703 0.0014652404 0.021204997 0.019481679 0.099464595 0.96742976 -0.22607493
0.0022037302 0.024503192 0.0015535535 0.021962402 0.00068484625 0.016106086 0.00088659883 0.016777618
0.0014012927 0.021668019 0.0019106676 0.023224123 0.0016757792 0.022922102 0.0021825091 0.024596075
0.96450251 -0.23699068 0.019980574 0.097094044 0.0013962643 0.021606373 0.0016362887 0.022069968
0.0019070324 0.023212079 0.0012655267 0.021183819 0.0015426977 0.022058157 0.0014976114 0.021994935
0.019751929 0.096886486 0.96469247 -0.2372414 0.002025607 0.024070535 0.0017845626 0.022969458
0.0018297906 0.02298327 0.0017887523 0.022848081 0.00072055729 0.015917407 0.00076788606 0.016041461
0.0015195118 0.021426741 0.0022021697 0.023931049 0.96774167 -0.22558494 0.019900864 0.097021483
0.0017567085 0.022942154 0.0017723572 0.022973243 0.00086424401 0.016679635 0.00089423422 0.0167617
0.0016558446 0.021955814 0.0018425428 0.022914931 0.019347791 0.09730418 0.96724254 -0.22764879
7304904.9049049 0.9522509 -0.27344474 0.028612785 0.11657852 0.0018687984 0.023778144 0.0020964025 0.024313077
0.0020992423 0.025189783 0.0028538054 0.027014904 0.002513621 0.026919885 0.0025768892 0.02678816
0.02851411 0.11669144 0.95214766 -0.27490255 0.0020879311 0.024487643 0.0021946414 0.024736267
0.0028098898 0.026971275 0.0019719512 0.024715658 0.0024670535 0.026765639 0.0026027504 0.026824584
0.0019093176 0.023679884 0.0021177884 0.024386156 0.95744598 -0.25732675 0.027260017 0.11413807
0.0025482799 0.02651451 0.0024152324 0.025589095 0.001044909 0.018618431 0.0013577295 0.01942483
0.0019193008 0.024450049 0.0020127422 0.024870608 0.026236981 0.11537528 0.95662385 -0.2608535
0.0030026441 0.02869631 0.0021354973 0.0257666 0.00094858109 0.018925818 0.0012367662 0.019693935
0.0020272282 0.025403742 0.002736473 0.027198384 0.0024239339 0.026848879 0.0031241002 0.028766751
0.95257729 -0.27337587 0.027459964 0.11236005 0.0020480056 0.025338514 0.002385973 0.02584631
0.0025993567 0.027201662 0.0017365431 0.024878582 0.0021248315 0.025866786 0.0020716228 0.025798356
0.026613818 0.11229489 0.95292294 -0.27368894 0.0027849118 0.028201433 0.0024624958 0.026909862
0.0024850389 0.026841165 0.0024319878 0.026684266 0.00099092384 0.018633971 0.0010618556 0.018770849
0.0020670397 0.025051137 0.002997526 0.0279248 0.95687664 -0.26022765 0.026763521 0.1119906
0.0023743303 0.026825234 0.0023957607 0.026865177 0.0011657584 0.019525286 0.0012213701 0.019612832
0.0022328144 0.025671912 0.0024890036 0.026776306 0.02592754 0.1125446 0.95617777 -0.26268122
8305605.6056056 0.93884534 -0.30911812 0.037662003 0.13204683 0.0026117563 0.027346026 0.0028954416 0.027921019
0.0029031506 0.028953098 0.0039034439 0.030995984 0.0034671202 0.030914629 0.0035753455 0.030737346
0.037586182 0.13227162 0.93857843 -0.31092116 0.0029037278 0.028150646 0.0030391142 0.028404526
0.003863534 0.030970352 0.0027683997 0.028432334 0.0034215185 0.030750433 0.0036236723 0.030795306
0.0026262719 0.027190432 0.0028982214 0.02797851 0.94536412 -0.29110017 0.035722896 0.12911324
0.0034662692 0.03038317 0.0032976349 0.029331684 0.0014847146 0.021401927 0.001897161 0.022290198
0.0027526689 0.028156178 0.0028717339 0.028634403 0.034889858 0.1310689 0.94431168 -0.29532883
0.004199578 0.032965571 0.0030622208 0.029662563 0.0014450091 0.021832282 0.0018344419 0.022678031
0.0029808113 0.029148091 0.0039318306 0.031163508 0.0035170831 0.030761575 0.0044579934 0.032900643
0.93901408 -0.30920145 0.036749117 0.12699084 0.0030377016 0.029073149 0.0034813485 0.029600171
0.0036560977 0.031273022 0.0025142194 0.028668452 0.0030245646 0.029763471 0.0029718885 0.029677125
0.035348989 0.12749365 0.93953407 -0.30974239 0.0039243218 0.032404702 0.0035023801 0.030907296
0.0034001514 0.030787533 0.0033276102 0.030613283 0.0014075082 0.021432858 0.0014975589 0.021564137
0.0028425313 0.028765867 0.0040634335 0.031988416 0.94461632 -0.29440081 0.035124227 0.12664868
0.0032626647 0.030823154 0.0032889715 0.030865898 0.0016459762 0.022461466 0.0017131672 0.022544639
0.0030612082 0.029490964 0.0034116034 0.03072446 0.034097742 0.12762009 0.94352102 -0.29717571
9306306.3063063 0.9236607 -0.34449306 0.04886736 0.14607909 0.0037377717 0.030736282 0.004081103 0.031344615
0.004088351 0.032540318 0.0053733974 0.034746081 0.0048602666 0.034683812 0.0049684108 0.034457073
0.048893534 0.14637934 0.92310035 -0.34657484 0.0041264771 0.031633183 0.0042822477 0.031883765
0.005341379 0.0347513 0.0039355834 0.031980362 0.0048193065 0.034517135 0.0050480352 0.034539275
0.0036604819 0.030565782 0.0040135565 0.031428587 0.93163693 -0.32458815 0.04597171 0.14288057
0.0047301026 0.034083959 0.0045056036 0.032907955 0.0021582912 0.02409137 0.0026546475 0.025022805
0.0040050023 0.031635579 0.0041647712 0.032159407 0.04578748 0.14519309 0.93012303 -0.32934064
0.005880523 0.036930367 0.0044070431 0.033305272 0.0022494304 0.024571937 0.0027230652 0.025458718
0.0041944892 0.032693595 0.0054227859 0.034890566 0.0049028527 0.034443922 0.0060722558 0.036763526
0.92370009 -0.3445065 0.04760443 0.14025722 0.0042916206 0.032591235 0.0048256819 0.033101492
0.0051740613 0.035092033 0.0037087374 0.03227026 0.0043807351 0.033427857 0.0042705969 0.033341136
0.046357624 0.14115289 0.92413294 -0.34537065 0.0055379695 0.036327202 0.0049571577 0.034636449
0.004678797 0.034576543 0.0045897868 0.034394395 0.0020634446 0.024152009 0.0021600937 0.024279745
0.0039697806 0.032357637 0.0055246977 0.035869755 0.93073952 -0.32812321 0.045274545 0.14007634
0.0045509981 0.034675505 0.0045884037 0.034730669 0.0023971968 0.025314497 0.0024592534 0.025387798
0.0042811199 0.033173982 0.0047170222 0.03452808 0.04426514 0.14154728 0.92918104 -0.33107272
10307007.007007 0.90424198 -0.38063723 0.06035088 0.15287495 0.0048623164 0.032903705 0.0051732413 0.033582129
0.0052960189 0.034829486 0.0067397985 0.037106097 0.0062167505 0.03703576 0.0061537963 0.036919482
0.06035392 0.15294223 0.90439898 -0.38101661 0.0052798018 0.033793215 0.0053620618 0.034109097
0.0067424825 0.037083745 0.0049532391 0.034232445 0.0060985996 0.036834281 0.0061794179 0.036965001
0.0048491927 0.032897733 0.0052815564 0.033776585 0.91449487 -0.35902649 0.056327939 0.15133743
0.0060612783 0.036674477 0.0056921579 0.035426311 0.0028620404 0.026013108 0.0033293422 0.027057536
