!Agilent Technologies,M9370A,MY54322275,A.02.50.04
!Agilent M9370A: A.02.50.04
!Date: Tuesday, March 20, 2018 18:25:19
!Correction: S11(Full 16 Port(1,2,3,4,5,6,7,8,9,10,11,12,13,14,15,16)) 
!S12(Full 16 Port(1,2,3,4,5,6,7,8,9,10,11,12,13,14,15,16)) 
!S13(Full 16 Port(1,2,3,4,5,6,7,8,9,10,11,12,13,14,15,16)) 
!S14(Full 16 Port(1,2,3,4,5,6,7,8,9,10,11,12,13,14,15,16)) 
!S15(Full 16 Port(1,2,3,4,5,6,7,8,9,10,11,12,13,14,15,16)) 
!S16(Full 16 Port(1,2,3,4,5,6,7,8,9,10,11,12,13,14,15,16)) 
!S17(Full 16 Port(1,2,3,4,5,6,7,8,9,10,11,12,13,14,15,16)) 
!S18(Full 16 Port(1,2,3,4,5,6,7,8,9,10,11,12,13,14,15,16)) 
!S21(Full 16 Port(1,2,3,4,5,6,7,8,9,10,11,12,13,14,15,16)) 
!S22(Full 16 Port(1,2,3,4,5,6,7,8,9,10,11,12,13,14,15,16)) 
!S23(Full 16 Port(1,2,3,4,5,6,7,8,9,10,11,12,13,14,15,16)) 
!S24(Full 16 Port(1,2,3,4,5,6,7,8,9,10,11,12,13,14,15,16)) 
!S25(Full 16 Port(1,2,3,4,5,6,7,8,9,10,11,12,13,14,15,16)) 
!S26(Full 16 Port(1,2,3,4,5,6,7,8,9,10,11,12,13,14,15,16)) 
!S27(Full 16 Port(1,2,3,4,5,6,7,8,9,10,11,12,13,14,15,16)) 
!S28(Full 16 Port(1,2,3,4,5,6,7,8,9,10,11,12,13,14,15,16)) 
!S31(Full 16 Port(1,2,3,4,5,6,7,8,9,10,11,12,13,14,15,16)) 
!S32(Full 16 Port(1,2,3,4,5,6,7,8,9,10,11,12,13,14,15,16)) 
!S33(Full 16 Port(1,2,3,4,5,6,7,8,9,10,11,12,13,14,15,16)) 
!S34(Full 16 Port(1,2,3,4,5,6,7,8,9,10,11,12,13,14,15,16)) 
!S35(Full 16 Port(1,2,3,4,5,6,7,8,9,10,11,12,13,14,15,16)) 
!S36(Full 16 Port(1,2,3,4,5,6,7,8,9,10,11,12,13,14,15,16)) 
!S37(Full 16 Port(1,2,3,4,5,6,7,8,9,10,11,12,13,14,15,16)) 
!S38(Full 16 Port(1,2,3,4,5,6,7,8,9,10,11,12,13,14,15,16)) 
!S41(Full 16 Port(1,2,3,4,5,6,7,8,9,10,11,12,13,14,15,16)) 
!S42(Full 16 Port(1,2,3,4,5,6,7,8,9,10,11,12,13,14,15,16)) 
!S43(Full 16 Port(1,2,3,4,5,6,7,8,9,10,11,12,13,14,15,16)) 
!S44(Full 16 Port(1,2,3,4,5,6,7,8,9,10,11,12,13,14,15,16)) 
!S45(Full 16 Port(1,2,3,4,5,6,7,8,9,10,11,12,13,14,15,16)) 
!S46(Full 16 Port(1,2,3,4,5,6,7,8,9,10,11,12,13,14,15,16)) 
!S47(Full 16 Port(1,2,3,4,5,6,7,8,9,10,11,12,13,14,15,16)) 
!S48(Full 16 Port(1,2,3,4,5,6,7,8,9,10,11,12,13,14,15,16)) 
!S51(Full 16 Port(1,2,3,4,5,6,7,8,9,10,11,12,13,14,15,16)) 
!S52(Full 16 Port(1,2,3,4,5,6,7,8,9,10,11,12,13,14,15,16)) 
!S53(Full 16 Port(1,2,3,4,5,6,7,8,9,10,11,12,13,14,15,16)) 
!S54(Full 16 Port(1,2,3,4,5,6,7,8,9,10,11,12,13,14,15,16)) 
!S55(Full 16 Port(1,2,3,4,5,6,7,8,9,10,11,12,13,14,15,16)) 
!S56(Full 16 Port(1,2,3,4,5,6,7,8,9,10,11,12,13,14,15,16)) 
!S57(Full 16 Port(1,2,3,4,5,6,7,8,9,10,11,12,13,14,15,16)) 
!S58(Full 16 Port(1,2,3,4,5,6,7,8,9,10,11,12,13,14,15,16)) 
!S61(Full 16 Port(1,2,3,4,5,6,7,8,9,10,11,12,13,14,15,16)) 
!S62(Full 16 Port(1,2,3,4,5,6,7,8,9,10,11,12,13,14,15,16)) 
!S63(Full 16 Port(1,2,3,4,5,6,7,8,9,10,11,12,13,14,15,16)) 
!S64(Full 16 Port(1,2,3,4,5,6,7,8,9,10,11,12,13,14,15,16)) 
!S65(Full 16 Port(1,2,3,4,5,6,7,8,9,10,11,12,13,14,15,16)) 
!S66(Full 16 Port(1,2,3,4,5,6,7,8,9,10,11,12,13,14,15,16)) 
!S67(Full 16 Port(1,2,3,4,5,6,7,8,9,10,11,12,13,14,15,16)) 
!S68(Full 16 Port(1,2,3,4,5,6,7,8,9,10,11,12,13,14,15,16)) 
!S71(Full 16 Port(1,2,3,4,5,6,7,8,9,10,11,12,13,14,15,16)) 
!S72(Full 16 Port(1,2,3,4,5,6,7,8,9,10,11,12,13,14,15,16)) 
!S73(Full 16 Port(1,2,3,4,5,6,7,8,9,10,11,12,13,14,15,16)) 
!S74(Full 16 Port(1,2,3,4,5,6,7,8,9,10,11,12,13,14,15,16)) 
!S75(Full 16 Port(1,2,3,4,5,6,7,8,9,10,11,12,13,14,15,16)) 
!S76(Full 16 Port(1,2,3,4,5,6,7,8,9,10,11,12,13,14,15,16)) 
!S77(Full 16 Port(1,2,3,4,5,6,7,8,9,10,11,12,13,14,15,16)) 
!S78(Full 16 Port(1,2,3,4,5,6,7,8,9,10,11,12,13,14,15,16)) 
!S81(Full 16 Port(1,2,3,4,5,6,7,8,9,10,11,12,13,14,15,16)) 
!S82(Full 16 Port(1,2,3,4,5,6,7,8,9,10,11,12,13,14,15,16)) 
!S83(Full 16 Port(1,2,3,4,5,6,7,8,9,10,11,12,13,14,15,16)) 
!S84(Full 16 Port(1,2,3,4,5,6,7,8,9,10,11,12,13,14,15,16)) 
!S85(Full 16 Port(1,2,3,4,5,6,7,8,9,10,11,12,13,14,15,16)) 
!S86(Full 16 Port(1,2,3,4,5,6,7,8,9,10,11,12,13,14,15,16)) 
!S87(Full 16 Port(1,2,3,4,5,6,7,8,9,10,11,12,13,14,15,16)) 
!S88(Full 16 Port(1,2,3,4,5,6,7,8,9,10,11,12,13,14,15,16)) 
!S8P File: Measurements: <S11,S12,S13,S14,S15,S16,S17,S18>,
!<S21,S22,S23,S24,S25,S26,S27,S28>,
!<S31,S32,S33,S34,S35,S36,S37,S38>,
!<S41,S42,S43,S44,S45,S46,S47,S48>,
!<S51,S52,S53,S54,S55,S56,S57,S58>,
!<S61,S62,S63,S64,S65,S66,S67,S68>,
!<S71,S72,S73,S74,S75,S76,S77,S78>,
!<S81,S82,S83,S84,S85,S86,S87,S88>:
# Hz S  RI   R 50
10000000 0.25177574 -0.00085122033 0.25002286 0.0031839318 0.061385203 0.056411475 0.061369222 0.05636948
0.082560644 -0.014391211 0.082417972 -0.011943844 0.069234684 0.046477787 0.068613738 0.047369841
0.25033426 0.0030104604 0.25187114 0.0056929518 0.060484208 0.057506014 0.060475785 0.057524048
0.082630068 -0.013674718 0.082728468 -0.011112407 0.068738841 0.047330022 0.068133436 0.048216231
0.057640236 -0.059665393 0.058617387 -0.058608528 0.25138384 0.0077697434 0.2497407 0.0045958348
0.062832773 0.054660793 0.061212379 0.055729017 0.081119157 -0.016844317 0.081665337 -0.014943256
0.058162011 -0.059851203 0.05925677 -0.05875634 0.25114536 0.0052995821 0.25320408 0.0034864882
0.063520961 0.054618545 0.061948273 0.055592779 0.081698179 -0.017075315 0.082083873 -0.015222472
0.082628176 0.011606691 0.0823102 0.012288444 0.060783546 -0.056853279 0.060177401 -0.057345178
0.25405663 -0.0080929911 0.25106904 -0.0016889476 0.061979253 0.055798788 0.060808308 0.05709289
0.081713408 0.01430183 0.081558615 0.015194643 0.062073652 -0.054847766 0.061512474 -0.055518519
0.25118384 -0.00017870162 0.251679 0.011147193 0.058876384 0.058624659 0.057682011 0.059923962
0.066490658 -0.050305005 0.067059889 -0.049470685 0.082787417 0.0085049951 0.082858548 0.0081276037
0.057207089 -0.061076574 0.059670247 -0.058231667 0.2517069 0.00080035697 0.25095534 0.0043239314
0.067258447 -0.049470976 0.067804508 -0.04864423 0.082749821 0.010493467 0.082802698 0.010098496
0.058617815 -0.059973899 0.061016355 -0.057060227 0.25091022 0.0044261529 0.25194153 0.0080289589
10990990.990991 0.25179052 0.0021200171 0.25005656 0.0023548368 0.08248879 -0.010810364 0.08254689 -0.010132009
0.083266795 0.0022807699 0.083082311 0.0016291322 0.082827419 -0.0079415813 0.082759179 -0.0083961282
0.24982806 0.0024709199 0.25207618 0.0010321547 0.082584329 -0.010550792 0.082664371 -0.0097400229
0.083149143 0.001884096 0.083203778 0.0013925121 0.08282841 -0.0081111509 0.082783975 -0.008540147
0.082962938 0.0057330714 0.083045185 0.0060319053 0.25221345 0.0060147261 0.25025687 0.0048392001
0.082873449 -0.0081545282 0.082642399 -0.0093237655 0.083092101 -0.0025613166 0.083156973 -0.0020856727
0.082948588 0.0063603362 0.082990788 0.006760837 0.25006294 0.0048555988 0.25225264 0.0052195741
0.082834594 -0.0082436055 0.082599111 -0.009522805 0.083088547 -0.0022882924 0.08316157 -0.0018101372
0.083335713 -0.00097483158 0.083221741 -0.0014486826 0.082844242 0.0075555374 0.082813658 0.0074671712
0.25181308 0.0023086225 0.24964161 -0.00090956432 0.082707159 -0.0096161989 0.082759835 -0.0093501862
0.083115898 -0.0017331018 0.083321266 -0.0020187742 0.082884297 0.0062871054 0.082909375 0.0060809487
0.24961676 -0.0011423134 0.2521486 0.00039901136 0.082802556 -0.0088955592 0.082894728 -0.0086087119
0.083082698 0.0053911228 0.083122224 0.0051683132 0.082931936 -0.0058330707 0.082975999 -0.0054801125
0.082935393 0.0069895373 0.082853191 0.0077712429 0.2516638 0.0062689385 0.25054306 0.0046640541
0.083042338 0.00489038 0.083153248 0.0047310558 0.082976975 -0.0052737421 0.083012812 -0.005010915
0.082933873 0.007271966 0.082909301 0.0081181647 0.25029412 0.0047535505 0.25166962 0.0033363854
11981981.981982 0.25193495 0.0020717229 0.2500402 0.0028619748 0.083075769 -0.0027820182 0.083131917 -0.0020559966
0.08329802 0.00051379501 0.083108626 0.0001671184 0.083178096 -0.0014966844 0.083132513 -0.001797335
0.24986249 0.0029414203 0.25210521 0.0017550762 0.083140284 -0.0022922356 0.083167702 -0.0015046694
0.083134405 0.00018651676 0.083217971 3.4857247e-005 0.083194457 -0.0015358564 0.083181947 -0.0018187173
0.083079614 -0.0027150619 0.083175845 -0.0022820856 0.25235516 0.0068953661 0.25027031 0.0055042002
0.083270304 -0.0004063721 0.083120979 -0.0013175822 0.082970463 -0.0045175869 0.083048522 -0.00380926
0.083149843 -0.002059249 0.0832377 -0.0015291604 0.25011477 0.0055424403 0.25236869 0.0056132297
0.083172232 -0.00063190068 0.083094276 -0.0016324983 0.082986623 -0.0042863255 0.083061591 -0.0035759704
0.083313704 0.00051771518 0.083213359 0.00015552301 0.083196074 -0.00044908706 0.083120041 -0.00062452559
0.25193954 0.0013962652 0.24966535 -0.00095100747 0.083231419 -0.0016567149 0.083238028 -0.0012234125
0.083100036 0.00014231494 0.083292402 -7.9914216e-006 0.083114818 -0.0014062803 0.083141699 -0.0016858148
0.24962871 -0.00096521637 0.25224996 0.0017084621 0.083264433 -0.00047427189 0.083298005 6.1745108e-005
0.083226047 -0.0015128109 0.083306596 -0.001573447 0.082950421 -0.004550504 0.082979225 -0.0042778654
0.083180323 -0.0016661858 0.083215676 -0.00043758861 0.2517955 0.0063390192 0.25055698 0.0052527655
0.083194919 -0.0018047654 0.083239712 -0.0018727551 0.082987659 -0.0037815431 0.083043486 -0.0036061101
0.083236285 -0.0011709309 0.083301075 0.00011125384 0.25035608 0.005300025 0.25177342 0.0042818771
12972972.972973 0.25208887 0.0023107619 0.25007156 0.0032758394 0.083142608 -0.0029718673 0.083161496 -0.002186853
0.083352029 0.00060416094 0.083106436 0.00024063377 0.083226942 -0.0015572467 0.083182648 -0.0018852005
0.249899 0.0033224733 0.25223204 0.0020170158 0.083129466 -0.0023987198 0.083210349 -0.0015794849
0.083098546 0.00025903399 0.083227314 4.6137124e-005 0.083217293 -0.001626596 0.083177358 -0.001912619
0.083078936 -0.0028977771 0.083201349 -0.002411182 0.25252941 0.0075148097 0.25031266 0.00611301
0.083248951 -0.00039321138 0.083139628 -0.0014046239 0.082929172 -0.0048842854 0.083029687 -0.0040359562
0.083117157 -0.0021936509 0.083229914 -0.0016253401 0.25018656 0.0060946266 0.25248286 0.0061559016
0.083167851 -0.00057907903 0.083058722 -0.001716765 0.082935885 -0.0045672678 0.083008029 -0.0038043156
0.083322167 0.00057158509 0.083223432 0.00019583727 0.083194382 -0.00040277027 0.083162881 -0.00059720979
0.25207356 0.0014892741 0.24970795 -0.00087294716 0.083243527 -0.0017930168 0.0832543 -0.0012753734
0.083110884 0.00017693899 0.083296962 -1.1247626e-005 0.083114259 -0.0014445022 0.083065569 -0.0017693727
0.24968497 -0.00091044069 0.25236702 0.0018635262 0.083252043 -0.00045723634 0.083322063 0.00010533221
0.083188199 -0.001594007 0.083284132 -0.0016215694 0.082946777 -0.0049094567 0.082963176 -0.0045808232
0.083210006 -0.0017834047 0.083223715 -0.00044214955 0.25194946 0.0069187642 0.25057384 0.0058299438
0.083160743 -0.0019131525 0.083230682 -0.0019488053 0.0830236 -0.0040336689 0.083017632 -0.003827455
0.08326602 -0.0012358096 0.08331465 0.0001639157 0.25041986 0.005858337 0.25187081 0.0046685911
13963963.963964 0.25218388 0.0026200404 0.25015095 0.0037122876 0.083118841 -0.0030842116 0.083181396 -0.0022831985
0.083356135 0.00070479763 0.083128467 0.000332795 0.083234571 -0.0016371777 0.08314576 -0.0019896107
0.25000039 0.003784416 0.25233799 0.0022474399 0.083129741 -0.0025237391 0.083151162 -0.0016401289
0.083102204 0.0003621025 0.083214529 0.00012209268 0.083184123 -0.0017141628 0.083130695 -0.0020089142
0.083084978 -0.0030416092 0.0831533 -0.0025255773 0.25273836 0.0081398413 0.25039354 0.0067950785
0.083269387 -0.0003324929 0.083136231 -0.0014326179 0.082910605 -0.0051637497 0.082978584 -0.0042764214
0.083089694 -0.0022789161 0.083233528 -0.0017006523 0.25025445 0.0067696651 0.25268257 0.0066910246
0.083165221 -0.00058457465 0.083043754 -0.0017933425 0.082897849 -0.004883247 0.082977846 -0.0040161568
0.083365008 0.00066900917 0.083152823 0.0002921441 0.083232485 -0.00040613383 0.083142802 -0.00055718154
0.25223306 0.0016644861 0.24973308 -0.00078139378 0.083219409 -0.001879313 0.08328145 -0.0013086662
0.083081856 0.00027246025 0.08327987 3.4574321e-005 0.083092377 -0.0015103759 0.083053 -0.0018098293
0.24973011 -0.00082661764 0.25253409 0.0020528575 0.083264366 -0.00046625661 0.083350666 0.00016963591
0.083217338 -0.0016226763 0.083247699 -0.0017019984 0.082890414 -0.0051740273 0.082895935 -0.0048886905
0.083210722 -0.0018310513 0.083224356 -0.00038222849 0.25213355 0.0075534498 0.25064567 0.0064777923
0.083141558 -0.0019637223 0.083258495 -0.0020652551 0.083013371 -0.0043146261 0.083004855 -0.004037553
0.083257444 -0.0012962481 0.083333708 0.00022520499 0.25052643 0.0064928709 0.25202194 0.0051049008
14954954.954955 0.25240347 0.0028658009 0.25025117 0.0041353926 0.083111271 -0.0032365967 0.08316768 -0.0024180321
0.083370484 0.00081167894 0.083165683 0.00039600534 0.083258033 -0.0016602359 0.083182871 -0.0020510762
0.25011542 0.0042035887 0.25249591 0.0024619296 0.08311186 -0.002659204 0.083202392 -0.0016774818
0.083124734 0.00042673768 0.083216123 0.00015794465 0.083174065 -0.0017658195 0.083128847 -0.0020966297
0.083088055 -0.003210318 0.08314018 -0.0026148036 0.25298363 0.0087822983 0.25048906 0.0074184178
0.083291262 -0.0003200775 0.083161697 -0.001478822 0.08290828 -0.0054793227 0.082977973 -0.0045313896
0.083080254 -0.0023895192 0.083202764 -0.0017430249 0.25038132 0.0073454748 0.25291434 0.0072290078
0.08313404 -0.00055764086 0.08303792 -0.0018727103 0.08285971 -0.00517397 0.082959697 -0.0042666611
0.08333578 0.00075636851 0.083185934 0.00037596532 0.083235145 -0.00038843631 0.083125576 -0.00056076539
0.25238523 0.0018054901 0.2497783 -0.00073747616 0.083236925 -0.0019301941 0.083281539 -0.0013630609
0.083086416 0.00037699938 0.083270878 7.327785e-005 0.083105437 -0.0015390201 0.083037294 -0.0019123345
0.24977028 -0.00072725682 0.25270012 0.002235485 0.083262689 -0.00041674977 0.083351359 0.00024131979
0.083233997 -0.0016745722 0.083283141 -0.0017963318 0.082868226 -0.0055379188 0.08289393 -0.0051548337
0.08320161 -0.0019127689 0.083283573 -0.0003775619 0.25236589 0.0080865202 0.25076661 0.007031186
0.083161846 -0.0020460302 0.083240695 -0.0021397208 0.082946919 -0.0045446311 0.08300925 -0.004275193
0.083292194 -0.001297036 0.083367154 0.00026736347 0.25059974 0.0070844963 0.25218078 0.0055332384
15945945.945946 0.25266066 0.0031043235 0.25038758 0.0045281216 0.083114251 -0.0034231381 0.083173603 -0.0025134184
0.083392918 0.00087608054 0.083183542 0.00046610733 0.083267629 -0.0017275205 0.083191305 -0.002140281
0.25031504 0.0046096705 0.25271344 0.0026221266 0.083111532 -0.0027959768 0.08319439 -0.0017985272
0.083110742 0.00046431334 0.083242431 0.0002137761 0.083190061 -0.0018002535 0.083151303 -0.0022109738
0.083075963 -0.003368208 0.083189085 -0.0027839055 0.25325119 0.0093592647 0.25066438 0.0080390377
0.083333708 -0.00028421855 0.083173998 -0.0015415217 0.08286424 -0.0057727499 0.082968429 -0.0047909007
0.083100908 -0.0025151372 0.083200261 -0.0018144978 0.25054234 0.00792416 0.25315127 0.0077402298
0.083126314 -0.00055773364 0.083019353 -0.0019638946 0.082835905 -0.0054385914 0.082921788 -0.004506737
0.083359465 0.00086530932 0.083177187 0.00043137892 0.083248504 -0.00039665936 0.083163045 -0.00055442227
0.25255397 0.0019241392 0.24987052 -0.00070454524 0.083245121 -0.0020532259 0.083314866 -0.0013810289
0.083085693 0.00044177656 0.083298989 0.00013612707 0.08309783 -0.0016350906 0.083060294 -0.001972364
0.24985455 -0.00064365665 0.25289023 0.002410033 0.083305433 -0.000415143 0.083415896 0.00030382117
0.083235405 -0.0017684447 0.083273299 -0.0018661268 0.082862981 -0.0058335364 0.082856059 -0.0054652444
0.083232246 -0.0020351005 0.083289646 -0.00037824045 0.25257009 0.0086563081 0.25090379 0.0075977151
0.083173059 -0.002155456 0.083248541 -0.0022246714 0.082918108 -0.0048306733 0.082960494 -0.0045202929
0.08329805 -0.001324815 0.083406337 0.00034977336 0.250763 0.0076206061 0.25239044 0.0059135584
16936936.936937 0.25285375 0.003315516 0.2505303 0.0049215187 0.08315815 -0.0036215824 0.083190255 -0.002664746
0.083421089 0.00095149834 0.083158158 0.00049954193 0.083264299 -0.0018253209 0.08318077 -0.0022773878
0.25039163 0.0049675028 0.25289249 0.002750145 0.083129488 -0.002970401 0.083258711 -0.0018575176
0.083102137 0.00053684425 0.083217457 0.00021500469 0.083236761 -0.0019052766 0.08318533 -0.0023361391
0.083079137 -0.0035493199 0.083152987 -0.0029438525 0.25349563 0.0099363662 0.25082341 0.0085779857
0.083312057 -0.00028892243 0.083164968 -0.001630478 0.082859725 -0.0060987328 0.082957245 -0.0050797872
0.083098873 -0.0026396834 0.083251826 -0.0018800896 0.25071633 0.0084888339 0.25338724 0.0081702732
0.083135717 -0.00056477851 0.083028369 -0.0020342709 0.082839713 -0.005767649 0.082905322 -0.0047523682
0.083365776 0.00089722354 0.083179988 0.00044543759 0.083244853 -0.00039806092 0.083125539 -0.00060182717
0.25276211 0.001988143 0.24996527 -0.00068012252 0.083249658 -0.002163433 0.083291389 -0.0014556843
0.083099641 0.00048019804 0.083264165 0.00014987749 0.083129458 -0.0017167989 0.083056092 -0.0020781897
0.24996319 -0.00063973188 0.25309879 0.0025125945 0.083327226 -0.00042026851 0.083437681 0.000313725
0.083230413 -0.001861806 0.083299629 -0.0019628555 0.082797498 -0.006175342 0.082824737 -0.0057839928
0.083245426 -0.0021277976 0.083281063 -0.00036697203 0.25280878 0.0091963103 0.2510733 0.0080987653
0.083194368 -0.0022733957 0.083231933 -0.0023472237 0.082913175 -0.0051255426 0.082944527 -0.0047917436
0.08332698 -0.0013996713 0.083435766 0.00035619963 0.25094366 0.0081510218 0.25263411 0.0063114311
17927927.927928 0.25309351 0.0034592068 0.25066119 0.0051936083 0.083101422 -0.0037959225 0.083203062 -0.0027765541
0.08342392 0.0010093414 0.083162494 0.00057802157 0.083290488 -0.0019334693 0.083198972 -0.0023857409
0.25055274 0.0052558184 0.25311282 0.0029021821 0.083138369 -0.003127502 0.083234794 -0.0019921751
0.083121188 0.00057336607 0.083222613 0.0002610813 0.083240867 -0.002042098 0.083152197 -0.0024795004
0.083067767 -0.0037270514 0.083204359 -0.0030723012 0.25374788 0.010440473 0.25101045 0.0091171581
0.083327614 -0.00029457448 0.083170965 -0.0017270901 0.082833134 -0.0064553483 0.082925171 -0.0053481595
0.083128504 -0.0028286269 0.083226986 -0.0020276823 0.25086918 0.0089600272 0.25364983 0.0085938405
0.083138302 -0.00059887301 0.083025664 -0.0021759076 0.082795613 -0.0060944329 0.082896002 -0.0050500426
0.083383866 0.00096376176 0.083185308 0.00050297624 0.083239593 -0.00040513583 0.083150089 -0.00061470794
0.25291893 0.0020499765 0.25004306 -0.00070611853 0.083270617 -0.0022643236 0.08334963 -0.0015760781
0.083120614 0.0005073325 0.083283141 0.00018410834 0.08314611 -0.0018168412 0.083041273 -0.0021986782
0.25005674 -0.00069900835 0.25328234 0.0025848188 0.083307296 -0.00043220192 0.083473831 0.00035401588
0.083251141 -0.001934647 0.083284728 -0.0020833947 0.082774088 -0.0065250909 0.08279936 -0.0060797944
0.083233334 -0.0022066869 0.083304361 -0.00042590013 0.25305203 0.0096755559 0.25120482 0.0086208554
0.08314915 -0.0023936213 0.08323551 -0.0024998516 0.082912557 -0.0054042065 0.082959823 -0.0050633205
0.083343804 -0.0014881663 0.083445929 0.00036870295 0.25107068 0.0086508719 0.25279418 0.0065800026
18918918.918919 0.25330016 0.0035001275 0.25082195 0.0054684593 0.083076984 -0.004032955 0.083180614 -0.0029543841
0.083415166 0.0010715831 0.083143644 0.00059610605 0.083280802 -0.0020723848 0.083176181 -0.002517944
0.25073546 0.0054845857 0.25329217 0.0029658491 0.083133578 -0.0033027784 0.083257258 -0.0020851877
0.083103761 0.00059897528 0.083263859 0.0002427384 0.083267435 -0.0021742729 0.083153695 -0.0026332629
0.083095029 -0.0039651594 0.083202139 -0.0032659669 0.25399804 0.010881713 0.25116581 0.0096420376
0.083346777 -0.0003149829 0.083196066 -0.0017862901 0.082787931 -0.006806558 0.082904093 -0.0056107109
0.083147235 -0.0030057242 0.083266072 -0.0021346156 0.25100228 0.0094299866 0.25390968 0.0089835357
