!Agilent Technologies,M9370A,MY54322275,A.02.50.04
!Agilent M9370A: A.02.50.04
!Date: Monday, April 02, 2018 17:15:15
!Correction: S11(Full 8 Port(1,2,3,4,5,6,7,8)) 
!S12(Full 8 Port(1,2,3,4,5,6,7,8)) 
!S13(Full 8 Port(1,2,3,4,5,6,7,8)) 
!S14(Full 8 Port(1,2,3,4,5,6,7,8)) 
!S15(Full 8 Port(1,2,3,4,5,6,7,8)) 
!S16(Full 8 Port(1,2,3,4,5,6,7,8)) 
!S17(Full 8 Port(1,2,3,4,5,6,7,8)) 
!S18(Full 8 Port(1,2,3,4,5,6,7,8)) 
!S21(Full 8 Port(1,2,3,4,5,6,7,8)) 
!S22(Full 8 Port(1,2,3,4,5,6,7,8)) 
!S23(Full 8 Port(1,2,3,4,5,6,7,8)) 
!S24(Full 8 Port(1,2,3,4,5,6,7,8)) 
!S25(Full 8 Port(1,2,3,4,5,6,7,8)) 
!S26(Full 8 Port(1,2,3,4,5,6,7,8)) 
!S27(Full 8 Port(1,2,3,4,5,6,7,8)) 
!S28(Full 8 Port(1,2,3,4,5,6,7,8)) 
!S31(Full 8 Port(1,2,3,4,5,6,7,8)) 
!S32(Full 8 Port(1,2,3,4,5,6,7,8)) 
!S33(Full 8 Port(1,2,3,4,5,6,7,8)) 
!S34(Full 8 Port(1,2,3,4,5,6,7,8)) 
!S35(Full 8 Port(1,2,3,4,5,6,7,8)) 
!S36(Full 8 Port(1,2,3,4,5,6,7,8)) 
!S37(Full 8 Port(1,2,3,4,5,6,7,8)) 
!S38(Full 8 Port(1,2,3,4,5,6,7,8)) 
!S41(Full 8 Port(1,2,3,4,5,6,7,8)) 
!S42(Full 8 Port(1,2,3,4,5,6,7,8)) 
!S43(Full 8 Port(1,2,3,4,5,6,7,8)) 
!S44(Full 8 Port(1,2,3,4,5,6,7,8)) 
!S45(Full 8 Port(1,2,3,4,5,6,7,8)) 
!S46(Full 8 Port(1,2,3,4,5,6,7,8)) 
!S47(Full 8 Port(1,2,3,4,5,6,7,8)) 
!S48(Full 8 Port(1,2,3,4,5,6,7,8)) 
!S51(Full 8 Port(1,2,3,4,5,6,7,8)) 
!S52(Full 8 Port(1,2,3,4,5,6,7,8)) 
!S53(Full 8 Port(1,2,3,4,5,6,7,8)) 
!S54(Full 8 Port(1,2,3,4,5,6,7,8)) 
!S55(Full 8 Port(1,2,3,4,5,6,7,8)) 
!S56(Full 8 Port(1,2,3,4,5,6,7,8)) 
!S57(Full 8 Port(1,2,3,4,5,6,7,8)) 
!S58(Full 8 Port(1,2,3,4,5,6,7,8)) 
!S61(Full 8 Port(1,2,3,4,5,6,7,8)) 
!S62(Full 8 Port(1,2,3,4,5,6,7,8)) 
!S63(Full 8 Port(1,2,3,4,5,6,7,8)) 
!S64(Full 8 Port(1,2,3,4,5,6,7,8)) 
!S65(Full 8 Port(1,2,3,4,5,6,7,8)) 
!S66(Full 8 Port(1,2,3,4,5,6,7,8)) 
!S67(Full 8 Port(1,2,3,4,5,6,7,8)) 
!S68(Full 8 Port(1,2,3,4,5,6,7,8)) 
!S71(Full 8 Port(1,2,3,4,5,6,7,8)) 
!S72(Full 8 Port(1,2,3,4,5,6,7,8)) 
!S73(Full 8 Port(1,2,3,4,5,6,7,8)) 
!S74(Full 8 Port(1,2,3,4,5,6,7,8)) 
!S75(Full 8 Port(1,2,3,4,5,6,7,8)) 
!S76(Full 8 Port(1,2,3,4,5,6,7,8)) 
!S77(Full 8 Port(1,2,3,4,5,6,7,8)) 
!S78(Full 8 Port(1,2,3,4,5,6,7,8)) 
!S81(Full 8 Port(1,2,3,4,5,6,7,8)) 
!S82(Full 8 Port(1,2,3,4,5,6,7,8)) 
!S83(Full 8 Port(1,2,3,4,5,6,7,8)) 
!S84(Full 8 Port(1,2,3,4,5,6,7,8)) 
!S85(Full 8 Port(1,2,3,4,5,6,7,8)) 
!S86(Full 8 Port(1,2,3,4,5,6,7,8)) 
!S87(Full 8 Port(1,2,3,4,5,6,7,8)) 
!S88(Full 8 Port(1,2,3,4,5,6,7,8)) 
!S8P File: Measurements: <S11,S12,S13,S14,S15,S16,S17,S18>,
!<S21,S22,S23,S24,S25,S26,S27,S28>,
!<S31,S32,S33,S34,S35,S36,S37,S38>,
!<S41,S42,S43,S44,S45,S46,S47,S48>,
!<S51,S52,S53,S54,S55,S56,S57,S58>,
!<S61,S62,S63,S64,S65,S66,S67,S68>,
!<S71,S72,S73,S74,S75,S76,S77,S78>,
!<S81,S82,S83,S84,S85,S86,S87,S88>:
# Hz S  RI   R 50
300000 0.99998081 -0.0007106805 1.347248e-005 0.00029235368 -2.0712985e-006 3.1884643e-005 1.0349103e-006 3.1188298e-005
-2.5140268e-006 2.8133303e-005 3.8350036e-006 0.00010072548 -1.425398e-006 3.4534518e-005 1.3041455e-006 3.439741e-005
8.7188746e-006 0.00030534616 1.0001236 -0.00070625293 2.1347637e-006 2.9910278e-005 -2.9226464e-006 2.9547728e-005
1.2651241e-006 9.8468809e-005 2.0737118e-006 1.6692562e-005 1.6530266e-006 2.8073759e-005 -9.5572739e-007 2.7992684e-005
1.3155819e-006 2.9153694e-005 -6.132953e-007 3.061449e-005 0.99994397 -0.00059356389 1.4770294e-005 0.00031156876
6.881009e-007 3.52727e-005 -8.2374567e-007 2.7404734e-005 6.4063738e-007 1.5477108e-005 -6.2912795e-007 2.0227972e-005
-6.7713415e-007 3.161257e-005 1.0274567e-006 3.0939544e-005 7.0605761e-006 0.00032633141 1.0000515 -0.00077358179
2.0537999e-007 0.00011261843 9.4331466e-007 3.3498203e-005 4.9588022e-007 2.0956739e-005 7.1223536e-007 2.5827816e-005
1.1150642e-006 2.4989287e-005 2.0964612e-006 9.7147873e-005 3.0589367e-006 3.4341829e-005 -1.4617935e-006 0.00011136755
0.99990571 -0.00067005609 9.9426779e-006 0.0002011653 -4.7805293e-007 2.7194043e-005 1.0588333e-006 3.372243e-005
1.1514247e-006 0.00010308265 5.4781253e-007 1.5693156e-005 1.9978188e-006 2.6860098e-005 9.5277278e-007 3.5576326e-005
7.9104193e-006 0.00021363539 1.0000407 -0.00075124041 2.5454831e-006 0.00010292764 -7.4258116e-007 3.6067195e-005
2.8000989e-006 3.2246251e-005 -2.4088151e-006 2.552301e-005 -2.7827668e-006 1.5572905e-005 -1.0818551e-006 1.7330131e-005
1.559608e-006 2.8066956e-005 1.5996618e-007 0.00010259488 0.99988651 -0.00066133274 1.3065938e-005 0.0003184657
1.1137255e-006 3.2870325e-005 4.8426324e-007 2.248175e-005 -4.1590351e-007 1.9567986e-005 -2.0084353e-006 2.5771202e-005
7.8284671e-007 3.4246474e-005 1.2467078e-006 3.6072932e-005 8.2277593e-006 0.00033529801 1.0000783 -0.00066603406
1300700.7007007 0.9999572 -0.0032576502 3.8293997e-006 0.001332253 8.8671578e-007 0.00013472461 -1.1038838e-006 0.00015018725
1.4351675e-006 0.00012361123 5.3308435e-007 0.00047566509 -2.0561697e-006 0.00014881791 4.5070689e-007 0.00014817607
5.352902e-006 0.0013297198 1.0000855 -0.0032876853 1.0941186e-007 0.00012835427 1.3656704e-006 0.00014365565
2.0248649e-006 0.00045174372 7.3556197e-007 8.7070897e-005 8.0356023e-007 0.00012365228 -1.2443944e-006 0.00011743755
1.3198099e-006 0.00013410799 9.6253427e-007 0.00012737553 0.99992061 -0.0028723308 6.676049e-006 0.0014007131
1.7043091e-006 0.00015546163 -8.5249532e-008 0.00011443013 7.3087811e-008 7.3296316e-005 9.294518e-007 8.5332824e-005
4.9326599e-007 0.00015180971 1.3536692e-006 0.00014402016 3.5494163e-006 0.001397347 1.0000217 -0.003553859
1.1283868e-006 0.00050829421 -5.963758e-007 0.0001539067 7.2239817e-007 8.804915e-005 -1.2220339e-006 0.00011707477
2.7995886e-006 0.00012348578 3.4599466e-006 0.00044924655 2.2693791e-006 0.00015371085 2.9646003e-006 0.00050728879
0.9998638 -0.0032409111 5.3155477e-006 0.00091508072 2.6368571e-006 0.00012310376 -5.365504e-008 0.00015637884
5.2518845e-007 0.00047360433 -1.435633e-006 8.9009423e-005 1.4416022e-006 0.00011789611 1.1263859e-006 0.00015600682
2.7255605e-006 0.00091442722 1.0000305 -0.0033261555 1.3059578e-006 0.00046170465 3.1411203e-006 0.00016450879
1.3064393e-006 0.00015128808 -1.9976137e-006 0.00012361551 1.8861053e-006 7.5317199e-005 2.6050345e-006 8.4824256e-005
-3.0033894e-007 0.00012720998 2.8898307e-006 0.00046375539 0.99986058 -0.0031832538 4.7340445e-006 0.0014352447
2.1901641e-007 0.00014696334 -4.3496517e-008 0.0001162187 -2.9376856e-006 8.5831634e-005 1.0531805e-006 0.00011256795
4.469112e-008 0.00015114146 2.215077e-007 0.00016279591 5.2911059e-006 0.0014377178 1.0000339 -0.0032282693
2301401.4014014 0.99995929 -0.005754556 7.2215917e-006 0.0023557474 -2.1887299e-006 0.00023700533 2.0796533e-006 0.00027000171
-6.038627e-007 0.00021477652 4.159333e-006 0.00083922356 -7.5568124e-008 0.00026577053 -7.9660117e-007 0.00026024596
7.3818546e-006 0.0023507688 1.0000581 -0.0058140685 -1.2443777e-006 0.00022771741 1.1200943e-006 0.00025465229
4.73928e-006 0.00080264464 1.1280192e-006 0.00015399484 -1.070797e-006 0.00021696412 -6.0934843e-007 0.00020732344
-3.1724007e-008 0.00023545037 -6.071175e-007 0.0002289699 0.99990809 -0.0050915778 1.1957128e-005 0.0024746533
-2.5331624e-007 0.00027282568 6.0477998e-007 0.00020260298 -2.2305453e-006 0.00012713613 6.8021541e-007 0.0001489446
-6.5963269e-007 0.0002724097 -8.5166909e-007 0.00025384326 7.5024946e-006 0.0024753227 0.9999972 -0.0063030282
4.6365153e-006 0.00090296112 -1.3155877e-006 0.00026926078 -2.8220588e-006 0.00015820336 -5.0635754e-007 0.00020296386
-8.186766e-007 0.00021677227 2.68485e-006 0.00079858204 2.2997569e-006 0.00027503178 2.0006007e-006 0.00089898624
0.99984837 -0.0057442188 3.2138291e-006 0.001621504 -6.4423784e-007 0.00021996134 1.2804809e-006 0.00027572783
1.0871703e-006 0.00083796243 -3.8981989e-006 0.00015235734 -3.599333e-007 0.00020385734 1.5698034e-006 0.00026907597
9.6960161e-007 0.0016240344 0.99999392 -0.0058917478 1.8688983e-006 0.00081860111 1.9608444e-006 0.00029130909
-2.3013824e-007 0.00026549486 -4.6916102e-007 0.00021733098 1.0190154e-006 0.00012690276 1.6611937e-006 0.00015451445
-6.5845029e-007 0.00021842401 3.826176e-006 0.00081768027 0.99983925 -0.0056325924 1.1032877e-005 0.0025379313
-1.10219e-006 0.00026103985 4.4925446e-007 0.00020977574 -7.0395987e-007 0.00015222919 -1.7388578e-006 0.00020514254
-1.169142e-006 0.00027552791 1.0940015e-006 0.00029192807 6.1090477e-006 0.0025415369 1.0000172 -0.0057199695
3302102.1021021 0.9999786 -0.0082562761 6.6660905e-006 0.0033770362 -1.3773366e-006 0.00033983507 6.1115074e-008 0.00038951903
-2.3098692e-006 0.00031186081 3.9123483e-006 0.0012024151 3.1753387e-007 0.00038440945 2.1206834e-007 0.00037286439
6.7289011e-006 0.0033737284 1.0000298 -0.0083414614 -1.3826843e-006 0.00032677513 -3.8866048e-008 0.00036231554
3.8751014e-006 0.0011456065 -3.0755732e-006 0.00021872894 -2.0748782e-006 0.00031397355 3.5946789e-007 0.00029845856
-1.1536707e-006 0.00033794664 -4.3395747e-007 0.00032630016 0.9999094 -0.0072980057 1.2870147e-005 0.0035515579
-2.823085e-006 0.00039210098 -2.3760136e-007 0.00029173269 3.9886467e-007 0.00018195873 -4.836055e-007 0.00021737897
-7.7301462e-007 0.00039077518 -2.3746338e-006 0.00036535138 5.9375934e-006 0.0035500617 0.99994785 -0.0090351263
3.7897023e-006 0.001294237 -3.3743527e-007 0.00038983807 1.3635165e-006 0.00022313325 -2.3200885e-006 0.0002908984
-3.2666524e-006 0.00030870098 3.0387926e-006 0.0011469324 -4.0594298e-007 0.000393205 2.9512607e-006 0.0012917112
0.99984241 -0.0082291262 1.6832084e-006 0.0023243243 -5.2723199e-006 0.00031590299 -5.1200686e-006 0.00039410262
3.1962984e-006 0.0012031328 -2.5455718e-006 0.0002185723 2.1691676e-006 0.00029202219 -3.6805695e-006 0.00038774943
3.833853e-007 0.0023291041 0.9999615 -0.0084680626 -2.2370359e-007 0.0011750349 -5.6702646e-007 0.00042100504
7.8201691e-007 0.00038238117 -2.2635869e-007 0.0003119871 -2.1347455e-007 0.00018133207 -2.7874166e-006 0.0002228433
-1.2970416e-006 0.00031657185 2.6646412e-006 0.0011743945 0.99984968 -0.0080851819 1.5524998e-005 0.003645062
-2.1721237e-006 0.00037538566 -2.2293473e-006 0.00029792328 1.1181627e-007 0.00021633363 -2.1782423e-006 0.00029058559
-2.5374452e-006 0.00039356929 -1.5052335e-006 0.00041984231 5.1696934e-006 0.0036477547 0.99998558 -0.0082218805
4302802.8028028 0.99998605 -0.010772858 3.6373699e-006 0.0044085858 -1.6606001e-006 0.00043972832 -4.6613e-006 0.00050572294
-4.1117655e-006 0.00040493513 3.0305919e-006 0.0015694547 -6.881171e-007 0.00050116971 -5.6744324e-007 0.00048767286
8.4348699e-007 0.0044062529 0.9999705 -0.010885952 -2.5867703e-006 0.00042313876 -1.9413281e-007 0.00047508618
3.6177039e-006 0.0014950207 -6.6754415e-006 0.00028808406 -1.6499182e-006 0.00040708043 -3.4175653e-006 0.00039119
-4.0926284e-006 0.00044177167 -3.3117387e-006 0.0004244181 0.99995333 -0.0095079606 1.7632481e-005 0.0046345531
-6.2782651e-006 0.00051251613 6.6312303e-008 0.00038345216 -2.081407e-006 0.00023685631 -7.7387836e-007 0.00028487216
-3.2716525e-006 0.0005049383 -1.9343577e-006 0.00047645034 -1.1819869e-006 0.0046302648 0.99988633 -0.011769604
2.9035812e-006 0.0016888509 -6.1358551e-006 0.00050752511 1.1480685e-006 0.00029239815 -6.3788855e-007 0.0003819062
-1.0434675e-005 0.00040555251 -3.1345005e-006 0.0014920082 -4.2021184e-006 0.00051224633 -1.1386577e-006 0.0016864551
0.99984992 -0.010690053 -8.4467029e-006 0.0030370953 -6.5867425e-006 0.00041314377 -3.5892187e-006 0.00051378692
-3.0761194e-006 0.0015686076 -4.5237462e-006 0.00028759168 -4.1024359e-006 0.00037917407 -4.5405259e-006 0.00050826947
-9.477757e-006 0.0030401922 0.99990523 -0.011010072 -3.0088788e-006 0.0015358976 -2.4774199e-006 0.00054624496
-4.010782e-006 0.00050046266 -1.9237641e-006 0.00040728756 1.7551771e-006 0.00023886818 -1.7060238e-006 0.00029263832
-2.9512159e-006 0.00041138823 4.6069381e-006 0.0015314755 0.99987632 -0.010544334 1.4897561e-005 0.0047544767
-9.6357599e-007 0.00048759527 -2.1520848e-006 0.00039081046 -1.0901717e-006 0.0002841138 -2.5330237e-006 0.00037830972
-3.0522162e-006 0.00051254936 -5.2962969e-006 0.00054545607 -2.6367011e-006 0.0047588064 0.9999584 -0.010707708
5303503.5035035 1.0000044 -0.013316498 -5.243342e-006 0.0054486091 -5.8113656e-006 0.00054538826 -5.9320632e-006 0.00062513113
-8.0799546e-006 0.00049954653 -3.5708013e-006 0.0019407741 -5.7393686e-006 0.00062182295 -3.9024721e-006 0.00060657511
-1.319618e-005 0.0054429621 0.99995601 -0.013392174 -3.9919628e-006 0.00052707118 -4.7250833e-006 0.00058667338
8.9305053e-007 0.0018483663 -9.1622942e-006 0.00035171639 -5.4663597e-006 0.00050306635 -2.6318385e-006 0.00048228286
-4.3876271e-006 0.00054389716 -5.19576e-006 0.00052489067 0.99999344 -0.011738963 1.5461001e-005 0.0057202918
-5.3803092e-006 0.0006344291 -3.4131783e-006 0.00047117018 -3.5460419e-006 0.00029203767 -1.2406301e-006 0.00034949442
-8.0196405e-006 0.00062201131 -7.578099e-006 0.00058824761 -1.7202641e-005 0.0057283342 0.9998312 -0.014469643
-5.9966833e-006 0.0020873379 -8.1319913e-006 0.00062723382 -5.6986951e-006 0.00036020324 -2.4190654e-006 0.00046947782
-1.2861685e-005 0.00050239795 -1.3060955e-005 0.0018526446 -1.1141395e-005 0.00063883251 -9.9272265e-006 0.0020906061
0.9998759 -0.013164601 -2.3754841e-005 0.0037675602 -7.8047869e-006 0.00051623775 -8.2228289e-006 0.00063794752
-1.1078027e-005 0.001942118 -1.2167056e-005 0.00035357187 -8.269325e-006 0.00047358748 -8.0424506e-006 0.000629118
-2.3524692e-005 0.0037608163 0.99986434 -0.013514188 -1.2674243e-005 0.0018993353 -9.3060444e-006 0.00067753682
-4.5408742e-006 0.00062031898 -4.6811419e-006 0.00050501246 -1.7975163e-006 0.00029472471 -2.5879242e-006 0.00035999803
-6.2692848e-006 0.00050977932 1.0651039e-006 0.0018932617 0.99983048 -0.013020913 1.5700087e-005 0.0058749081
-7.7803961e-006 0.00060504029 -4.4048898e-006 0.00048200064 -3.5775388e-006 0.00035327525 -5.7826414e-006 0.00046819728
-5.4852044e-006 0.00063517387 -6.0047259e-006 0.00067914819 -1.3845187e-005 0.005882517 0.99992186 -0.013191232
6304204.2042042 0.99997669 -0.015834669 -2.3875646e-005 0.0065121064 -9.9700901e-006 0.00065128907 -7.5327071e-006 0.00074608764
-1.7542676e-005 0.00059827167 -6.2176591e-006 0.0023188919 -1.0340477e-005 0.00073930167 -6.4727951e-006 0.00072406605
-3.3817661e-005 0.0065051243 0.99994141 -0.015918221 -1.012406e-005 0.00062687148 -7.6070651e-006 0.00070618029
-7.1368004e-006 0.0022064059 -1.3104266e-005 0.00042423359 -6.9703324e-006 0.00060071429 -5.6748363e-006 0.00057655241
-5.0374438e-006 0.00064722478 -6.2448426e-006 0.00062641781 1.0000122 -0.013982207 1.4615336e-005 0.0068313456
-1.1332217e-005 0.0007601062 -6.6045159e-006 0.00056168396 -6.6454481e-006 0.00035106548 -1.7575896e-006 0.00041948044
-1.2840173e-005 0.00074947707 -1.2900319e-005 0.0007063669 -4.9092021e-005 0.0068540741 0.99983019 -0.017137624
-1.5100966e-005 0.0024982418 -9.9877561e-006 0.00075250014 -8.3682198e-006 0.00042858906 -8.0222844e-006 0.00056069548
-2.0748443e-005 0.000601609 -1.9671053e-005 0.0022240167 -1.6479136e-005 0.00076518336 -1.6313927e-005 0.0025075951
0.99987906 -0.015660826 -3.7520625e-005 0.0045183655 -1.4827552e-005 0.00061348727 -7.880356e-006 0.00076646917
-2.4433613e-005 0.0023259267 -1.5161825e-005 0.00042478417 -8.709656e-006 0.00056402886 -1.3355486e-005 0.00075090444
-4.5583693e-005 0.0045048995 0.99987292 -0.016047664 -2.1781792e-005 0.0022770672 -1.8239243e-005 0.00080995035
-6.0383531e-006 0.0007378881 -7.0645456e-006 0.0006004576 -4.9307359e-006 0.0003494118 -4.8549518e-006 0.00043221356
-1.1266106e-005 0.00061102898 -1.2463828e-006 0.0022621795 0.99977171 -0.015432149 1.1119598e-005 0.0070125251
-1.249112e-005 0.0007241955 -1.1976516e-005 0.00057765655 -5.9847525e-006 0.00041748042 -6.0029652e-006 0.00055787904
-1.0522035e-005 0.00076197839 -1.2353254e-005 0.0008080366 -3.5323101e-005 0.007028583 0.99991155 -0.015660256
7304904.9049049 0.9999392 -0.018273221 -3.5010864e-005 0.0076040057 -1.1349563e-005 0.00076090649 -9.8625069e-006 0.00087572797
-2.0273194e-005 0.00069929106 -9.159794e-006 0.0027072511 -1.0626361e-005 0.00086550985 -8.0185164e-006 0.0008443491
-4.4083092e-005 0.0076098321 0.99994045 -0.018435135 -9.72423e-006 0.00073259306 -1.1697414e-005 0.00082447351
-1.1417646e-005 0.0025801207 -1.9032537e-005 0.00049248233 -1.1254224e-005 0.00070367823 -6.1700625e-006 0.00067088299
-1.028177e-005 0.00075619709 -9.9005665e-006 0.00072941545 1.0000377 -0.016188126 2.0959611e-005 0.0079662763
-1.5128368e-005 0.0008818591 -9.5034875e-006 0.00065338472 -4.6506784e-006 0.00040962864 -8.5149086e-006 0.00048899726
-2.0047823e-005 0.00087944313 -1.6847438e-005 0.00082530599 -6.2438521e-005 0.0080335625 0.99991143 -0.019917114
-2.2217737e-005 0.0029282225 -1.3846727e-005 0.00088135083 -9.1301763e-006 0.00050512538 -9.1482925e-006 0.00065809063
-2.0882626e-005 0.0007044613 -1.3169551e-005 0.0025994205 -1.8423541e-005 0.00089259539 -5.3003691e-006 0.0029363949
0.99989718 -0.018154424 -1.6204707e-005 0.0052903807 -1.7965638e-005 0.00072327908 -1.0304953e-005 0.00089450902
-3.0201994e-005 0.002721529 -2.5280899e-005 0.00049376563 -1.5808306e-005 0.00065875443 -1.9234161e-005 0.00088665879
-5.829268e-005 0.0052774474 0.99990505 -0.018572569 -2.8019662e-005 0.0026652464 -2.3656337e-005 0.00095010147
-1.0084022e-005 0.00086053606 -9.8028177e-006 0.00070246699 -5.7848683e-006 0.00041217433 -4.5513352e-006 0.00050568441
-1.7549319e-005 0.0007097061 -8.3324073e-007 0.0026414348 0.99972814 -0.017749695 1.6357593e-005 0.0081835138
-1.1644644e-005 0.00084445905 -1.2472794e-005 0.00067369081 -9.610053e-006 0.00048967963 -7.1427944e-006 0.00065790029
-1.3632773e-005 0.00088757946 -1.6781956e-005 0.00094369752 -5.1461244e-005 0.0082126679 0.9998979 -0.018214446
8305605.6056056 1.0000455 -0.020700302 1.0539879e-005 0.0087327063 -1.1802158e-005 0.00087057002 -7.6329061e-006 0.0010029745
-2.629293e-005 0.0008010288 7.9877227e-006 0.0031075687 -1.2131197e-005 0.00099497149 -5.783741e-006 0.00096845371
-6.3624093e-006 0.0087441914 0.99997354 -0.021006823 -1.0442837e-005 0.00084155187 -7.933435e-006 0.00094323914
1.6213016e-006 0.0029672636 -2.1003434e-005 0.0005690931 -9.744027e-006 0.00081139489 -7.7562418e-006 0.00077457179
-4.740793e-006 0.00086939987 -7.4396776e-006 0.00083310867 1.0001125 -0.018375698 6.9101698e-005 0.0091120219
-1.6166541e-005 0.0010158566 -4.1875846e-006 0.00074874266 -5.7972679e-006 0.00046717326 2.8407335e-006 0.00055846578
-1.3390888e-005 0.0010094934 -1.2833143e-005 0.00095158449 -6.2112122e-006 0.009241892 0.99992406 -0.022826582
-1.1988992e-006 0.0033686585 -1.0922072e-005 0.0010126678 -1.2083706e-005 0.00057866314 -5.1541474e-006 0.00075438595
-2.1051354e-005 0.00080566946 1.5828597e-005 0.0029830066 -8.5963611e-006 0.0010207766 3.2418407e-005 0.0033618012
0.9999674 -0.020560766 4.8743743e-005 0.0060577327 -1.3590938e-005 0.00082340662 -1.1963431e-006 0.0010257722
-1.148849e-005 0.0031298494 -2.8130251e-005 0.0005719671 -9.959329e-006 0.00076366053 -1.3001921e-005 0.0010146361
-2.206405e-005 0.00606912 0.99992871 -0.021192936 -1.0082557e-005 0.0030640834 -1.6992946e-005 0.0010911276
-1.529586e-005 0.00099098787 -8.5486008e-006 0.00080420467 -8.8385368e-006 0.00046798273 -4.9564551e-006 0.00057276728
-1.4482112e-005 0.00081391056 1.4426005e-005 0.0030260205 0.99990803 -0.020003423 6.9797185e-005 0.009374164
-1.276956e-005 0.00097127224 -1.1359486e-005 0.00077236118 -9.7008669e-006 0.00056058279 -7.1469617e-006 0.00075077126
-1.3463569e-005 0.0010211802 -2.0010808e-005 0.0010862383 -1.7688189e-005 0.0094308592 0.99979287 -0.020821862
9306306.3063063 1.0001581 -0.023256294 0.00014586678 0.009801806 3.7403751e-007 0.00097787147 1.1220557e-005 0.0011198012
-1.4111704e-005 0.00090231252 5.6147856e-005 0.0034904489 -1.9277283e-007 0.0011113163 9.171049e-006 0.0010841535
0.00013086514 0.0098160561 0.99996185 -0.023629384 3.9779979e-006 0.00094442617 5.6451017e-006 0.0010528381
