!Agilent Technologies,M9370A,MY54322275,A.02.50.04
!Agilent M9370A: A.02.50.04
!Date: Monday, April 02, 2018 17:28:27
!Correction: S11(Full 8 Port(1,2,3,4,5,6,7,8)) 
!S12(Full 8 Port(1,2,3,4,5,6,7,8)) 
!S13(Full 8 Port(1,2,3,4,5,6,7,8)) 
!S14(Full 8 Port(1,2,3,4,5,6,7,8)) 
!S15(Full 8 Port(1,2,3,4,5,6,7,8)) 
!S16(Full 8 Port(1,2,3,4,5,6,7,8)) 
!S17(Full 8 Port(1,2,3,4,5,6,7,8)) 
!S18(Full 8 Port(1,2,3,4,5,6,7,8)) 
!S21(Full 8 Port(1,2,3,4,5,6,7,8)) 
!S22(Full 8 Port(1,2,3,4,5,6,7,8)) 
!S23(Full 8 Port(1,2,3,4,5,6,7,8)) 
!S24(Full 8 Port(1,2,3,4,5,6,7,8)) 
!S25(Full 8 Port(1,2,3,4,5,6,7,8)) 
!S26(Full 8 Port(1,2,3,4,5,6,7,8)) 
!S27(Full 8 Port(1,2,3,4,5,6,7,8)) 
!S28(Full 8 Port(1,2,3,4,5,6,7,8)) 
!S31(Full 8 Port(1,2,3,4,5,6,7,8)) 
!S32(Full 8 Port(1,2,3,4,5,6,7,8)) 
!S33(Full 8 Port(1,2,3,4,5,6,7,8)) 
!S34(Full 8 Port(1,2,3,4,5,6,7,8)) 
!S35(Full 8 Port(1,2,3,4,5,6,7,8)) 
!S36(Full 8 Port(1,2,3,4,5,6,7,8)) 
!S37(Full 8 Port(1,2,3,4,5,6,7,8)) 
!S38(Full 8 Port(1,2,3,4,5,6,7,8)) 
!S41(Full 8 Port(1,2,3,4,5,6,7,8)) 
!S42(Full 8 Port(1,2,3,4,5,6,7,8)) 
!S43(Full 8 Port(1,2,3,4,5,6,7,8)) 
!S44(Full 8 Port(1,2,3,4,5,6,7,8)) 
!S45(Full 8 Port(1,2,3,4,5,6,7,8)) 
!S46(Full 8 Port(1,2,3,4,5,6,7,8)) 
!S47(Full 8 Port(1,2,3,4,5,6,7,8)) 
!S48(Full 8 Port(1,2,3,4,5,6,7,8)) 
!S51(Full 8 Port(1,2,3,4,5,6,7,8)) 
!S52(Full 8 Port(1,2,3,4,5,6,7,8)) 
!S53(Full 8 Port(1,2,3,4,5,6,7,8)) 
!S54(Full 8 Port(1,2,3,4,5,6,7,8)) 
!S55(Full 8 Port(1,2,3,4,5,6,7,8)) 
!S56(Full 8 Port(1,2,3,4,5,6,7,8)) 
!S57(Full 8 Port(1,2,3,4,5,6,7,8)) 
!S58(Full 8 Port(1,2,3,4,5,6,7,8)) 
!S61(Full 8 Port(1,2,3,4,5,6,7,8)) 
!S62(Full 8 Port(1,2,3,4,5,6,7,8)) 
!S63(Full 8 Port(1,2,3,4,5,6,7,8)) 
!S64(Full 8 Port(1,2,3,4,5,6,7,8)) 
!S65(Full 8 Port(1,2,3,4,5,6,7,8)) 
!S66(Full 8 Port(1,2,3,4,5,6,7,8)) 
!S67(Full 8 Port(1,2,3,4,5,6,7,8)) 
!S68(Full 8 Port(1,2,3,4,5,6,7,8)) 
!S71(Full 8 Port(1,2,3,4,5,6,7,8)) 
!S72(Full 8 Port(1,2,3,4,5,6,7,8)) 
!S73(Full 8 Port(1,2,3,4,5,6,7,8)) 
!S74(Full 8 Port(1,2,3,4,5,6,7,8)) 
!S75(Full 8 Port(1,2,3,4,5,6,7,8)) 
!S76(Full 8 Port(1,2,3,4,5,6,7,8)) 
!S77(Full 8 Port(1,2,3,4,5,6,7,8)) 
!S78(Full 8 Port(1,2,3,4,5,6,7,8)) 
!S81(Full 8 Port(1,2,3,4,5,6,7,8)) 
!S82(Full 8 Port(1,2,3,4,5,6,7,8)) 
!S83(Full 8 Port(1,2,3,4,5,6,7,8)) 
!S84(Full 8 Port(1,2,3,4,5,6,7,8)) 
!S85(Full 8 Port(1,2,3,4,5,6,7,8)) 
!S86(Full 8 Port(1,2,3,4,5,6,7,8)) 
!S87(Full 8 Port(1,2,3,4,5,6,7,8)) 
!S88(Full 8 Port(1,2,3,4,5,6,7,8)) 
!S8P File: Measurements: <S11,S12,S13,S14,S15,S16,S17,S18>,
!<S21,S22,S23,S24,S25,S26,S27,S28>,
!<S31,S32,S33,S34,S35,S36,S37,S38>,
!<S41,S42,S43,S44,S45,S46,S47,S48>,
!<S51,S52,S53,S54,S55,S56,S57,S58>,
!<S61,S62,S63,S64,S65,S66,S67,S68>,
!<S71,S72,S73,S74,S75,S76,S77,S78>,
!<S81,S82,S83,S84,S85,S86,S87,S88>:
# Hz S  RI   R 50
300000 0.99972105 -0.010761232 0.00013774299 0.0046516103 1.6004793e-005 0.00089843589 1.9050367e-005 0.0009196921
2.4514904e-005 0.00094600912 2.5279967e-005 0.0010385388 1.5385851e-005 0.001021495 1.5737151e-005 0.0010177925
0.00013530266 0.004651885 0.99992365 -0.010968479 1.6301834e-005 0.00093557511 2.3820056e-005 0.00094340416
2.2653616e-005 0.0010253865 2.511725e-005 0.0009478897 1.9176217e-005 0.0010243091 1.9096138e-005 0.0010239822
1.9048333e-005 0.00089340674 2.357457e-005 0.00092550361 0.99976295 -0.010151615 0.00014036254 0.0045734229
2.042921e-005 0.0010012665 2.2972701e-005 0.00097316515 1.1322972e-005 0.00069629448 1.3085889e-005 0.00073101366
2.1135889e-005 0.00092107948 1.8727451e-005 0.00094604644 0.00010696463 0.0046195895 0.99985009 -0.010375638
2.3294131e-005 0.0010837355 2.131731e-005 0.00097657379 9.1794136e-006 0.0007089171 8.0777299e-006 0.00073849747
2.4513538e-005 0.00094500574 2.4954043e-005 0.0010241086 1.913857e-005 0.0010033201 2.444072e-005 0.0010795319
0.99968994 -0.010548213 0.00012617781 0.0043975515 1.5627276e-005 0.00094234326 1.6504471e-005 0.00096324383
2.5394495e-005 0.00103767 2.0051713e-005 0.00095076585 1.8099608e-005 0.00098488049 2.0484706e-005 0.00098295754
0.00010673665 0.0044337926 0.99980342 -0.010968299 1.7655031e-005 0.0010810107 1.851323e-005 0.0010273535
2.6004527e-005 0.001007001 2.607999e-005 0.0010084379 1.2473842e-005 0.00069184304 1.7889864e-005 0.00069552602
1.9155455e-005 0.00093284057 2.7408543e-005 0.0010590192 0.99961102 -0.01023417 0.00012377911 0.0044777934
2.3007278e-005 0.0010102463 2.2611566e-005 0.0010210885 1.505707e-005 0.00073057157 1.8081284e-005 0.00073232426
2.0992366e-005 0.00096432079 2.2504375e-005 0.0010181209 0.00010673677 0.0045103179 0.99983883 -0.010404612
1300700.7007007 0.99830645 -0.049584698 0.0010014856 0.021238979 7.0457711e-005 0.004104408 8.1415332e-005 0.0042095422
9.7162752e-005 0.0043885908 0.00011352945 0.0047320747 9.4337433e-005 0.0046567773 9.3260052e-005 0.0046307389
0.00099990168 0.021217961 0.99849564 -0.049834948 8.2869054e-005 0.0042366679 8.3722996e-005 0.0042828666
0.00011601873 0.0047088088 8.5522806e-005 0.0042953743 9.292295e-005 0.0046226173 9.5614683e-005 0.0046348162
7.0530215e-005 0.004103174 7.6305128e-005 0.0042328518 0.99850428 -0.046285708 0.00093807618 0.020792294
0.00010138343 0.0046138591 8.9933172e-005 0.0044491272 3.6999591e-005 0.0031617372 4.923602e-005 0.003319246
7.5853328e-005 0.004204602 8.1833787e-005 0.0042827241 0.00092706201 0.020775545 0.99855274 -0.047061227
0.00012224285 0.0049711401 8.4604268e-005 0.0044344426 3.8136881e-005 0.0031893733 4.818846e-005 0.0033397535
9.6704905e-005 0.0043819472 0.00011659661 0.0047040996 0.00010252013 0.0046103536 0.00012102713 0.0049597081
0.99811298 -0.049356837 0.0009709053 0.020239627 8.5025204e-005 0.0043258695 9.5675903e-005 0.0044310144
0.00011003006 0.0047306512 8.3940198e-005 0.0042934944 8.4377316e-005 0.0044514942 8.5322688e-005 0.0044341944
0.0009589598 0.02025307 0.99841058 -0.049577214 0.00010481384 0.004873279 9.586657e-005 0.0046411799
9.9002078e-005 0.0046399259 9.1661823e-005 0.0046081236 3.879557e-005 0.0031529018 4.1060066e-005 0.0031810938
8.3116065e-005 0.0043160478 0.00010770063 0.0048523042 0.99832726 -0.046724066 0.0009190205 0.020326879
9.514331e-005 0.0046333997 9.4394971e-005 0.0046401238 4.7515401e-005 0.0033203154 4.9226026e-005 0.003341346
9.5259558e-005 0.0044363081 9.6558149e-005 0.0046442878 0.00090732879 0.020353779 0.99849546 -0.047348667
2301401.4014014 0.99503809 -0.087609448 0.0030071305 0.037460137 0.00020175074 0.007272175 0.00022464423 0.0074526593
0.00024512302 0.0077757915 0.00031593241 0.0083669741 0.00026597758 0.0082397135 0.00026577769 0.0081983013
0.0030199294 0.037432 0.99518245 -0.088061392 0.00023238287 0.0074935807 0.0002371724 0.0075796288
0.00031513264 0.0083384877 0.00023516596 0.0075937975 0.00026274502 0.0081808837 0.0002775224 0.0082035502
0.00020414178 0.0072644232 0.00022358917 0.0074940021 0.99560916 -0.08182513 0.002827846 0.036688004
0.00027281191 0.0081835352 0.00025230122 0.0078698816 0.00010424921 0.0056003323 0.00013753954 0.0058778268
0.0002176304 0.0074440017 0.0002279793 0.0075806435 0.0027789564 0.036666539 0.99557608 -0.083196409
0.00033070979 0.0088040084 0.00023920329 0.0078423377 0.00010603137 0.0056493711 0.00013533031 0.0059092115
0.00024078302 0.0077583035 0.0003047213 0.0083285188 0.00026377215 0.0081684543 0.00033065359 0.0087879645
0.99498349 -0.087486885 0.0028433462 0.035754669 0.00021383374 0.0076634781 0.00024785512 0.007850524
0.00030631843 0.0083602499 0.00021949092 0.0075962716 0.00024282656 0.0078710718 0.00023426824 0.007846457
0.0028211565 0.035784718 0.99514335 -0.087589033 0.0003019436 0.0086134635 0.00027119234 0.0082058599
0.00026994478 0.0082150269 0.00026053775 0.0081621772 0.00010832409 0.0055852951 0.00011283001 0.0056383885
0.00022438163 0.0076542627 0.000316638 0.008588165 0.99540859 -0.082590647 0.0027672066 0.035868328
0.00027082418 0.0081947502 0.00027246319 0.0082087573 0.00013846566 0.005879465 0.00014274687 0.0059153819
0.00025136778 0.0078653134 0.00028206702 0.0082095414 0.0027238727 0.0359127 0.99551505 -0.083690085
3302102.1021021 0.9900133 -0.12544747 0.006083861 0.053543948 0.00039967828 0.010448498 0.00044510711 0.010707345
0.00047458333 0.011164672 0.00061962206 0.012011238 0.00052426633 0.011836823 0.00053002598 0.011774355
0.0060996236 0.053496879 0.99007511 -0.1260628 0.00045374269 0.010762997 0.00047551107 0.010886469
0.00061817328 0.011967043 0.00044488648 0.010902777 0.00051783724 0.01174492 0.00054116093 0.011781584
0.00040602006 0.010436657 0.00044985677 0.010763654 0.99116707 -0.11717614 0.0057261917 0.052450042
0.00054108992 0.011746596 0.00050447177 0.011301987 0.00020756182 0.0080513908 0.00027288336 0.0084450152
0.00042897987 0.010693291 0.00044820367 0.010885205 0.0055943006 0.052434605 0.99096066 -0.11914346
0.00065350631 0.012633771 0.00046858776 0.01126855 0.00020123723 0.008120792 0.00026117178 0.0084939562
0.00045272367 0.011137589 0.00058626552 0.011951366 0.00051003468 0.01172653 0.00064765755 0.012610171
0.98994648 -0.12528482 0.0057115741 0.051106662 0.00041341953 0.011008851 0.00047854753 0.011273349
0.00059686537 0.011995002 0.00041786904 0.010905208 0.00047663765 0.011302355 0.00046034294 0.011270732
0.0056935353 0.05116092 0.99013424 -0.12541182 0.00059701561 0.012359978 0.00053112872 0.011778191
0.00053952209 0.011800081 0.00052722776 0.011722331 0.0002119549 0.008037963 0.00022418781 0.0081082582
0.00044656466 0.01100376 0.00063618761 0.012331805 0.99092269 -0.11828173 0.0055970582 0.051281732
0.00053467008 0.011769491 0.00053876848 0.011784524 0.0002670823 0.0084475446 0.00027590524 0.0084974961
0.00050103466 0.011287999 0.00054991944 0.01178124 0.0054949978 0.05133858 0.99088424 -0.11985561
4302802.8028028 0.9832074 -0.16301917 0.010194112 0.06947168 0.00066242635 0.013649204 0.00073603471 0.013983429
0.00077022833 0.014575652 0.0010258122 0.015673442 0.00086766033 0.015452359 0.00087747292 0.015374726
0.010196612 0.069403879 0.98317343 -0.16379923 0.00074552378 0.014054921 0.0007781724 0.014209993
0.0010193856 0.015618078 0.00072302617 0.014242313 0.00085081387 0.015335944 0.0008903984 0.015381848
0.00066979008 0.013632848 0.00074851728 0.014056531 0.98519492 -0.15231147 0.0095986268 0.068063758
0.00089819403 0.015326753 0.00083541695 0.014756962 0.00033638498 0.010524091 0.00044415804 0.011029371
0.00070081151 0.013968606 0.00073730439 0.014211916 0.0093467357 0.068085797 0.98472846 -0.15482835
0.0010813328 0.016480809 0.0007682328 0.014714956 0.00032506045 0.010615797 0.0004216239 0.011097596
0.00070921629 0.014552573 0.00094449456 0.015615686 0.00081696222 0.015317994 0.0010459474 0.016468685
0.98320192 -0.16279019 0.0094864219 0.066406205 0.00065738184 0.014395719 0.00076570746 0.014731054
0.00096198969 0.015660904 0.0006611147 0.01424998 0.00076744519 0.014762986 0.00074444566 0.014724478
0.0094931144 0.066430494 0.98337436 -0.16297024 0.00097085506 0.016137091 0.00085829344 0.015378078
0.00089295628 0.015409867 0.00087439781 0.015315135 0.00034838988 0.010508025 0.00037084526 0.010599107
0.00073886069 0.014377413 0.0010585724 0.016097445 0.98488027 -0.1537568 0.0093821017 0.066559985
0.00087970722 0.015362914 0.00088436616 0.015387051 0.00043341517 0.011031402 0.00044164219 0.011101062
0.00082478824 0.01474044 0.00090649084 0.015376983 0.009171376 0.0666513 0.98464268 -0.1557536
5303503.5035035 0.97460687 -0.20030198 0.015282097 0.08523 0.00098030886 0.016897475 0.0010952846 0.017301993
0.0011277625 0.018025056 0.0015152559 0.01937487 0.0012774485 0.019110424 0.0013002221 0.019017776
0.015244278 0.085177787 0.97454274 -0.20120963 0.0010983701 0.017390434 0.0011476998 0.017581323
0.0015018279 0.019308776 0.0010504045 0.017632443 0.001250901 0.018971169 0.001318079 0.019025821
0.00099971332 0.01686568 0.0011123498 0.01738051 0.97762012 -0.18723971 0.014425498 0.083503276
0.00133515 0.018943476 0.0012483852 0.018246766 0.00049827166 0.013035222 0.00066006096 0.013651398
0.0010258238 0.017298551 0.0010722441 0.017599868 0.013930135 0.083680011 0.97690153 -0.19022502
0.0015833644 0.020380162 0.0011187674 0.018226309 0.0004579204 0.01315632 0.00060522999 0.013747895
0.0010092115 0.018057957 0.0013686307 0.019364413 0.0011763488 0.019006198 0.0015227768 0.020413918
0.97469991 -0.19999091 0.014131505 0.081741005 0.00093845133 0.017871894 0.0011108377 0.018274894
0.0014064062 0.019385938 0.0009489223 0.017661555 0.0011154639 0.018286098 0.0010793251 0.018239725
0.014162156 0.081648409 0.97487605 -0.20024171 0.0014171744 0.019976009 0.0012490298 0.019038673
0.0013383492 0.019054262 0.0013066253 0.018941717 0.00051583396 0.013020884 0.00054711779 0.013125991
0.001104715 0.017791307 0.0015842606 0.019899836 0.97716355 -0.18897542 0.014085219 0.081693724
0.0013053755 0.019006371 0.0013146235 0.019036252 0.00063709734 0.013658575 0.00065894792 0.01374209
0.001218529 0.018232729 0.0013438526 0.019011207 0.013736174 0.081844993 0.97677207 -0.1913847
6304204.2042042 0.96429116 -0.23706587 0.021329792 0.100899 0.0013632838 0.020215232 0.0015140963 0.020691078
0.0015461153 0.021561302 0.0020945107 0.023154076 0.0017513202 0.022849482 0.0017994748 0.02273584
0.021247219 0.10091227 0.96422386 -0.23813419 0.0015119129 0.020814098 0.0015840057 0.021029746
0.0020651638 0.023086311 0.0014349304 0.021114469 0.001711112 0.022698129 0.0018155534 0.022763381
0.0013872511 0.020164859 0.001548234 0.020771192 0.96851766 -0.2217541 0.020203551 0.098809861
0.0018546714 0.022614338 0.0017404781 0.021799039 0.00067712658 0.015603725 0.00090522692 0.016320881
0.00139177 0.020734943 0.0014597066 0.02108738 0.019354949 0.099368051 0.96763551 -0.22514942
0.0021781966 0.024384964 0.0015240357 0.021850949 0.00060190487 0.015797378 0.00081283535 0.016483931
0.00142071 0.021683747 0.0019355366 0.023235887 0.001666886 0.022805303 0.0021702494 0.024470888
0.9644987 -0.23672703 0.019962048 0.0971497 0.0013306194 0.021468481 0.0015766039 0.021937864
0.0019354682 0.023225512 0.0012898588 0.021190584 0.001528418 0.021919955 0.0014962883 0.021871455
0.019763296 0.096929416 0.96476245 -0.23707263 0.0019552051 0.023928316 0.0017165052 0.02281112
0.0018621177 0.022775088 0.0018215324 0.022639567 0.00071242219 0.01559275 0.0007646929 0.015717261
0.0015399881 0.021274989 0.0022189931 0.023767544 0.96794802 -0.22367942 0.019704221 0.096733518
0.0018087893 0.022728605 0.0018237836 0.022765148 0.00087021489 0.016347952 0.00090566342 0.016444892
0.0016925887 0.021797545 0.0018652078 0.022725694 0.019177569 0.096998617 0.96739578 -0.22655714
7304904.9049049 0.95229721 -0.27325895 0.028608901 0.1165948 0.0018416507 0.023662563 0.0020728717 0.024197349
0.0020765378 0.025223389 0.0028481972 0.027048716 0.0023687042 0.026723661 0.0024539114 0.026587345
0.028498672 0.11671146 0.9522332 -0.27456567 0.0020454205 0.024362747 0.0021711891 0.024604309
0.0027817269 0.027003944 0.001957953 0.024740418 0.0023141515 0.026574429 0.0024761045 0.026637105
0.0018906228 0.02356576 0.0021068281 0.024258982 0.95792431 -0.25579083 0.027090313 0.11405368
0.0025007473 0.026386986 0.002369825 0.025446534 0.00091852696 0.018262696 0.0012411502 0.019079644
0.0019128053 0.024329325 0.0020071724 0.024737488 0.02607139 0.11527579 0.95689005 -0.25978747
0.0029604598 0.028561534 0.0021032847 0.025633043 0.00082655891 0.018564647 0.0011309908 0.019356072
0.0020669855 0.025419928 0.0027713964 0.027209967 0.002407382 0.02670664 0.0031120363 0.028620251
0.95256346 -0.27301747 0.02743472 0.11242756 0.0019440907 0.025187803 0.0022891625 0.025697839
0.0026498518 0.027214684 0.001775598 0.024884207 0.0021088289 0.025704889 0.0020661906 0.025651593
0.026630575 0.11234174 0.95295924 -0.27347788 0.0026718008 0.028046256 0.0023665735 0.026732599
0.0025377721 0.026590571 0.002488198 0.026439413 0.00098732102 0.018250026 0.0010625146 0.018386427
0.0021023457 0.024874868 0.0030362238 0.027733462 0.95727837 -0.2578868 0.026503529 0.11168874
0.0024588271 0.026564259 0.002480991 0.026612038 0.0011885773 0.019139592 0.0012469002 0.019238902
0.0022920035 0.025477745 0.0025414943 0.0265551 0.025689958 0.11220063 0.95644724 -0.26137218
8305605.6056056 0.93887162 -0.30885735 0.037656963 0.13206765 0.0025814844 0.027206292 0.0028736826 0.027784852
0.0028805782 0.028994665 0.0038913079 0.031033838 0.0032748829 0.0307054 0.0033935239 0.030529473
0.037566613 0.1322892 0.93864554 -0.31055337 0.0028607801 0.02801168 0.0030087265 0.028256545
0.0038247833 0.031006349 0.0027405045 0.028462356 0.0032201745 0.030557368 0.0034342285 0.030607698
0.0025954975 0.027053243 0.0028818704 0.027833268 0.94594467 -0.28938121 0.035505161 0.12904048
0.0033949816 0.030247852 0.0032315252 0.029167322 0.0013070959 0.021006126 0.0017244249 0.021901025
0.0027329214 0.028012743 0.0028689811 0.028478183 0.0346867 0.1309796 0.94460958 -0.29410282
0.0041344925 0.032815021 0.0030046774 0.029511429 0.0012713209 0.021435356 0.0016665423 0.022297632
0.0030303148 0.029159393 0.0039858557 0.03116969 0.0034926403 0.030596992 0.0044395551 0.032724049
0.93903285 -0.30870891 0.036713328 0.12706868 0.0028776925 0.028920397 0.0033402699 0.029448805
0.0037291341 0.031276964 0.0025751414 0.02866751 0.0030089838 0.02956973 0.0029661634 0.029505609
0.035390329 0.1275406 0.93947184 -0.30946037 0.0037594144 0.032245412 0.003352504 0.030724976
0.0034758842 0.030473137 0.0034167308 0.030312302 0.0014105291 0.020980639 0.0015104302 0.021111613
0.0028905971 0.028546046 0.0041277595 0.031749263 0.94547015 -0.29158938 0.034789711 0.12635408
0.0033930545 0.030490769 0.0034256785 0.030546572 0.0016824581 0.021997824 0.0017574327 0.022096405
0.0031465029 0.02924332 0.0034900568 0.030451229 0.03379124 0.12725684 0.94396007 -0.29571813
9306306.3063063 0.92366362 -0.34415627 0.048866268 0.14609632 0.0036740932 0.030590262 0.0040311711 0.031195546
0.0040572095 0.032595009 0.0053607519 0.034805581 0.0046020844 0.034509972 0.0047390079 0.034279026
0.048871987 0.14641841 0.9231717 -0.3460393 0.0040545533 0.031476453 0.0042272555 0.031721696
0.0053058174 0.034814984 0.003909362 0.032020558 0.0045543523 0.034360912 0.0048233732 0.034375835
0.0036239971 0.030415513 0.0039953478 0.031270444 0.93234897 -0.32259607 0.045706518 0.14281762
0.0046553351 0.033941116 0.0044270125 0.032732233 0.0019219783 0.023683615 0.0024493975 0.024623349
0.0039818082 0.031478256 0.0041529452 0.031978108 0.045533109 0.14510451 0.93051153 -0.32786614
0.0058150636 0.036774632 0.0043449169 0.033145659 0.0020213937 0.024160711 0.0025248684 0.025068998
0.0042577102 0.032695353 0.0054913512 0.034890197 0.0048688781 0.034259185 0.0060463678 0.036555022
0.92381668 -0.34390956 0.047558181 0.14036237 0.0040943706 0.032467779 0.0046528205 0.032970823
0.0052517927 0.035091937 0.0037772236 0.0322579 0.0043422049 0.033206109 0.004267545 0.033128385
0.046403244 0.14119446 0.92411262 -0.34490812 0.0053386735 0.036193278 0.0047839144 0.034461189
0.0047815153 0.034182779 0.0046999636 0.034010381 0.0020685429 0.023611562 0.0021673201 0.023747128
0.0040307706 0.032081604 0.0055967001 0.035570685 0.93214911 -0.32518873 0.044877447 0.13980354
0.0047102128 0.034239277 0.0047466117 0.034305252 0.0024327349 0.02474932 0.0025057527 0.024845073
0.0043875379 0.032857955 0.0048170853 0.034170326 0.043900903 0.14118342 0.92978328 -0.32948658
10307007.007007 0.90439117 -0.3803781 0.060330331 0.15289611 0.0048232228 0.032736767 0.0051415716 0.033416901
0.0053264713 0.034862164 0.0067706639 0.037138812 0.0061508799 0.036742147 0.0060854713 0.036620062
0.06033694 0.15298398 0.90461379 -0.38061175 0.0052385447 0.033622958 0.0053148493 0.033936918
0.0067647924 0.037113711 0.0049747438 0.034255505 0.0060360515 0.036555756 0.0061159991 0.036682244
0.0048127007 0.032733854 0.0052308855 0.033603422 0.91537839 -0.35698938 0.056022998 0.15129741
0.0060095461 0.036491409 0.0056372043 0.035230655 0.0027468228 0.025516262 0.0032045865 0.026565064
