!Agilent Technologies,M9370A,MY54322275,A.02.50.04
!Agilent M9370A: A.02.50.04
!Date: Thursday, April 12, 2018 11:33:20
!Correction: S11(Full 8 Port(1,2,3,4,5,6,7,8)) 
!S12(Full 8 Port(1,2,3,4,5,6,7,8)) 
!S13(Full 8 Port(1,2,3,4,5,6,7,8)) 
!S14(Full 8 Port(1,2,3,4,5,6,7,8)) 
!S15(Full 8 Port(1,2,3,4,5,6,7,8)) 
!S16(Full 8 Port(1,2,3,4,5,6,7,8)) 
!S17(Full 8 Port(1,2,3,4,5,6,7,8)) 
!S18(Full 8 Port(1,2,3,4,5,6,7,8)) 
!S21(Full 8 Port(1,2,3,4,5,6,7,8)) 
!S22(Full 8 Port(1,2,3,4,5,6,7,8)) 
!S23(Full 8 Port(1,2,3,4,5,6,7,8)) 
!S24(Full 8 Port(1,2,3,4,5,6,7,8)) 
!S25(Full 8 Port(1,2,3,4,5,6,7,8)) 
!S26(Full 8 Port(1,2,3,4,5,6,7,8)) 
!S27(Full 8 Port(1,2,3,4,5,6,7,8)) 
!S28(Full 8 Port(1,2,3,4,5,6,7,8)) 
!S31(Full 8 Port(1,2,3,4,5,6,7,8)) 
!S32(Full 8 Port(1,2,3,4,5,6,7,8)) 
!S33(Full 8 Port(1,2,3,4,5,6,7,8)) 
!S34(Full 8 Port(1,2,3,4,5,6,7,8)) 
!S35(Full 8 Port(1,2,3,4,5,6,7,8)) 
!S36(Full 8 Port(1,2,3,4,5,6,7,8)) 
!S37(Full 8 Port(1,2,3,4,5,6,7,8)) 
!S38(Full 8 Port(1,2,3,4,5,6,7,8)) 
!S41(Full 8 Port(1,2,3,4,5,6,7,8)) 
!S42(Full 8 Port(1,2,3,4,5,6,7,8)) 
!S43(Full 8 Port(1,2,3,4,5,6,7,8)) 
!S44(Full 8 Port(1,2,3,4,5,6,7,8)) 
!S45(Full 8 Port(1,2,3,4,5,6,7,8)) 
!S46(Full 8 Port(1,2,3,4,5,6,7,8)) 
!S47(Full 8 Port(1,2,3,4,5,6,7,8)) 
!S48(Full 8 Port(1,2,3,4,5,6,7,8)) 
!S51(Full 8 Port(1,2,3,4,5,6,7,8)) 
!S52(Full 8 Port(1,2,3,4,5,6,7,8)) 
!S53(Full 8 Port(1,2,3,4,5,6,7,8)) 
!S54(Full 8 Port(1,2,3,4,5,6,7,8)) 
!S55(Full 8 Port(1,2,3,4,5,6,7,8)) 
!S56(Full 8 Port(1,2,3,4,5,6,7,8)) 
!S57(Full 8 Port(1,2,3,4,5,6,7,8)) 
!S58(Full 8 Port(1,2,3,4,5,6,7,8)) 
!S61(Full 8 Port(1,2,3,4,5,6,7,8)) 
!S62(Full 8 Port(1,2,3,4,5,6,7,8)) 
!S63(Full 8 Port(1,2,3,4,5,6,7,8)) 
!S64(Full 8 Port(1,2,3,4,5,6,7,8)) 
!S65(Full 8 Port(1,2,3,4,5,6,7,8)) 
!S66(Full 8 Port(1,2,3,4,5,6,7,8)) 
!S67(Full 8 Port(1,2,3,4,5,6,7,8)) 
!S68(Full 8 Port(1,2,3,4,5,6,7,8)) 
!S71(Full 8 Port(1,2,3,4,5,6,7,8)) 
!S72(Full 8 Port(1,2,3,4,5,6,7,8)) 
!S73(Full 8 Port(1,2,3,4,5,6,7,8)) 
!S74(Full 8 Port(1,2,3,4,5,6,7,8)) 
!S75(Full 8 Port(1,2,3,4,5,6,7,8)) 
!S76(Full 8 Port(1,2,3,4,5,6,7,8)) 
!S77(Full 8 Port(1,2,3,4,5,6,7,8)) 
!S78(Full 8 Port(1,2,3,4,5,6,7,8)) 
!S81(Full 8 Port(1,2,3,4,5,6,7,8)) 
!S82(Full 8 Port(1,2,3,4,5,6,7,8)) 
!S83(Full 8 Port(1,2,3,4,5,6,7,8)) 
!S84(Full 8 Port(1,2,3,4,5,6,7,8)) 
!S85(Full 8 Port(1,2,3,4,5,6,7,8)) 
!S86(Full 8 Port(1,2,3,4,5,6,7,8)) 
!S87(Full 8 Port(1,2,3,4,5,6,7,8)) 
!S88(Full 8 Port(1,2,3,4,5,6,7,8)) 
!S8P File: Measurements: <S11,S12,S13,S14,S15,S16,S17,S18>,
!<S21,S22,S23,S24,S25,S26,S27,S28>,
!<S31,S32,S33,S34,S35,S36,S37,S38>,
!<S41,S42,S43,S44,S45,S46,S47,S48>,
!<S51,S52,S53,S54,S55,S56,S57,S58>,
!<S61,S62,S63,S64,S65,S66,S67,S68>,
!<S71,S72,S73,S74,S75,S76,S77,S78>,
!<S81,S82,S83,S84,S85,S86,S87,S88>:
# Hz S  RI   R 50
1000000 0.25384769 0.054714125 0.24515361 0.0073030493 0.080699041 0.0042262925 0.080613397 0.0041891891
0.080703951 0.0040902351 0.080979764 0.0042548575 0.081005991 0.0043221754 0.081857584 0.0041596107
0.24491464 0.0072606197 0.25280273 0.053129584 0.080612943 0.0042874017 0.080539949 0.0042719413
0.0806702 0.0042358465 0.08070422 0.0041928608 0.080726959 0.0043330947 0.0807781 0.0042548841
0.080606669 0.0042863348 0.080545329 0.0043942416 0.25339237 0.05647736 0.24393694 0.0070475405
0.080551848 0.0041789543 0.080235325 0.0041963742 0.080704592 0.0042253565 0.080539301 0.004169127
0.080730155 0.0043461765 0.080682412 0.0044674217 0.24437013 0.0074004238 0.25306991 0.05627653
0.080565289 0.0043387422 0.080337867 0.0042812214 0.080708489 0.0043109907 0.081169806 0.0041928804
0.080679722 0.0042483262 0.080635771 0.0044395947 0.080530114 0.0043058726 0.080504805 0.0043626879
0.25461474 0.060038418 0.24388006 0.0067523038 0.080163077 0.0043165996 0.080294095 0.0042204033
0.080596499 0.00446562 0.080529846 0.0044346415 0.080453552 0.0043380037 0.080429934 0.0043167844
0.24461061 0.0068379091 0.25224116 0.055574194 0.080425918 0.0045411633 0.080429047 0.0043839845
0.080482319 0.0043408414 0.080384463 0.0044036545 0.080312744 0.0042176582 0.080282919 0.0041805659
0.080441728 0.0041691773 0.080135182 0.0043973583 0.25385723 0.058240041 0.24368584 0.007047073
0.080610976 0.0043122773 0.080521211 0.0043959143 0.080446728 0.0042160605 0.080422036 0.0041772807
0.080576085 0.0041528922 0.080275021 0.0043108664 0.2440068 0.0073907557 0.25270042 0.058379404
1499499.4994995 0.25261799 0.0057786941 0.24919322 0.0012861312 0.083070263 0.00060799532 0.083082043 0.00059768528
0.083144538 0.00076764816 0.08303114 0.00073458004 0.083058767 0.00067202508 0.08309187 0.00064858171
0.24908562 0.0012758026 0.25253689 0.0051898612 0.083025098 0.00060109218 0.083045192 0.00060515408
0.08309605 0.00088441861 0.082959592 0.00051195076 0.08299946 0.0005851129 0.083050609 0.00057645346
0.083053224 0.00063210656 0.083047591 0.00064833241 0.25290072 0.0060643088 0.2489354 0.0013303621
0.083120286 0.00086372101 0.082972765 0.00056582579 0.082981601 0.00049798848 0.082997113 0.00050626154
0.083097093 0.00059657189 0.083119288 0.0006245196 0.24902199 0.0013248229 0.25254095 0.0058611711
0.08318828 0.00098455243 0.083044894 0.00056023302 0.083048314 0.00046869717 0.083083525 0.00047229839
0.083176598 0.00076381699 0.083170399 0.00090150395 0.083131649 0.00085429306 0.08316651 0.00098903209
0.25299475 0.0067676436 0.24933471 0.0015002397 0.083134145 0.00077953679 0.083160758 0.00077505171
0.083071753 0.00075073377 0.083062835 0.00055292167 0.083009943 0.00057189626 0.083050042 0.00058443437
0.24931273 0.0016120644 0.25207761 0.0052409191 0.08303801 0.00081613986 0.083067097 0.00069287338
0.083002344 0.00069502665 0.082972392 0.00063920865 0.082917042 0.00052523473 0.082951181 0.0005108242
0.083021365 0.0008267666 0.082922354 0.00083807786 0.25298089 0.0061172587 0.2488471 0.0014374186
0.083123729 0.00069842191 0.083109193 0.00065756385 0.083047614 0.00055487285 0.083088323 0.00053894869
0.083151475 0.00084499089 0.083058424 0.00073982729 0.24906623 0.0015897814 0.25224593 0.0061491639
1998998.998999 0.25271186 0.0061229519 0.24910413 0.001645898 0.08307983 0.00073233579 0.083100587 0.00070814276
0.083118916 0.00079684024 0.083063662 0.00092974101 0.083074994 0.00080341421 0.083090872 0.0007532023
0.24901532 0.0015758165 0.25255868 0.00558708 0.083035827 0.00073981733 0.083064109 0.00072757486
0.083071239 0.00096671819 0.082996912 0.00064825307 0.083020434 0.00070537394 0.08305268 0.00066808978
0.083082467 0.00077909679 0.083076514 0.00082302035 0.25298867 0.0064809588 0.24886824 0.0015637961
0.08309821 0.00092494918 0.083016627 0.00070092344 0.08300972 0.00058112055 0.083009169 0.00056706369
0.083144017 0.00075351773 0.083149455 0.00081486994 0.24895133 0.0016366756 0.25268459 0.0061295917
0.083165757 0.0011080733 0.083090387 0.00071403675 0.083072625 0.00056265766 0.083091445 0.00054510607
0.083256498 0.00083799998 0.083248727 0.0010509867 0.083202004 0.00095056585 0.083243839 0.0011207376
0.25303784 0.0064902306 0.24945031 0.001481831 0.083207838 0.00084394496 0.083223552 0.00081260712
0.08310961 0.0010175115 0.08310084 0.0007778299 0.083038546 0.00076947 0.083085239 0.00076880428
0.24912818 0.0016714658 0.2521295 0.0057738866 0.083070576 0.0010791918 0.083088942 0.00089275197
0.083030298 0.00087071414 0.083002597 0.00081764866 0.082934327 0.00062577496 0.082975946 0.00060035189
0.083004981 0.00088378252 0.08296939 0.0010711771 0.25310561 0.0064833141 0.2487269 0.0016669501
0.083140478 0.00087943242 0.083132774 0.00084441982 0.083060399 0.00066567014 0.083104283 0.00064059615
0.083128519 0.0009067335 0.083096221 0.00094097259 0.24898545 0.0019105391 0.25226769 0.0064054988
2498498.4984985 0.25292328 0.0023299565 0.24928893 0.00013847114 0.08319746 0.0001221569 0.083201408 8.9930021e-005
0.083229452 0.00011117902 0.083210208 0.00037024231 0.083181582 0.00020913212 0.083180301 0.0001450423
0.2492037 0.00010750264 0.25278124 0.0018909168 0.083154529 0.00016437528 0.083172791 0.00014470713
0.083185539 0.00035190611 0.083152302 4.7026493e-005 0.083125003 0.00011519071 0.083143637 6.8797526e-005
0.083202362 0.00015489555 0.083199263 0.00021790099 0.25292078 0.0025044226 0.24904241 -0.00011998673
0.083217561 0.00024129613 0.083158873 5.3411444e-005 0.083115965 -9.5885887e-005 0.083118327 -0.00012335664
0.083204202 0.0001934184 0.083218746 0.00027373256 0.24903117 0.00018476757 0.25277352 0.0022514698
0.083181605 0.00054680929 0.083181292 0.0001359398 0.083130486 -4.9851184e-005 0.08315172 -8.5171516e-005
0.083092928 0.00018867748 0.083096139 0.00046692323 0.083050139 0.00031739881 0.083078176 0.00053089927
0.25227413 0.0021798462 0.24887206 -0.00035690403 0.08301381 0.00018092789 0.083029673 0.00014072428
0.083212823 0.00049308717 0.08320602 0.00020301463 0.08315067 0.0001731587 0.083182402 0.00017095631
0.24928741 -0.00015480623 0.2523306 0.0018828085 0.083168864 0.00055950042 0.083171681 0.00032493914
0.083143935 0.0002661295 0.083120331 0.00021179335 0.083058655 -4.1898376e-005 0.083081335 -7.9351987e-005
0.083121456 0.00018687308 0.083112568 0.00050876214 0.25328088 0.0024021086 0.24884136 1.847573e-006
0.08325509 0.0002788296 0.083250232 0.00023161498 0.083185449 6.7115423e-007 0.083209917 -3.9788221e-005
0.08324261 0.00020378998 0.083236761 0.00034061208 0.24916084 0.00027318075 0.25240907 0.0022622903
2997997.997998 0.25302944 0.0030190339 0.2492004 0.00070145476 0.083199993 0.0003154958 0.083222285 0.00026991082
0.083225444 0.00031256268 0.083204001 0.00061922206 0.083173729 0.00042359336 0.083187506 0.00030340278
0.24917941 0.00062743085 0.25287473 0.002575991 0.083169214 0.00035642096 0.083204657 0.00032188295
0.083196096 0.00059572258 0.083159208 0.00022262073 0.083134659 0.00030732615 0.083163232 0.00019919807
0.083207957 0.00035657643 0.083201304 0.00043721049 0.25332603 0.0032999211 0.2490584 0.00034388783
0.083220497 0.00045748672 0.083161779 0.0002350172 0.083118349 6.0737293e-005 0.083131932 -2.2092076e-005
0.083221391 0.00040159488 0.083227076 0.00050434639 0.24904053 0.00067790685 0.25304592 0.0028241961
0.08317551 0.00082141778 0.083190538 0.00033036427 0.083143078 0.00010999337 0.08317674 1.9045941e-005
0.083177119 0.00029723934 0.083176486 0.00062892406 0.083139867 0.00043332524 0.083182059 0.00069001736
0.25259706 0.002547595 0.24905759 -0.00024492797 0.083085433 0.00028547458 0.083125144 0.00018328628
0.083225071 0.00079819426 0.083214715 0.0004557058 0.083162598 0.00040459563 0.083217956 0.0004066496
0.2492696 0.00042850105 0.25242898 0.002697658 0.083177127 0.00087980332 0.08319208 0.0005422298
0.083144709 0.00051014131 0.083116412 0.00044676891 0.08306428 0.00012352866 0.083102994 7.7441066e-005
0.083121024 0.00040756463 0.083108604 0.00079694262 0.25341821 0.0031650825 0.24880154 0.00041521422
0.083231978 0.00053717033 0.083223611 0.0004838758 0.083164163 0.00018588245 0.083207667 0.00013668346
0.083221197 0.00045006111 0.083212778 0.00061092229 0.24902284 0.00093421951 0.25246984 0.0028674372
3497497.4974975 0.25317395 0.0025354603 0.24932605 0.00074966135 0.083268367 0.00030712393 0.083268203 0.00026873921
0.083298102 0.00026715739 0.083283089 0.00064985728 0.083245277 0.00043362178 0.08323732 0.00028600692
0.24928108 0.00066790765 0.25297025 0.0020896732 0.083231665 0.00036049663 0.083236486 0.00033076189
0.083258882 0.00059838203 0.083232634 0.00018880934 0.083196796 0.00030010447 0.083202332 0.00016350426
0.083280839 0.00035015136 0.083274052 0.00045565265 0.25349954 0.0028693923 0.24908312 0.00033667302
0.083285466 0.00043778564 0.083231121 0.00020702847 0.08318688 9.3439439e-006 0.083183512 -9.2660135e-005
0.083261088 0.00044254176 0.083268017 0.00056506618 0.24905692 0.00081509457 0.25301155 0.0023599609
0.083277039 0.00089753256 0.08323025 0.00034891575 0.083177544 9.9599507e-005 0.083178505 -7.6410224e-006
0.083122991 0.00057600427 0.083117127 0.00096827094 0.083080187 0.00074668205 0.083092988 0.0010447275
0.25230235 0.002769059 0.24880782 0.00044693975 0.083059795 0.00056270172 0.083048604 0.00043562087
0.083276704 0.00087564916 0.083263077 0.00047807611 0.083209686 0.00042585217 0.083233297 0.00042209259
0.24933137 0.00030550268 0.25247583 0.0021896127 0.083226249 0.00096835213 0.083215237 0.00056492217
0.083222635 0.0005063272 0.083195999 0.00044188389 0.083137251 7.3216688e-005 0.083146483 1.7921378e-005
0.083195232 0.00035870826 0.083187975 0.00082900317 0.25358108 0.0026029109 0.24886197 0.00033543634
0.083302058 0.00056232919 0.083298437 0.00050413533 0.083231628 0.00016937498 0.0832486 0.00010802325
0.083288409 0.00042571945 0.083283395 0.00063645223 0.24912962 0.0010089801 0.25253424 0.0023136302
3996996.996997 0.2533201 0.0031312427 0.24934512 0.0013005056 0.083290935 0.00049500843 0.083300285 0.0004582463
0.083340637 0.00046942927 0.08330705 0.00089721644 0.083270632 0.00066537765 0.08327084 0.00050372077
0.24935716 0.0012026313 0.25309852 0.0027275577 0.083268739 0.00056196196 0.083281174 0.00053398695
0.083313733 0.0008528044 0.083269536 0.0003770754 0.083232284 0.00051108102 0.083249852 0.00037277321
0.08329986 0.00054453633 0.083292276 0.00066052034 0.25356445 0.0034648725 0.24903229 0.00080347469
0.083302669 0.00064802129 0.083232865 0.00037232621 0.083187565 0.00016537015 0.083197638 6.1544401e-005
0.083328642 0.00064176903 0.083332643 0.00078408729 0.24911903 0.001307948 0.25321215 0.0028650332
0.083341151 0.0011685018 0.083279461 0.00053216901 0.083224602 0.00026676877 0.083237268 0.00015645196
0.083174326 0.00063226692 0.083163679 0.0010830343 0.083111435 0.00082266488 0.083133489 0.0011755251
0.25235319 0.0028766661 0.24880771 0.00039301428 0.083088927 0.00064114312 0.083091915 0.0005070825
0.083341762 0.0012310365 0.083323285 0.00077669375 0.08325772 0.00070766028 0.083289281 0.00071849237
0.24944316 0.0010280487 0.25258449 0.003071609 0.083268076 0.0013594866 0.083273567 0.00090888701
0.083260171 0.00077123317 0.083234861 0.00068729476 0.083158076 0.00025392693 0.08317747 0.00020617097
0.083237566 0.00060788367 0.083215594 0.0011338717 0.25368413 0.0033745426 0.24888721 0.00099538092
0.083363242 0.0008303895 0.083352841 0.00075991126 0.08327046 0.00036573474 0.083294228 0.00031026793
0.083348714 0.00068335206 0.083323896 0.00091145287 0.24917166 0.0017346417 0.25272807 0.0030755934
4496496.4964965 0.25374904 0.0029554847 0.24949715 0.0012894003 0.083403155 0.0004961848 0.083414376 0.00044840574
0.083458319 0.00047673806 0.083424971 0.0009167355 0.083391048 0.00065457035 0.083439238 0.00049705419
0.24961402 0.0012057424 0.25346145 0.0026028601 0.083395079 0.00058096671 0.08340703 0.00055012078
0.083447918 0.00091970066 0.083395466 0.00034495571 0.083364539 0.00049595052 0.083431721 0.00036107161
0.083387062 0.00053232536 0.083359748 0.00066243409 0.25404564 0.0033297329 0.2492355 0.00073548703
0.083401084 0.00067365932 0.083329894 0.00032088961 0.083285816 9.0466507e-005 0.083343171 -1.6918495e-005
0.083430722 0.00072162232 0.083413877 0.00088281621 0.24934368 0.0015407992 0.25368512 0.002909139
0.083460845 0.0013446726 0.083393373 0.00058187474 0.083340518 0.00028653094 0.083398759 0.00017550007
0.083468087 0.00098170957 0.083441854 0.0014975785 0.083418936 0.0012103312 0.083439939 0.0015973964
0.25336939 0.0037413922 0.2495878 0.001182118 0.08340136 0.00096961047 0.083452977 0.00083650381
0.083463132 0.0013059903 0.083428919 0.00080496131 0.083388053 0.00073268428 0.083421521 0.00073122612
0.24975143 0.0010223875 0.25303 0.00284838 0.083407447 0.0014309651 0.083458528 0.00094223756
0.083378211 0.00073880161 0.083334476 0.00065825763 0.08328566 0.00018552347 0.083309464 0.00012890427
0.083375409 0.00058747764 0.083347887 0.0011403952 0.25423402 0.003012053 0.24933469 0.00083206297
0.083456859 0.00084234437 0.083431326 0.00077555783 0.083376303 0.00034260139 0.083398819 0.0002746362
0.083464555 0.00070316403 0.083433725 0.00092196802 0.24941757 0.0016889303 0.25335363 0.0028237801
4995995.995996 0.2539919 0.0035252541 0.2496381 0.0018085202 0.083473928 0.00066225976 0.083491832 0.00061795715
0.083579585 0.00064231968 0.083511494 0.0011440344 0.083463654 0.0008783926 0.083497129 0.00068468938
0.24982637 0.0017410242 0.25368735 0.0031476102 0.083481327 0.00075322017 0.083502695 0.00072604109
0.08358819 0.0011353145 0.083500125 0.00050823973 0.083460204 0.0007008547 0.083505347 0.00053010311
0.083466731 0.00070469105 0.083433285 0.00085031526 0.25415975 0.0038297554 0.24927612 0.0011115649
0.083499417 0.00084723526 0.083389662 0.0004575339 0.083340049 0.00023020284 0.083382592 0.00010606122
0.083568066 0.0009317025 0.083544247 0.0011094313 0.24951605 0.0020187821 0.25395653 0.0033452755
0.083620429 0.0016097445 0.083515018 0.00076421042 0.083453283 0.00046467021 0.083494671 0.00033198422
0.083449341 0.0012324132 0.083417162 0.0017956145 0.083370872 0.0014598013 0.08340057 0.001906003
0.25314274 0.0043548872 0.24924739 0.0016543905 0.083355784 0.001230665 0.083391167 0.0010763432
0.083609179 0.0016770045 0.083569072 0.0011072791 0.083499976 0.0010125998 0.083537668 0.0010234303
0.25007331 0.001677129 0.25325862 0.0036940915 0.083527744 0.0018252073 0.083560862 0.001276815
0.083477236 0.00099092047 0.083430156 0.00089285575 0.083355442 0.00035146132 0.083380297 0.00028501329
0.08348766 0.00078873319 0.083424792 0.0014272745 0.25440446 0.003737276 0.24936838 0.0014215617
0.083581626 0.0011349322 0.083552696 0.0010505707 0.08346986 0.00055851741 0.08350189 0.00048610262
0.083608121 0.00095680158 0.08354044 0.0012131835 0.24958797 0.0024903787 0.25354826 0.003594358
5495495.4954955 0.25444481 0.0039703408 0.24990173 0.0023242389 0.083626576 0.00083988073 0.083629146 0.00078349386
0.083660558 0.00083890103 0.08365155 0.0013598575 0.083630465 0.0010595011 0.083630085 0.00088548724
0.25010455 0.0022028973 0.25411245 0.0035836224 0.083645314 0.0009361913 0.083646469 0.00090136979
0.083674736 0.0013736283 0.083651535 0.00065535773 0.083635718 0.00086121872 0.083647922 0.00071090017
0.083601527 0.00082713168 0.083571009 0.00098766596 0.25471812 0.0041920017 0.24954656 0.0014191896
0.083571479 0.0010138621 0.083528854 0.00056413852 0.083500363 0.00028306679 0.083506882 0.00018734706
0.083725601 0.0012094099 0.083703227 0.0014066711 0.24984837 0.0028125884 0.25442502 0.0040299562
0.083721533 0.0019884009 0.083673179 0.00104119 0.083650388 0.00067839754 0.083655752 0.00057159096
0.083973087 0.0014761031 0.083947286 0.0021181633 0.083905391 0.001739386 0.083920389 0.0022446529
0.25435561 0.0050666071 0.25053704 0.0022087805 0.083813667 0.0014622058 0.083846107 0.0013437928
0.083812669 0.0018958793 0.083772562 0.0012890102 0.083720915 0.0011792376 0.083741158 0.0011945515
0.25029346 0.0021019683 0.25379506 0.0040335716 0.083747804 0.0020449385 0.083753079 0.0014949489
0.083610371 0.0010997652 0.083564147 0.0010034564 0.083500169 0.00040850881 0.083510853 0.00034732878
0.083565667 0.00092513091 0.083564825 0.0015927904 0.2549136 0.0038537455 0.24960098 0.0017130729
0.08373189 0.0012690825 0.083702728 0.0011909758 0.083631732 0.00064812752 0.083642088 0.00057830621
0.083690196 0.001117129 0.083691247 0.0013700756 0.24992278 0.0027846477 0.25397539 0.003890516
5994994.994995 0.25490519 0.0044652852 0.25021467 0.002823934 0.083796471 0.0010148397 0.083790421 0.00092667458
0.083941728 0.0010263872 0.083850019 0.0015573408 0.083816491 0.0012519022 0.083840154 0.0010668946
0.25052124 0.0027814365 0.2544876 0.0042231516 0.083827965 0.0011594668 0.083829105 0.0010956543
0.083976693 0.0016555112 0.083866797 0.00082452712 0.08384344 0.0010721474 0.083879687 0.00091495778
0.083725907 0.00099838455 0.083675571 0.0011959185 0.2549403 0.0047597829 0.24968304 0.0018013543
0.083785385 0.0012152848 0.083654009 0.00070092705 0.083623149 0.00040904334 0.083647124 0.00030988079
0.083989434 0.0014526249 0.083948873 0.0016889251 0.25032091 0.0034771622 0.25497091 0.0045897905
0.084077395 0.0023152246 0.083940178 0.0012506663 0.083913848 0.00086965872 0.083944999 0.00075894909
0.084029607 0.0019385255 0.083985455 0.0026466339 0.083937488 0.0022374534 0.083952293 0.0027529369
