!Agilent Technologies,M9370A,MY54322275,A.02.50.04
!Agilent M9370A: A.02.50.04
!Date: Friday, April 06, 2018 11:07:38
!Correction: S11(Full 8 Port(1,2,3,4,5,6,7,8)) 
!S12(Full 8 Port(1,2,3,4,5,6,7,8)) 
!S13(Full 8 Port(1,2,3,4,5,6,7,8)) 
!S14(Full 8 Port(1,2,3,4,5,6,7,8)) 
!S15(Full 8 Port(1,2,3,4,5,6,7,8)) 
!S16(Full 8 Port(1,2,3,4,5,6,7,8)) 
!S17(Full 8 Port(1,2,3,4,5,6,7,8)) 
!S18(Full 8 Port(1,2,3,4,5,6,7,8)) 
!S21(Full 8 Port(1,2,3,4,5,6,7,8)) 
!S22(Full 8 Port(1,2,3,4,5,6,7,8)) 
!S23(Full 8 Port(1,2,3,4,5,6,7,8)) 
!S24(Full 8 Port(1,2,3,4,5,6,7,8)) 
!S25(Full 8 Port(1,2,3,4,5,6,7,8)) 
!S26(Full 8 Port(1,2,3,4,5,6,7,8)) 
!S27(Full 8 Port(1,2,3,4,5,6,7,8)) 
!S28(Full 8 Port(1,2,3,4,5,6,7,8)) 
!S31(Full 8 Port(1,2,3,4,5,6,7,8)) 
!S32(Full 8 Port(1,2,3,4,5,6,7,8)) 
!S33(Full 8 Port(1,2,3,4,5,6,7,8)) 
!S34(Full 8 Port(1,2,3,4,5,6,7,8)) 
!S35(Full 8 Port(1,2,3,4,5,6,7,8)) 
!S36(Full 8 Port(1,2,3,4,5,6,7,8)) 
!S37(Full 8 Port(1,2,3,4,5,6,7,8)) 
!S38(Full 8 Port(1,2,3,4,5,6,7,8)) 
!S41(Full 8 Port(1,2,3,4,5,6,7,8)) 
!S42(Full 8 Port(1,2,3,4,5,6,7,8)) 
!S43(Full 8 Port(1,2,3,4,5,6,7,8)) 
!S44(Full 8 Port(1,2,3,4,5,6,7,8)) 
!S45(Full 8 Port(1,2,3,4,5,6,7,8)) 
!S46(Full 8 Port(1,2,3,4,5,6,7,8)) 
!S47(Full 8 Port(1,2,3,4,5,6,7,8)) 
!S48(Full 8 Port(1,2,3,4,5,6,7,8)) 
!S51(Full 8 Port(1,2,3,4,5,6,7,8)) 
!S52(Full 8 Port(1,2,3,4,5,6,7,8)) 
!S53(Full 8 Port(1,2,3,4,5,6,7,8)) 
!S54(Full 8 Port(1,2,3,4,5,6,7,8)) 
!S55(Full 8 Port(1,2,3,4,5,6,7,8)) 
!S56(Full 8 Port(1,2,3,4,5,6,7,8)) 
!S57(Full 8 Port(1,2,3,4,5,6,7,8)) 
!S58(Full 8 Port(1,2,3,4,5,6,7,8)) 
!S61(Full 8 Port(1,2,3,4,5,6,7,8)) 
!S62(Full 8 Port(1,2,3,4,5,6,7,8)) 
!S63(Full 8 Port(1,2,3,4,5,6,7,8)) 
!S64(Full 8 Port(1,2,3,4,5,6,7,8)) 
!S65(Full 8 Port(1,2,3,4,5,6,7,8)) 
!S66(Full 8 Port(1,2,3,4,5,6,7,8)) 
!S67(Full 8 Port(1,2,3,4,5,6,7,8)) 
!S68(Full 8 Port(1,2,3,4,5,6,7,8)) 
!S71(Full 8 Port(1,2,3,4,5,6,7,8)) 
!S72(Full 8 Port(1,2,3,4,5,6,7,8)) 
!S73(Full 8 Port(1,2,3,4,5,6,7,8)) 
!S74(Full 8 Port(1,2,3,4,5,6,7,8)) 
!S75(Full 8 Port(1,2,3,4,5,6,7,8)) 
!S76(Full 8 Port(1,2,3,4,5,6,7,8)) 
!S77(Full 8 Port(1,2,3,4,5,6,7,8)) 
!S78(Full 8 Port(1,2,3,4,5,6,7,8)) 
!S81(Full 8 Port(1,2,3,4,5,6,7,8)) 
!S82(Full 8 Port(1,2,3,4,5,6,7,8)) 
!S83(Full 8 Port(1,2,3,4,5,6,7,8)) 
!S84(Full 8 Port(1,2,3,4,5,6,7,8)) 
!S85(Full 8 Port(1,2,3,4,5,6,7,8)) 
!S86(Full 8 Port(1,2,3,4,5,6,7,8)) 
!S87(Full 8 Port(1,2,3,4,5,6,7,8)) 
!S88(Full 8 Port(1,2,3,4,5,6,7,8)) 
!S8P File: Measurements: <S11,S12,S13,S14,S15,S16,S17,S18>,
!<S21,S22,S23,S24,S25,S26,S27,S28>,
!<S31,S32,S33,S34,S35,S36,S37,S38>,
!<S41,S42,S43,S44,S45,S46,S47,S48>,
!<S51,S52,S53,S54,S55,S56,S57,S58>,
!<S61,S62,S63,S64,S65,S66,S67,S68>,
!<S71,S72,S73,S74,S75,S76,S77,S78>,
!<S81,S82,S83,S84,S85,S86,S87,S88>:
# Hz S  RI   R 50
1000000 0.98182374 0.086192608 -5.9996296e-006 0.00016337798 2.9636513e-007 -2.9395645e-007 1.6086545e-006 1.9896889e-007
2.6569131e-007 -7.6646609e-007 -6.0064394e-008 2.5983049e-006 1.2195731e-006 3.634303e-007 1.0094086e-006 -1.6329784e-006
-1.0004027e-005 0.00016473039 0.98277515 0.08315789 -9.9695308e-007 1.4407743e-006 -3.4778779e-008 2.4646258e-006
5.4514862e-007 5.1707678e-007 6.2386255e-007 1.1152962e-006 4.872341e-007 -6.9135801e-008 1.3871985e-006 8.8738176e-007
-2.2418122e-007 -5.0816368e-007 -2.5598436e-007 -9.8617036e-008 0.97982812 0.088235758 -7.9693455e-006 0.0001152946
2.9644636e-006 1.0275825e-006 -1.5742162e-006 1.5759494e-007 -8.5056382e-007 7.6349147e-007 1.1275042e-006 -5.9895279e-007
1.0813394e-006 4.3971124e-007 2.0742864e-006 3.8268212e-007 -5.2472792e-006 0.00011703846 0.98032379 0.087825567
-1.3154423e-006 -3.3562026e-007 -1.6824035e-006 4.9193574e-007 -1.0074041e-006 -1.0404166e-006 8.0654928e-008 2.8559089e-006
-1.5032282e-006 1.7401735e-006 -3.2985913e-006 9.6669851e-007 1.9189021e-007 -7.3715103e-007 1.3807651e-006 2.0861953e-006
0.97411519 0.090293124 -5.7195343e-006 0.00010484997 -6.0940533e-007 2.0864913e-006 -2.4367424e-007 1.3396691e-006
2.0162427e-007 1.1181621e-006 1.6754224e-006 6.2054119e-007 2.9949163e-007 3.2035049e-007 2.4336407e-007 8.6689789e-007
-5.4677489e-006 0.00010527804 0.98111409 0.086059459 -3.1820534e-006 9.5224004e-007 -1.313416e-006 1.222063e-007
-8.9668634e-007 -5.3582181e-007 1.4243318e-006 1.3737515e-006 -1.6014756e-006 -1.1274976e-006 -2.3700998e-007 5.263002e-007
-1.6793991e-006 -1.9369104e-007 -1.4466307e-006 2.8121397e-007 0.97884876 0.090759508 -7.6590413e-006 0.00011771142
-2.6737249e-007 2.7062654e-007 -2.1303974e-006 2.3898065e-007 7.5301801e-007 -9.9948501e-008 2.0735806e-006 5.7745035e-007
2.0281987e-006 -3.5755093e-006 5.9418238e-007 9.1859351e-007 -6.8121417e-006 0.00011597544 0.97846401 0.090828612
1499499.4994995 0.99886435 0.0061705965 3.067694e-006 0.00025622422 -1.4290824e-006 8.6748742e-007 4.4682814e-008 2.3552448e-006
1.6755787e-006 3.1283814e-006 1.3937005e-006 2.0556133e-006 -1.9238325e-006 8.603223e-009 9.3542974e-007 8.4710257e-007
2.4775716e-006 0.00025313441 0.99912411 0.0048812432 2.2253917e-006 3.414803e-008 1.0257518e-006 1.4088514e-006
-5.327812e-007 -2.3321986e-006 -2.3679233e-007 8.6432084e-007 -3.4056318e-006 -7.4326823e-007 -1.7908758e-006 2.6086245e-006
5.5455303e-007 1.1547696e-009 8.0666297e-008 5.0486335e-007 0.99881506 0.006871629 1.8235158e-007 0.00017875797
5.2097062e-007 3.98871e-006 1.5080544e-006 9.6966187e-007 1.1873038e-006 2.5734309e-006 -5.7530917e-007 3.4326291e-007
-1.843601e-007 2.9054422e-006 1.6814352e-006 1.6674936e-006 2.6569826e-006 0.00017806835 0.99909431 0.0061260886
-1.4610894e-006 5.8505685e-007 1.0842795e-006 -8.0892596e-007 -7.58488e-007 1.2615438e-009 1.1965329e-006 8.0318233e-007
-1.3588806e-006 -6.5966066e-007 6.574561e-007 -1.564749e-006 3.8842737e-007 1.1581709e-006 -2.0245291e-006 1.3777685e-006
0.99982935 0.0082658809 1.1603819e-006 0.00016567823 -3.4906878e-007 2.871281e-007 -5.0664528e-007 5.5175411e-007
6.1030863e-007 2.7414858e-006 -6.2740526e-007 -3.4310236e-007 1.2913968e-006 -2.3590029e-007 3.7403438e-006 9.7422515e-008
1.2785272e-006 0.00016065141 0.99893045 0.0053418512 9.3992162e-007 1.7427125e-006 4.7303627e-007 2.7665681e-006
1.3975799e-007 1.363735e-006 5.5907066e-007 1.8015647e-006 1.8052501e-007 -1.7372666e-006 -1.4929101e-007 3.6824058e-006
-1.3598316e-006 -1.598652e-006 -1.8042196e-007 1.3135699e-006 0.99866045 0.0069428314 1.4087748e-006 0.00018122784
-9.604239e-007 -3.8084998e-008 8.8708663e-007 -2.5907261e-009 8.9593993e-007 3.7371429e-008 4.2712873e-007 -2.2351662e-007
5.2494744e-007 -1.0035898e-006 6.4824195e-007 2.429882e-006 1.0916837e-006 0.00018028125 0.99883091 0.0073614251
1998998.998999 0.99894148 0.0057523842 2.9275172e-006 0.00033796104 1.5230825e-007 1.0385854e-006 -1.0826777e-006 1.857132e-006
-1.7295246e-006 -5.4120432e-007 3.6359589e-007 2.842075e-006 7.5010121e-007 2.7899416e-006 -1.7439795e-006 2.5754136e-006
4.1130561e-006 0.00033676051 0.99914187 0.0046636546 2.5744262e-006 9.8900421e-007 3.7033942e-007 1.8664404e-006
-1.04709e-006 9.1531825e-007 1.4672058e-006 5.2040309e-007 1.7770915e-006 2.1590836e-006 -1.4073768e-007 2.6349687e-006
-3.1636666e-006 8.0093866e-007 -6.0696487e-007 1.9238396e-006 0.99882913 0.0065506105 3.7238851e-006 0.00023680324
2.1236806e-006 2.0513075e-006 1.2107328e-006 2.3041645e-007 2.0219268e-006 1.5377022e-006 1.0988848e-007 6.2068074e-007
-2.6195246e-006 1.8557024e-006 4.9734791e-007 2.4960202e-006 1.5176912e-006 0.00023586125 0.99939418 0.0054952134
8.6622418e-007 1.5473421e-006 -2.5510651e-006 1.4752916e-006 1.5163765e-006 1.405429e-006 3.2462478e-007 1.5260697e-006
-1.516266e-006 9.6642418e-007 -2.0552661e-006 2.3163402e-006 -2.6421526e-007 -3.6419468e-007 -1.8432537e-008 2.1485121e-006
1.0012811 0.0063911672 -1.1400302e-006 0.0002208587 -1.4623696e-006 2.354659e-006 -1.6610014e-006 1.5570032e-006
-4.6416406e-007 1.008417e-007 -2.1590563e-006 -3.7859817e-007 4.1255547e-007 -1.3411538e-006 -1.062191e-006 1.0195694e-006
2.6371699e-006 0.00021844411 0.99886829 0.0050280718 -1.3397604e-006 4.9554501e-007 -2.4854526e-007 9.9166789e-007
2.5921736e-006 -2.4519106e-006 -5.8035204e-007 8.1154838e-007 9.5440907e-007 -2.9894539e-007 2.2363024e-006 1.8512795e-006
-2.5114489e-006 -6.7416136e-007 -3.1062797e-007 3.2355167e-006 0.99882001 0.0065300278 -1.0336448e-006 0.00023845473
-2.0721068e-006 2.4903291e-006 8.0424672e-007 3.8559995e-007 3.1824899e-007 7.5994978e-007 1.5340737e-006 2.143081e-007
-1.778885e-006 6.673946e-007 1.2456952e-006 7.4818917e-007 2.953321e-006 0.00024052741 0.99878258 0.0066429055
2498498.4984985 0.99995714 -0.0055279415 6.7201313e-006 0.00042397602 -1.1488323e-006 1.1118324e-006 1.8468147e-007 2.0698765e-006
-2.3416176e-006 1.8351649e-006 8.9085307e-007 1.1191914e-006 2.9368942e-007 1.123551e-006 1.0241499e-007 1.9283816e-006
9.9188974e-006 0.00042241852 1.0001363 -0.006263834 1.2465116e-006 2.6877838e-006 4.7592135e-007 3.7149562e-007
1.226804e-006 1.675067e-006 -1.3812392e-007 1.2444649e-007 -5.367192e-007 5.0527933e-007 -1.246855e-006 3.8762441e-006
2.4632226e-007 7.942628e-007 -1.0576302e-006 -8.4103544e-007 0.99962479 -0.005126684 8.0425752e-006 0.00029646602
-7.4660232e-007 2.2966574e-006 -8.8909349e-007 4.4738357e-007 -1.1019825e-006 2.0266643e-006 -2.8273797e-007 9.3395403e-007
-4.4474069e-007 1.3432898e-006 1.859979e-006 7.3426497e-007 8.6488099e-006 0.00029462663 0.99991387 -0.0059294133
-7.2066382e-007 -3.3001496e-007 4.5824439e-007 -1.0104137e-006 1.5639952e-007 7.4820116e-007 -3.8211073e-007 7.3195667e-007
5.3809828e-007 3.9128581e-006 6.9488925e-007 2.2548373e-007 6.0998349e-007 2.5579125e-006 -2.9055161e-007 1.7393811e-006
0.99932683 -0.0065482953 6.639114e-006 0.00027324923 2.0104997e-006 -1.562309e-006 -3.3724402e-006 1.6719449e-006
-1.5875046e-006 1.5348205e-006 2.9296658e-007 6.8731589e-007 3.1844111e-006 2.6701548e-006 -2.6869243e-006 6.5386666e-007
3.053274e-006 0.00027599011 0.99996573 -0.0068196496 -2.4406103e-007 1.6263117e-006 -1.3304689e-006 -4.3138041e-007
8.0980577e-008 1.7665069e-006 1.9429439e-008 2.9225967e-006 5.2196032e-007 2.3354016e-006 1.180028e-006 3.6784111e-006
1.7844353e-006 -8.8987542e-007 -7.90098e-007 1.4494528e-006 0.99973649 -0.0055098836 4.5699189e-006 0.00029900638
-2.8718915e-007 1.0329308e-006 -9.3734279e-008 -6.2350028e-007 -1.0333504e-006 8.8148539e-007 1.3693431e-006 1.9432503e-006
5.9136931e-007 7.6618721e-007 -1.5738595e-006 2.3050291e-006 5.5311157e-006 0.00030234322 0.99962986 -0.0056049386
2997997.997998 0.99978346 -0.0051954091 8.4465246e-006 0.00050743297 4.8946195e-006 -2.404993e-007 -5.5349062e-007 4.1305822e-007
2.8443474e-006 2.2362456e-006 5.2227739e-007 2.7229955e-006 -1.7129971e-006 2.5792447e-006 6.0462349e-007 2.7598678e-006
6.1784576e-006 0.00050405448 1.00001 -0.0060424292 -4.601072e-007 1.2867449e-006 -1.834008e-007 3.3126619e-006
2.4611497e-006 3.0328054e-006 1.1751503e-006 1.8037319e-006 5.1446585e-007 3.1477732e-006 1.5362881e-006 1.1525644e-006
8.0235367e-007 1.5461263e-006 -3.3167184e-006 3.9196257e-006 0.99983966 -0.004645058 6.9969628e-006 0.00035347816
-1.1670145e-007 7.5093192e-007 8.5293044e-007 -9.5976554e-007 6.0587871e-007 2.1666474e-006 -1.1852351e-007 2.1763285e-007
1.8374977e-006 1.5688768e-006 9.3774281e-007 4.3053501e-006 4.8172478e-006 0.00035483684 1.0003723 -0.0060916427
-1.024562e-006 2.2937263e-006 1.7054953e-006 1.0407919e-006 -1.822829e-007 2.0426755e-006 -1.2228022e-006 8.6843124e-007
1.8612664e-006 8.2951232e-007 1.842093e-006 7.4817382e-007 1.0356326e-006 1.7060826e-006 -2.7003134e-006 1.3827978e-006
1.0003971 -0.0081212586 5.9002627e-006 0.0003265143 -5.1205541e-007 3.7523355e-006 -4.7924556e-007 2.8728894e-007
1.1922391e-006 1.6502836e-006 -1.1693459e-006 2.8963896e-006 1.6472595e-006 -1.3482858e-006 -1.3815812e-006 -1.0995992e-006
4.0299956e-006 0.00032592038 0.99990439 -0.0064130803 -9.2931265e-007 2.9183586e-006 -6.4813582e-007 3.0648023e-006
1.233495e-006 2.9004102e-007 9.7663576e-007 1.1346527e-006 2.2447372e-007 7.0295073e-007 1.8061926e-006 2.6994815e-006
-7.2009004e-007 2.4413882e-006 -1.7957706e-006 2.6019429e-006 0.99954867 -0.0049428856 4.0811492e-006 0.00035994445
-8.9818315e-007 6.9038447e-007 -7.8067421e-007 1.8486068e-006 -1.4965741e-006 -8.4858804e-008 5.5603732e-007 1.9897061e-007
-3.1045903e-007 -5.5359635e-007 9.8628334e-008 2.2767983e-006 4.8969077e-006 0.00036247683 0.99936205 -0.005586761
3497497.4974975 1.0000318 -0.0079520466 1.1796986e-005 0.00059013738 -1.0336277e-006 1.5504793e-006 -1.3814036e-006 2.3637574e-006
-1.4959544e-007 6.9346967e-008 -7.2848161e-007 3.1084594e-006 1.3941287e-006 2.0775153e-006 2.1067369e-006 4.7720487e-006
7.1081495e-006 0.00059065543 1.0000762 -0.0088522686 -2.7206767e-007 2.5961344e-006 3.7063143e-007 9.7674672e-007
-1.1126067e-006 3.5660123e-006 -1.5620386e-006 2.3735349e-006 8.1066497e-007 7.4365704e-007 1.8237481e-006 5.5423163e-007
1.6795794e-006 1.4618477e-006 2.6555381e-006 2.3471412e-006 1.0000775 -0.007187455 8.2446713e-006 0.00041176306
-1.0542093e-007 3.7241109e-006 -8.5720401e-008 1.9786162e-006 4.9595349e-007 1.9679896e-006 1.1851818e-006 1.9377012e-006
-3.2108326e-006 4.7595308e-006 -1.5617618e-007 2.6434441e-006 8.5172023e-006 0.00041181638 0.99981016 -0.0087748244
1.7738001e-006 -4.4896268e-007 1.3204572e-006 3.0496926e-006 -7.9645378e-007 1.1323832e-006 1.8044193e-006 3.1995623e-006
6.2819078e-007 8.1298725e-007 2.800017e-006 4.7240414e-006 2.5602577e-007 2.8202685e-006 1.2538997e-006 2.8211048e-006
0.99896806 -0.009069168 1.5590622e-006 0.00038083459 3.9183709e-007 1.9956671e-007 -1.8673218e-006 3.0727281e-006
-2.4906692e-006 1.753855e-006 7.5809834e-007 6.0562746e-007 -1.3462725e-006 4.0736444e-007 -5.8755364e-007 -2.062439e-007
7.0266738e-006 0.00038322518 0.9998858 -0.0096797366 5.3305956e-007 2.7591961e-006 -9.1891451e-008 2.6927205e-006
-3.5368394e-006 2.7679009e-006 1.8429902e-006 1.3566138e-006 2.292568e-007 3.4916318e-006 -6.5312463e-007 2.158959e-006
-7.9721303e-007 3.2119983e-006 -9.2736707e-007 2.6547693e-006 0.99980497 -0.0079475529 7.5558087e-006 0.00042096773
1.1210461e-006 1.6385271e-006 -1.0519251e-006 1.2045574e-006 -8.763817e-007 1.2603221e-006 1.8928819e-006 4.6557417e-007
-5.1692831e-007 -1.4261238e-006 2.4711551e-006 2.4663955e-006 7.4390532e-006 0.00041851922 0.99931663 -0.0086628227
3996996.996997 0.99995363 -0.0084651168 1.1657481e-005 0.00067357946 -3.0754498e-007 2.0034829e-006 2.5730964e-007 1.8977599e-007
-1.5384481e-007 5.8277254e-007 6.6896195e-007 -3.2596503e-007 -2.5885723e-007 4.0409395e-006 3.9239512e-006 1.6716814e-006
1.0925482e-005 0.00067477208 1.0000949 -0.0093595088 5.3977436e-007 2.8423506e-006 -6.4481765e-007 2.9624493e-006
1.5962698e-007 8.8078292e-007 3.8612606e-007 2.4493986e-006 -2.1226729e-006 1.7997374e-006 2.9704627e-006 1.5059331e-006
-2.1829719e-006 2.8291024e-006 -6.9189127e-007 1.826929e-006 0.99963278 -0.0074977637 7.9895581e-006 0.00047243311
1.6614881e-007 2.7070876e-006 8.1085244e-007 4.4199669e-006 -5.393415e-007 -7.1804877e-008 -1.751545e-006 1.6373281e-006
-2.3449686e-006 1.7506831e-006 1.7535613e-006 3.0605556e-006 5.9059894e-006 0.00047253442 0.99989706 -0.0097775785
2.1224095e-007 2.2099887e-006 -5.3958803e-007 -3.1912438e-007 -3.6405564e-007 2.4203803e-006 6.4753971e-007 1.0622578e-006
-2.0225839e-006 1.7012154e-006 -2.5701218e-006 2.0713812e-006 -1.3079144e-006 3.5010833e-006 -1.0618277e-006 2.0519601e-006
0.99850786 -0.012346823 4.1122294e-006 0.00043734809 8.0878419e-007 1.3996424e-006 -6.7309765e-007 3.7150406e-007
2.200276e-006 6.8420405e-007 1.2014276e-006 2.7411977e-006 -7.5334799e-007 1.9697538e-006 1.1600081e-006 -1.2463336e-007
3.7415168e-006 0.00043667693 0.99977005 -0.0097598853 1.5926606e-006 3.4122731e-006 2.9544415e-007 2.3716407e-006
-5.1327766e-007 3.3914855e-006 -1.0025338e-006 1.3822505e-006 -1.2108721e-006 2.5001848e-008 -1.8178765e-006 1.5585972e-007
3.4833462e-007 1.5355478e-006 -6.0315614e-007 1.3321689e-006 0.99951696 -0.0078142695 8.5913307e-006 0.00047819514
3.2662017e-006 2.3327668e-006 9.4679973e-007 3.2033051e-006 -1.9982597e-006 3.7927159e-006 -1.3715086e-006 8.6667717e-007
2.900494e-007 2.2359648e-006 5.5355804e-007 4.1692438e-006 8.064435e-006 0.00048163341 0.99948007 -0.0085691512
4496496.4964965 1.000083 -0.010874922 1.1985845e-005 0.00075574656 -1.1309113e-006 2.1451742e-006 1.4235351e-006 2.1439569e-006
9.3360057e-008 2.424915e-006 2.5057074e-007 2.4308006e-006 -1.341581e-006 4.3200121e-006 5.718569e-007 2.6349928e-006
1.1989274e-005 0.00075937633 1.0000318 -0.011611764 -1.5083421e-006 1.1778562e-006 9.0158409e-007 2.7689603e-006
-1.5024165e-007 3.9328283e-006 -2.9707342e-006 2.6052435e-006 -9.6583813e-007 1.1704711e-006 -1.1669374e-006 -2.2462758e-009
-3.4278676e-007 2.4035037e-006 -2.2905591e-007 3.4948309e-006 0.99994969 -0.0097592948 9.2542105e-006 0.00053193769
-5.6079574e-007 2.9284652e-006 -2.7715746e-006 1.7688933e-006 -1.325096e-007 4.0157984e-006 -1.9825234e-006 2.1436681e-006
-2.0123839e-006 3.3390552e-006 -6.1147972e-007 2.4040821e-006 6.2715894e-006 0.00053087098 1.0000209 -0.011334832
-2.3331845e-006 4.1147905e-006 -8.224132e-007 -8.0663506e-007 -6.8439738e-007 -9.676852e-007 7.5722352e-007 5.6298455e-007
9.3566229e-008 2.3573807e-006 1.0846184e-006 2.687708e-006 -2.1499652e-007 1.9903273e-006 6.4766897e-007 3.5225025e-006
1.0006195 -0.011678157 5.8124606e-006 0.00048971182 7.6130362e-007 2.5078834e-006 3.2064156e-007 -2.1009009e-006
-1.3323842e-007 3.8023327e-006 -3.0526289e-006 3.4433333e-006 1.2052528e-006 1.0101666e-006 -2.5288819e-007 4.5732884e-007
7.7732848e-006 0.00049139065 0.99989098 -0.012819646 8.6678267e-007 2.2480435e-006 2.3174582e-006 3.3148219e-006
-1.7087508e-006 4.4089725e-006 1.753002e-006 3.2076712e-006 5.8611743e-008 7.3417851e-007 -5.9684186e-007 3.1651439e-006
-8.3013862e-007 4.295876e-007 -2.3780909e-007 6.6802562e-007 1.0000072 -0.010785788 8.9457462e-006 0.00054026925
-7.6149468e-007 2.1226963e-006 1.9382676e-006 5.038868e-006 2.1289898e-006 8.2838932e-007 5.1649948e-007 -1.6042746e-007
-8.2539191e-007 -7.6616388e-008 -4.4041138e-007 2.5210261e-006 7.7197892e-006 0.00053896254 1.0002706 -0.011267319
4995995.995996 1.0000182 -0.011736557 1.1952628e-005 0.00084159448 -2.3609789e-006 3.8554003e-007 -9.8728151e-007 3.170157e-006
-8.5148145e-008 4.0053405e-006 -2.1734472e-006 1.904259e-006 -1.209454e-006 3.3965532e-006 1.9176821e-006 3.4681705e-006
1.4437533e-005 0.00084022357 0.99999785 -0.012707962 -4.2480869e-007 2.3967357e-006 3.086048e-007 5.5207142e-006
7.316126e-007 4.8711036e-006 4.2760504e-007 -8.3286364e-009 1.1371179e-006 1.2736933e-006 1.4051105e-007 2.7691167e-006
9.3803152e-007 2.0346213e-006 -2.2130253e-006 2.0983862e-006 0.99944651 -0.01066299 1.0042892e-005 0.00058584433
6.2051993e-007 1.0039562e-006 -5.6830942e-007 9.6770452e-007 5.7623669e-007 9.151405e-007 -1.288504e-006 1.3896032e-006
2.1972596e-006 2.6892365e-006 -2.0261946e-006 2.2238385e-006 9.4005618e-006 0.00058966968 0.99984956 -0.013003787
5.3545443e-007 1.7118052e-006 2.7619478e-007 3.3240735e-007 -8.140284e-007 9.7553061e-007 1.6906951e-006 4.6293337e-007
1.4560451e-006 1.6897114e-006 1.9381946e-006 3.4163675e-006 2.8502811e-006 -3.6356332e-007 -1.2689375e-006 6.1753191e-008
0.9980917 -0.013748217 5.8324081e-006 0.00054645899 -1.8942338e-006 1.0471713e-006 1.2507606e-006 1.0318348e-006
-5.3097153e-007 3.6520512e-006 5.4390807e-008 4.5784809e-006 6.2499817e-007 5.1585766e-006 -3.4339885e-007 2.0297546e-006
5.6349227e-006 0.00054656423 0.99960619 -0.013306571 2.5047536e-006 2.7870001e-006 2.2173213e-006 2.3230652e-006
1.3142649e-006 5.0571466e-006 2.673509e-006 3.9506699e-006 7.3973376e-007 1.4576915e-006 3.0512683e-006 2.3384065e-007
-1.1331577e-007 3.5211976e-006 -6.5616672e-007 3.3551923e-006 0.99963158 -0.010909357 9.0044932e-006 0.00060041103
-7.478078e-007 2.2423974e-006 -3.2929097e-007 4.1438857e-006 -5.5800466e-008 9.2778515e-007 -2.5179272e-006 3.9080201e-006
2.9535971e-007 -4.5144387e-007 -2.2585889e-006 3.1264785e-006 7.0472856e-006 0.00060161285 0.99995404 -0.011360458
5495495.4954955 1.0001155 -0.013225879 1.2974233e-005 0.00092685834 7.0288661e-007 2.0810958e-006 -1.5680648e-006 3.3501719e-006
